# Hz S RI R 50
1000000 0.991961 0.00163489
12998000 1.01888 -0.0586419
24996000 1.01363 -0.128947
36994000 0.999724 -0.19584
48992000 0.981822 -0.259624
60990000 0.960669 -0.319001
72988000 0.935027 -0.377774
84986000 0.906641 -0.433634
96984000 0.875167 -0.487107
108982000 0.841253 -0.538722
120980000 0.805433 -0.587851
132978000 0.768334 -0.634171
144976000 0.72909 -0.678734
156974000 0.688268 -0.721292
168972000 0.64585 -0.760912
180970000 0.602609 -0.797557
192968000 0.558125 -0.830585
204966000 0.512141 -0.861527
216964000 0.465797 -0.888685
228962000 0.418724 -0.91214
240960000 0.372162 -0.932099
252958000 0.325425 -0.948159
264956000 0.279153 -0.961434
276954000 0.233246 -0.972394
288952000 0.18763 -0.979841
300950000 0.141798 -0.985013
312948000 0.0979545 -0.987039
324946000 0.0559421 -0.987227
336944000 0.0151726 -0.985546
348942000 -0.0246515 -0.983588
360940000 -0.0644654 -0.979892
372938000 -0.10283 -0.976312
384936000 -0.139873 -0.972585
396934000 -0.176596 -0.96799
408932000 -0.213175 -0.963177
420930000 -0.247544 -0.957648
432928000 -0.283583 -0.950495
444926000 -0.317251 -0.941747
456924000 -0.3495 -0.932964
468922000 -0.381743 -0.923437
480920000 -0.411816 -0.911774
492918000 -0.440348 -0.898366
504916000 -0.467775 -0.88443
516914000 -0.495634 -0.869443
528912000 -0.520482 -0.852845
540910000 -0.544861 -0.835937
552908000 -0.567507 -0.818486
564906000 -0.588511 -0.801227
576904000 -0.609148 -0.784152
588902000 -0.629021 -0.767353
600900000 -0.647926 -0.749423
612898000 -0.665134 -0.732742
624896000 -0.683185 -0.715869
636894000 -0.700767 -0.698988
648892000 -0.718051 -0.683143
660890000 -0.734675 -0.667549
672888000 -0.751533 -0.650762
684886000 -0.768203 -0.634951
696884000 -0.784988 -0.617306
708882000 -0.800923 -0.600104
720880000 -0.816958 -0.582915
732878000 -0.830882 -0.563596
744876000 -0.843803 -0.54472
756874000 -0.856743 -0.526019
768872000 -0.869046 -0.505476
780870000 -0.879505 -0.485195
792868000 -0.888451 -0.464734
804866000 -0.8968 -0.444772
816864000 -0.90562 -0.426396
828862000 -0.912023 -0.408144
840860000 -0.9184 -0.391075
852858000 -0.92342 -0.373204
864856000 -0.929599 -0.35534
876854000 -0.935803 -0.338059
888852000 -0.942783 -0.32194
900850000 -0.948284 -0.305112
912848000 -0.954183 -0.289258
924846000 -0.959963 -0.273695
936844000 -0.965857 -0.258157
948842000 -0.971958 -0.243952
960840000 -0.978745 -0.230254
972838000 -0.984504 -0.215268
984836000 -0.989934 -0.199093
996834000 -0.993829 -0.184149
1008832000 -0.9971 -0.16938
1020830000 -1.00117 -0.15307
1032828000 -1.00363 -0.136259
1044826000 -1.00581 -0.119846
1056824000 -1.00761 -0.103524
1068822000 -1.00899 -0.085912
1080820000 -1.00907 -0.068847
1092818000 -1.00888 -0.050679
1104816000 -1.0088 -0.0335401
1116814000 -1.00725 -0.0167076
1128812000 -1.00746 -0.00230488
1140810000 -1.00593 0.0125754
1152808000 -1.00616 0.02726
1164806000 -1.00605 0.0407858
1176804000 -1.00828 0.0569599
1188802000 -1.00361 0.0718669
1200800000 -1.00274 0.0815902
1212798000 -1.00255 0.0942209
1224796000 -1.00182 0.106353
1236794000 -1.00206 0.118127
1248792000 -1.0008 0.129756
1260790000 -1.00072 0.142052
1272788000 -0.998849 0.153313
1284786000 -0.996847 0.164992
1296784000 -0.992409 0.175887
1308782000 -0.990058 0.189115
1320780000 -0.987405 0.202574
1332778000 -0.984984 0.216412
1344776000 -0.982175 0.230793
1356774000 -0.979596 0.245716
1368772000 -0.976951 0.259024
1380770000 -0.972851 0.274321
1392768000 -0.968878 0.288455
1404766000 -0.963398 0.304426
1416764000 -0.959287 0.320419
1428762000 -0.953439 0.334302
1440760000 -0.948153 0.348605
1452758000 -0.9423 0.361127
1464756000 -0.938541 0.37335
1476754000 -0.934065 0.386181
1488752000 -0.929414 0.396876
1500750000 -0.923718 0.407974
1512748000 -0.916895 0.416143
1524746000 -0.911047 0.424572
1536744000 -0.904556 0.433921
1548742000 -0.898095 0.443635
1560740000 -0.89271 0.452944
1572738000 -0.886984 0.463289
1584736000 -0.88265 0.474076
1596734000 -0.878758 0.485323
1608732000 -0.874197 0.49678
1620730000 -0.869617 0.507171
1632728000 -0.865269 0.518356
1644726000 -0.859281 0.530352
1656724000 -0.852172 0.541509
1668722000 -0.845026 0.552644
1680720000 -0.839768 0.563763
1692718000 -0.834995 0.573747
1704716000 -0.829598 0.581812
1716714000 -0.823671 0.589218
1728712000 -0.817215 0.599641
1740710000 -0.806896 0.61102
1752708000 -0.797544 0.621354
1764706000 -0.787163 0.628402
1776704000 -0.778418 0.63622
1788702000 -0.768615 0.642957
1800700000 -0.758999 0.650006
1812698000 -0.746226 0.658107
1824696000 -0.738044 0.667824
1836694000 -0.730088 0.675853
1848692000 -0.722305 0.686304
1860690000 -0.713004 0.694516
1872688000 -0.705295 0.704265
1884686000 -0.696496 0.713801
1896684000 -0.689211 0.7232
1908682000 -0.679623 0.735094
1920680000 -0.673066 0.745676
1932678000 -0.664943 0.756849
1944676000 -0.655708 0.764271
1956674000 -0.647908 0.774581
1968672000 -0.644076 0.783495
1980670000 -0.637068 0.789829
1992668000 -0.632902 0.793246
2004666000 -0.629304 0.798594
2016664000 -0.622777 0.801945
2028662000 -0.616616 0.803206
2040660000 -0.60892 0.805973
2052658000 -0.601636 0.807133
2064656000 -0.593709 0.808483
2076654000 -0.583668 0.81179
2088652000 -0.573175 0.813038
2100650000 -0.563396 0.814894
2112648000 -0.547682 0.821218
2124646000 -0.534122 0.828527
2136644000 -0.521973 0.835433
2148642000 -0.506501 0.844956
2160640000 -0.49299 0.854398
2172638000 -0.483187 0.864457
2184636000 -0.472815 0.876248
2196634000 -0.462851 0.887381
2208632000 -0.457232 0.898863
2220630000 -0.451179 0.906233
2232628000 -0.448443 0.913428
2244626000 -0.447125 0.918869
2256624000 -0.445324 0.92054
2268622000 -0.438013 0.924018
2280620000 -0.436005 0.925723
2292618000 -0.433019 0.92878
2304616000 -0.427158 0.927966
2316614000 -0.419743 0.926925
2328612000 -0.408078 0.927343
2340610000 -0.395287 0.927098
2352608000 -0.378946 0.926916
2364606000 -0.363323 0.9295
2376604000 -0.346652 0.927786
2388602000 -0.327702 0.931542
2400600000 -0.313726 0.934189
2412598000 -0.296272 0.939944
2424596000 -0.281006 0.943542
2436594000 -0.26495 0.948069
2448592000 -0.251814 0.953081
2460590000 -0.238622 0.9606
2472588000 -0.227987 0.968606
2484586000 -0.220371 0.974787
2496584000 -0.212898 0.982275
2508582000 -0.202822 0.987093
2520580000 -0.1962 0.994457
2532578000 -0.186809 0.996892
2544576000 -0.180811 1.00137
2556574000 -0.173845 1.00353
2568572000 -0.167033 1.00543
2580570000 -0.156325 1.0047
2592568000 -0.14896 1.00173
2604566000 -0.145637 0.998237
2616564000 -0.131854 0.994726
2628562000 -0.121386 0.992148
2640560000 -0.111462 0.986325
2652558000 -0.100886 0.986092
2664556000 -0.0891882 0.983565
2676554000 -0.0783252 0.982186
2688552000 -0.0651175 0.979363
2700550000 -0.0526256 0.980212
2712548000 -0.040875 0.97774
2724546000 -0.0277685 0.979902
2736544000 -0.0179635 0.983618
2748542000 -0.0057474 0.986258
2760540000 0.00487724 0.988867
2772538000 0.0155525 0.99238
2784536000 0.0257672 0.995917
2796534000 0.0360127 0.997311
2808532000 0.0432082 0.999385
2820530000 0.052935 0.999063
2832528000 0.0606136 1.00161
2844526000 0.0689854 0.998794
2856524000 0.0773607 0.997542
2868522000 0.0856929 0.994876
2880520000 0.0925495 0.991189
2892518000 0.100936 0.986334
2904516000 0.109108 0.984638
2916514000 0.116313 0.981143
2928512000 0.125171 0.977697
2940510000 0.127658 0.975419
2952508000 0.138621 0.969347
2964506000 0.148749 0.968431
2976504000 0.160283 0.965425
2988502000 0.17123 0.965127
3000500000 0.184634 0.964725
3012498000 0.195115 0.965235
3024496000 0.198963 0.963637
3036494000 0.213234 0.963619
3048492000 0.224008 0.963016
3060490000 0.23371 0.962631
3072488000 0.241456 0.960508
3084486000 0.250499 0.959397
3096484000 0.257229 0.95725
3108482000 0.265754 0.954438
3120480000 0.27312 0.953222
3132478000 0.278247 0.947865
3144476000 0.288875 0.943785
3156474000 0.295708 0.94225
3168472000 0.302507 0.939328
3180470000 0.311332 0.934597
3192468000 0.31999 0.930808
3204466000 0.329069 0.92517
3216464000 0.33895 0.920208
3228462000 0.350147 0.915526
3240460000 0.360166 0.912502
3252458000 0.371694 0.90913
3264456000 0.382783 0.905963
3276454000 0.391612 0.902688
3288452000 0.403197 0.898366
3300450000 0.410189 0.890617
3312448000 0.423021 0.887005
3324446000 0.431148 0.881444
3336444000 0.441969 0.878053
3348442000 0.449914 0.871791
3360440000 0.45963 0.867372
3372438000 0.469724 0.860649
3384436000 0.478253 0.854441
3396434000 0.486068 0.845552
3408432000 0.494722 0.842138
3420430000 0.506651 0.834042
3432428000 0.516189 0.828586
3444426000 0.530692 0.820612
3456424000 0.540217 0.814157
3468422000 0.548333 0.807968
3480420000 0.559444 0.800526
3492418000 0.570481 0.794666
3504416000 0.581582 0.787084
3516414000 0.588944 0.779926
3528412000 0.598929 0.777353
3540410000 0.605582 0.771453
3552408000 0.614954 0.767314
3564406000 0.622803 0.761258
3576404000 0.628244 0.752472
3588402000 0.635856 0.750082
3600400000 0.641767 0.742135
3612398000 0.647412 0.735003
3624396000 0.65499 0.726771
3636394000 0.662868 0.720152
3648392000 0.67033 0.713507
3660390000 0.675141 0.705191
3672388000 0.682042 0.697715
3684386000 0.691994 0.687745
3696384000 0.700599 0.680389
3708382000 0.706103 0.669794
3720380000 0.71543 0.661743
3732378000 0.723252 0.652349
3744376000 0.728113 0.644426
3756374000 0.73833 0.633801
3768372000 0.74468 0.625709
3780370000 0.752262 0.615426
3792368000 0.75762 0.60961
3804366000 0.765336 0.602326
3816364000 0.768431 0.593851
3828362000 0.77643 0.58888
3840360000 0.778721 0.588178
3852358000 0.784092 0.577174
3864356000 0.786959 0.570928
3876354000 0.790867 0.566687
3888352000 0.794521 0.559644
3900350000 0.798796 0.55519
3912348000 0.802218 0.549058
3924346000 0.807373 0.54318
3936344000 0.809537 0.537081
3948342000 0.812815 0.531776
3960340000 0.812082 0.528893
3972338000 0.816433 0.521793
3984336000 0.821243 0.509976
3996334000 0.825984 0.502972
4008332000 0.831361 0.494525
4020330000 0.837247 0.483582
4032328000 0.8424 0.476168
4044326000 0.847408 0.466365
4056324000 0.852243 0.455351
4068322000 0.854872 0.442776
4080320000 0.858941 0.428346
4092318000 0.864369 0.413111
4104316000 0.870513 0.393986
4116314000 0.874094 0.373164
4128312000 0.881992 0.356675
4140310000 0.889252 0.337335
4152308000 0.894625 0.319257
4164306000 0.901608 0.301998
4176304000 0.907718 0.290272
4188302000 0.912309 0.278437
4200300000 0.917501 0.270706
4212298000 0.915618 0.267209
4224296000 0.916564 0.26718
4236294000 0.918671 0.261772
4248292000 0.917587 0.261657
4260290000 0.92679 0.257346
4272288000 0.923923 0.253626
4284286000 0.923369 0.25199
4296284000 0.92473 0.242883
4308282000 0.927689 0.230635
4320280000 0.928035 0.213366
4332278000 0.926533 0.205873
4344276000 0.923672 0.190084
4356274000 0.926562 0.173268
4368272000 0.920566 0.161752
4380270000 0.921209 0.143889
4392268000 0.917111 0.122596
4404266000 0.916126 0.105948
4416264000 0.91494 0.0837447
4428262000 0.914665 0.0647342
4440260000 0.914368 0.0455115
4452258000 0.920481 0.0279838
4464256000 0.922991 0.0109042
4476254000 0.923735 -0.00306847
4488252000 0.925795 -0.0152954
4500250000 0.92518 -0.0251912
4512248000 0.925356 -0.0393053
4524246000 0.928099 -0.0482365
4536244000 0.929277 -0.0576328
4548242000 0.928001 -0.0665938
4560240000 0.929448 -0.0697282
4572238000 0.92443 -0.076966
4584236000 0.923831 -0.0882915
4596234000 0.918069 -0.0950474
4608232000 0.908806 -0.10246
4620230000 0.900947 -0.114235
4632228000 0.894204 -0.134515
4644226000 0.884465 -0.149448
4656224000 0.873589 -0.167298
4668222000 0.866366 -0.184619
4680220000 0.853935 -0.204687
4692218000 0.850145 -0.224577
4704216000 0.837238 -0.243094
4716214000 0.827299 -0.260021
4728212000 0.814636 -0.276053
4740210000 0.803989 -0.294386
4752208000 0.791716 -0.31387
4764206000 0.781513 -0.330224
4776204000 0.770913 -0.346737
4788202000 0.763426 -0.361654
4800200000 0.750811 -0.377406
4812198000 0.743679 -0.3933
4824196000 0.733877 -0.404025
4836194000 0.721229 -0.413149
4848192000 0.710143 -0.425417
4860190000 0.695503 -0.434304
4872188000 0.679943 -0.443037
4884186000 0.66088 -0.450223
4896184000 0.637725 -0.460692
4908182000 0.619206 -0.472276
4920180000 0.590929 -0.477433
4932178000 0.566548 -0.490308
4944176000 0.536585 -0.495487
4956174000 0.509799 -0.504058
4968172000 0.473739 -0.504557
4980170000 0.44064 -0.508669
4992168000 0.406277 -0.509744
5004166000 0.371633 -0.51083
5016164000 0.333788 -0.51124
5028162000 0.301472 -0.510229
5040160000 0.264419 -0.502974
5052158000 0.229387 -0.497224
5064156000 0.195232 -0.483947
5076154000 0.164909 -0.470954
5088152000 0.132338 -0.456708
5100150000 0.102983 -0.434858
5112148000 0.0812992 -0.410288
5124146000 0.0542649 -0.38483
5136144000 0.0317154 -0.351946
5148142000 0.0140276 -0.31983
5160140000 -0.000687667 -0.278937
5172138000 -0.00452771 -0.240614
5184136000 -0.00808233 -0.196398
5196134000 -0.0119786 -0.147937
5208132000 -0.0093753 -0.0966037
5220130000 -0.00910139 -0.0512076
5232128000 -0.00580494 -0.00179748
5244126000 -0.00229603 0.0451946
5256124000 0.00730797 0.0870089
5268122000 0.0146731 0.13646
5280120000 0.0347691 0.166497
5292118000 0.0555364 0.198244
5304116000 0.0876093 0.2226
5316114000 0.118859 0.2427
5328112000 0.156293 0.259403
5340110000 0.198383 0.274141
5352108000 0.227723 0.283949
5364106000 0.268821 0.296025
5376104000 0.303308 0.299491
5388102000 0.333646 0.303286
5400100000 0.365587 0.303626
5412098000 0.396032 0.305503
5424096000 0.426019 0.300035
5436094000 0.455199 0.296352
5448092000 0.480622 0.289607
5460090000 0.508668 0.281099
5472088000 0.533542 0.271245
5484086000 0.560225 0.259458
5496084000 0.586808 0.245662
5508082000 0.611383 0.232978
5520080000 0.633095 0.217974
5532078000 0.655078 0.205536
5544076000 0.674772 0.190514
5556074000 0.694027 0.176761
5568072000 0.708001 0.167953
5580070000 0.724908 0.153751
5592068000 0.738332 0.139255
5604066000 0.755756 0.124788
5616064000 0.758498 0.116313
5628062000 0.772646 0.101416
5640060000 0.776551 0.0899666
5652058000 0.782811 0.07488
5664056000 0.786995 0.0578533
5676054000 0.794189 0.0423577
5688052000 0.796473 0.0276556
5700050000 0.799667 0.0116483
5712048000 0.80332 -0.00453034
5724046000 0.80819 -0.0214038
5736044000 0.814594 -0.0377381
5748042000 0.818011 -0.0534929
5760040000 0.820314 -0.0686468
5772038000 0.824143 -0.0866558
5784036000 0.830374 -0.100399
5796034000 0.834561 -0.116097
5808032000 0.840291 -0.129397
5820030000 0.84331 -0.148082
5832028000 0.850266 -0.16089
5844026000 0.853078 -0.175788
5856024000 0.856315 -0.190192
5868022000 0.856684 -0.210666
5880020000 0.851129 -0.221392
5892018000 0.858889 -0.23548
5904016000 0.853243 -0.255692
5916014000 0.856722 -0.274705
5928012000 0.844338 -0.292462
5940010000 0.842993 -0.304143
5952008000 0.833769 -0.319755
5964006000 0.823205 -0.333431
5976004000 0.820349 -0.345999
5988002000 0.812383 -0.361108
6000000000 0.803301 -0.374652
