# Hz S RI R 50
1000000 0.994191 0.00145939
12998000 1.01802 -0.0579556
24996000 1.01273 -0.127785
36994000 0.998985 -0.194184
48992000 0.981457 -0.257482
60990000 0.960625 -0.317134
72988000 0.9351 -0.375998
84986000 0.90704 -0.431955
96984000 0.875607 -0.485581
108982000 0.841677 -0.537403
120980000 0.805879 -0.586791
132978000 0.768903 -0.633178
144976000 0.73 -0.677805
156974000 0.68904 -0.720698
168972000 0.646982 -0.759816
180970000 0.603696 -0.796478
192968000 0.559421 -0.829592
204966000 0.513361 -0.860888
216964000 0.467399 -0.887898
228962000 0.419967 -0.911704
240960000 0.373491 -0.9318
252958000 0.327343 -0.948149
264956000 0.280661 -0.961634
276954000 0.234279 -0.972499
288952000 0.189314 -0.980017
300950000 0.143909 -0.984597
312948000 0.100417 -0.986999
324946000 0.0585497 -0.987704
336944000 0.0174073 -0.986394
348942000 -0.0224618 -0.984325
360940000 -0.0624253 -0.980947
372938000 -0.100989 -0.977516
384936000 -0.137969 -0.973763
396934000 -0.174394 -0.969296
408932000 -0.211366 -0.964517
420930000 -0.245893 -0.959358
432928000 -0.281845 -0.951622
444926000 -0.315874 -0.943094
456924000 -0.348343 -0.934153
468922000 -0.380597 -0.925055
480920000 -0.410441 -0.913328
492918000 -0.43889 -0.90017
504916000 -0.466782 -0.885997
516914000 -0.494394 -0.871189
528912000 -0.519649 -0.855038
540910000 -0.543739 -0.837731
552908000 -0.566699 -0.82033
564906000 -0.588348 -0.802686
576904000 -0.6089 -0.785651
588902000 -0.628545 -0.768803
600900000 -0.647168 -0.7514
612898000 -0.664605 -0.734565
624896000 -0.682342 -0.717872
636894000 -0.699906 -0.701176
648892000 -0.717282 -0.685431
660890000 -0.73404 -0.669469
672888000 -0.751194 -0.653372
684886000 -0.768078 -0.636993
696884000 -0.784075 -0.619251
708882000 -0.800503 -0.602323
720880000 -0.81645 -0.585321
732878000 -0.830307 -0.565472
744876000 -0.843485 -0.546976
756874000 -0.856367 -0.527494
768872000 -0.868299 -0.507467
780870000 -0.878899 -0.487587
792868000 -0.887873 -0.46748
804866000 -0.896116 -0.447602
816864000 -0.904848 -0.428663
828862000 -0.912243 -0.410554
840860000 -0.919715 -0.391817
852858000 -0.92434 -0.375077
864856000 -0.929964 -0.356938
876854000 -0.936234 -0.33941
888852000 -0.942944 -0.323081
900850000 -0.948805 -0.306873
912848000 -0.954399 -0.290862
924846000 -0.960077 -0.275188
936844000 -0.965838 -0.259735
948842000 -0.972386 -0.245568
960840000 -0.979067 -0.231314
972838000 -0.984492 -0.216357
984836000 -0.989926 -0.200449
996834000 -0.993921 -0.185202
1008832000 -0.996792 -0.169781
1020830000 -1.00066 -0.154276
1032828000 -1.00343 -0.137254
1044826000 -1.00579 -0.120885
1056824000 -1.00772 -0.10434
1068822000 -1.0101 -0.0867293
1080820000 -1.01018 -0.0687472
1092818000 -1.00882 -0.0530591
1104816000 -1.00879 -0.0358341
1116814000 -1.00746 -0.0188546
1128812000 -1.00772 -0.00442454
1140810000 -1.00558 0.0113638
1152808000 -1.00633 0.0264578
1164806000 -1.00607 0.0401458
1176804000 -1.00843 0.0558322
1188802000 -1.00379 0.0709166
1200800000 -1.00289 0.0808382
1212798000 -1.00261 0.0930379
1224796000 -1.00165 0.104921
1236794000 -1.0023 0.117062
1248792000 -1.00123 0.128695
1260790000 -1.00074 0.140381
1272788000 -0.999713 0.151589
1284786000 -0.996938 0.162278
1296784000 -0.992833 0.173948
1308782000 -0.990239 0.187528
1320780000 -0.987374 0.201418
1332778000 -0.984541 0.215101
1344776000 -0.981394 0.229678
1356774000 -0.979424 0.244914
1368772000 -0.975783 0.258085
1380770000 -0.973402 0.272167
1392768000 -0.967789 0.287721
1404766000 -0.963302 0.302869
1416764000 -0.95793 0.318787
1428762000 -0.952819 0.333918
1440760000 -0.947531 0.347887
1452758000 -0.942344 0.359515
1464756000 -0.938252 0.372087
1476754000 -0.934039 0.384905
1488752000 -0.929778 0.395045
1500750000 -0.926743 0.404734
1512748000 -0.917368 0.415501
1524746000 -0.911862 0.424238
1536744000 -0.904512 0.432723
1548742000 -0.899399 0.442731
1560740000 -0.892999 0.451284
1572738000 -0.887399 0.462547
1584736000 -0.883059 0.473367
1596734000 -0.879311 0.484035
1608732000 -0.874777 0.495768
1620730000 -0.87044 0.506238
1632728000 -0.86568 0.517826
1644726000 -0.859065 0.529727
1656724000 -0.852976 0.540501
1668722000 -0.846526 0.549935
1680720000 -0.840839 0.56267
1692718000 -0.834875 0.572463
1704716000 -0.829174 0.579947
1716714000 -0.823601 0.589097
1728712000 -0.817421 0.598477
1740710000 -0.808405 0.610008
1752708000 -0.798435 0.619815
1764706000 -0.788465 0.627501
1776704000 -0.779552 0.635219
1788702000 -0.770059 0.642125
1800700000 -0.760536 0.650452
1812698000 -0.747822 0.65786
1824696000 -0.740011 0.667058
1836694000 -0.731786 0.675807
1848692000 -0.72386 0.685221
1860690000 -0.71513 0.694138
1872688000 -0.706644 0.702874
1884686000 -0.698104 0.712835
1896684000 -0.690672 0.722642
1908682000 -0.681485 0.734487
1920680000 -0.674736 0.74473
1932678000 -0.666633 0.755207
1944676000 -0.657308 0.763826
1956674000 -0.651212 0.772594
1968672000 -0.647478 0.782468
1980670000 -0.639967 0.78914
1992668000 -0.635197 0.793362
2004666000 -0.630571 0.798272
2016664000 -0.624831 0.801236
2028662000 -0.618149 0.804077
2040660000 -0.61103 0.80632
2052658000 -0.604041 0.80723
2064656000 -0.595733 0.808964
2076654000 -0.585319 0.812538
2088652000 -0.57463 0.814314
2100650000 -0.56327 0.816154
2112648000 -0.550124 0.823082
2124646000 -0.536944 0.829453
2136644000 -0.52195 0.837013
2148642000 -0.509446 0.845853
2160640000 -0.496117 0.855663
2172638000 -0.485411 0.865597
2184636000 -0.47538 0.877265
2196634000 -0.464937 0.888446
2208632000 -0.459209 0.900453
2220630000 -0.453761 0.907182
2232628000 -0.450704 0.914306
2244626000 -0.449351 0.919489
2256624000 -0.445847 0.922083
2268622000 -0.441165 0.924967
2280620000 -0.436201 0.927375
2292618000 -0.434318 0.929861
2304616000 -0.429387 0.930059
2316614000 -0.422044 0.928542
2328612000 -0.410444 0.928452
2340610000 -0.39794 0.928215
2352608000 -0.381467 0.92846
2364606000 -0.365577 0.929579
2376604000 -0.349008 0.92968
2388602000 -0.333553 0.932938
2400600000 -0.314947 0.936313
2412598000 -0.298864 0.941394
2424596000 -0.283825 0.946446
2436594000 -0.268758 0.951358
2448592000 -0.255722 0.956406
2460590000 -0.241673 0.963236
2472588000 -0.231546 0.971228
2484586000 -0.22387 0.97775
2496584000 -0.217546 0.986719
2508582000 -0.205528 0.98951
2520580000 -0.197835 0.995243
2532578000 -0.190714 0.997888
2544576000 -0.185869 1.003
2556574000 -0.176452 1.00626
2568572000 -0.1711 1.00801
2580570000 -0.158664 1.00611
2592568000 -0.151919 1.00438
2604566000 -0.149199 1.00091
2616564000 -0.134197 0.997101
2628562000 -0.123934 0.995622
2640560000 -0.113045 0.991139
2652558000 -0.102644 0.990353
2664556000 -0.0928001 0.986594
2676554000 -0.0796762 0.985965
2688552000 -0.0685297 0.98109
2700550000 -0.0553769 0.983107
2712548000 -0.04361 0.981862
2724546000 -0.03058 0.982751
2736544000 -0.0195266 0.987022
2748542000 -0.00815197 0.989771
2760540000 0.00311592 0.992284
2772538000 0.0138941 0.996114
2784536000 0.0246539 0.999402
2796534000 0.0329338 1.0004
2808532000 0.0411846 1.0028
2820530000 0.0513566 1.00357
2832528000 0.0577622 1.00373
2844526000 0.0690768 1.00301
2856524000 0.0757206 1.00061
2868522000 0.0829709 0.99821
2880520000 0.0906429 0.994267
2892518000 0.0988655 0.989115
2904516000 0.106733 0.987914
2916514000 0.115158 0.984193
2928512000 0.123968 0.979941
2940510000 0.126249 0.979852
2952508000 0.138802 0.974168
2964506000 0.149282 0.97115
2976504000 0.161013 0.966343
2988502000 0.172008 0.967073
3000500000 0.182065 0.964334
3012498000 0.196516 0.968671
3024496000 0.200548 0.966818
3036494000 0.213432 0.966292
3048492000 0.223935 0.96559
3060490000 0.233161 0.964838
3072488000 0.241269 0.96268
3084486000 0.250137 0.962239
3096484000 0.255982 0.958787
3108482000 0.264677 0.959717
3120480000 0.272977 0.956575
3132478000 0.277407 0.951553
3144476000 0.289485 0.946589
3156474000 0.296429 0.945815
3168472000 0.302553 0.942412
3180470000 0.310895 0.937699
3192468000 0.319802 0.933074
3204466000 0.328806 0.927187
3216464000 0.338812 0.922587
3228462000 0.349945 0.919167
3240460000 0.361734 0.913016
3252458000 0.373434 0.910602
3264456000 0.382649 0.907996
3276454000 0.391706 0.904269
3288452000 0.403742 0.898829
3300450000 0.411364 0.893149
3312448000 0.423604 0.888234
3324446000 0.431688 0.882479
3336444000 0.44267 0.878757
3348442000 0.450703 0.87308
3360440000 0.460994 0.86814
3372438000 0.469511 0.861847
3384436000 0.47891 0.853891
3396434000 0.486264 0.846679
3408432000 0.496638 0.843118
3420430000 0.50808 0.83858
3432428000 0.516993 0.830464
3444426000 0.530386 0.822483
3456424000 0.540816 0.81625
3468422000 0.548873 0.807924
3480420000 0.559517 0.801219
3492418000 0.569528 0.794433
3504416000 0.580172 0.789355
3516414000 0.589165 0.781069
3528412000 0.597693 0.779226
3540410000 0.606866 0.772027
3552408000 0.613115 0.765352
3564406000 0.623696 0.759
3576404000 0.628221 0.75332
3588402000 0.635938 0.750285
3600400000 0.641799 0.742039
3612398000 0.647802 0.735027
3624396000 0.654958 0.727224
3636394000 0.66242 0.719807
3648392000 0.669622 0.712491
3660390000 0.675155 0.705522
3672388000 0.685805 0.698901
3684386000 0.691173 0.686788
3696384000 0.699655 0.679901
3708382000 0.707926 0.669245
3720380000 0.714909 0.661178
3732378000 0.721894 0.65427
3744376000 0.728863 0.643746
3756374000 0.737897 0.634344
3768372000 0.744508 0.625851
3780370000 0.752347 0.615682
3792368000 0.756807 0.610835
3804366000 0.766955 0.602286
3816364000 0.768777 0.594728
3828362000 0.773621 0.59027
3840360000 0.778306 0.587571
3852358000 0.784471 0.576399
3864356000 0.786489 0.572408
3876354000 0.790249 0.565722
3888352000 0.79345 0.559128
3900350000 0.798927 0.554008
3912348000 0.802215 0.548384
3924346000 0.807797 0.542438
3936344000 0.809134 0.53616
3948342000 0.810837 0.531206
3960340000 0.810837 0.527441
3972338000 0.814823 0.520399
3984336000 0.821968 0.508773
3996334000 0.826069 0.501978
4008332000 0.830397 0.494087
4020330000 0.839537 0.485691
4032328000 0.842931 0.474985
4044326000 0.84671 0.465492
4056324000 0.852332 0.4549
4068322000 0.854581 0.442227
4080320000 0.858734 0.428268
4092318000 0.86442 0.413355
4104316000 0.87025 0.394367
4116314000 0.874687 0.374536
4128312000 0.881822 0.359281
4140310000 0.889908 0.337478
4152308000 0.894666 0.32083
4164306000 0.902416 0.303209
4176304000 0.906888 0.290678
4188302000 0.913003 0.279312
4200300000 0.918451 0.272563
4212298000 0.915946 0.267845
4224296000 0.916905 0.266929
4236294000 0.919172 0.261683
4248292000 0.916865 0.262181
4260290000 0.92788 0.257035
4272288000 0.925128 0.254971
4284286000 0.925268 0.247492
4296284000 0.926228 0.240524
4308282000 0.928287 0.229697
4320280000 0.927511 0.213372
4332278000 0.925642 0.20264
4344276000 0.924383 0.185379
4356274000 0.927712 0.175696
4368272000 0.922037 0.16132
4380270000 0.9222 0.144063
4392268000 0.918466 0.122936
4404266000 0.917698 0.106405
4416264000 0.917483 0.0844188
4428262000 0.916333 0.065696
4440260000 0.91687 0.0459223
4452258000 0.922717 0.0292002
4464256000 0.924963 0.0137193
4476254000 0.924412 -0.00385198
4488252000 0.927711 -0.0151692
4500250000 0.926579 -0.0245954
4512248000 0.927082 -0.0394514
4524246000 0.930245 -0.0480738
4536244000 0.931059 -0.0583108
4548242000 0.92854 -0.0668958
4560240000 0.927608 -0.0735833
4572238000 0.925972 -0.0796484
4584236000 0.923901 -0.0879703
4596234000 0.917272 -0.0956824
4608232000 0.911339 -0.105532
4620230000 0.901579 -0.118694
4632228000 0.894322 -0.135632
4644226000 0.885019 -0.150795
4656224000 0.876499 -0.168126
4668222000 0.867794 -0.184692
4680220000 0.855477 -0.204449
4692218000 0.852882 -0.224484
4704216000 0.839407 -0.243215
4716214000 0.829857 -0.260851
4728212000 0.817493 -0.276716
4740210000 0.806458 -0.294277
4752208000 0.794129 -0.314658
4764206000 0.783001 -0.330703
4776204000 0.77421 -0.347166
4788202000 0.765743 -0.361788
4800200000 0.75311 -0.37782
4812198000 0.745285 -0.393203
4824196000 0.737386 -0.406698
4836194000 0.72147 -0.416144
4848192000 0.712394 -0.427032
4860190000 0.695802 -0.43559
4872188000 0.67839 -0.445731
4884186000 0.658506 -0.450141
4896184000 0.638746 -0.461371
4908182000 0.620167 -0.474051
4920180000 0.591761 -0.479742
4932178000 0.567168 -0.492413
4944176000 0.536881 -0.496568
4956174000 0.509904 -0.505337
4968172000 0.472334 -0.506929
4980170000 0.442057 -0.508591
4992168000 0.407608 -0.510889
5004166000 0.373024 -0.511645
5016164000 0.335741 -0.511353
5028162000 0.302936 -0.510601
5040160000 0.265399 -0.503213
5052158000 0.230724 -0.497694
5064156000 0.196648 -0.48438
5076154000 0.165444 -0.470883
5088152000 0.133618 -0.456631
5100150000 0.10339 -0.434472
5112148000 0.0812135 -0.408677
5124146000 0.053647 -0.384704
5136144000 0.0316007 -0.351016
5148142000 0.0141274 -0.319233
5160140000 -0.000572488 -0.277841
5172138000 -0.00501774 -0.239374
5184136000 -0.00861265 -0.195473
5196134000 -0.012704 -0.146589
5208132000 -0.00952454 -0.0965084
5220130000 -0.00930474 -0.0505712
5232128000 -0.00620126 -0.00163058
5244126000 -0.00207656 0.0451988
5256124000 0.00785957 0.086911
5268122000 0.0157713 0.136462
5280120000 0.036455 0.166298
5292118000 0.0572608 0.197935
5304116000 0.0897597 0.222746
5316114000 0.120321 0.241582
5328112000 0.158779 0.259971
5340110000 0.198421 0.275755
5352108000 0.230885 0.285074
5364106000 0.271416 0.296028
5376104000 0.303967 0.300838
5388102000 0.337346 0.304875
5400100000 0.367229 0.306219
5412098000 0.39758 0.306238
5424096000 0.428258 0.302265
5436094000 0.4569 0.298715
5448092000 0.482327 0.291784
5460090000 0.510074 0.283856
5472088000 0.535395 0.27316
5484086000 0.561787 0.262593
5496084000 0.588726 0.247497
5508082000 0.612773 0.235224
5520080000 0.633692 0.21962
5532078000 0.656799 0.207299
5544076000 0.675791 0.191422
5556074000 0.695614 0.176549
5568072000 0.70935 0.167826
5580070000 0.725859 0.156631
5592068000 0.7384 0.138563
5604066000 0.754255 0.125167
5616064000 0.759255 0.113014
5628062000 0.773875 0.0981195
5640060000 0.777581 0.0880918
5652058000 0.781166 0.0753236
5664056000 0.788212 0.0587619
5676054000 0.789853 0.0426534
5688052000 0.796903 0.0291133
5700050000 0.801986 0.0126771
5712048000 0.805722 -0.00363459
5724046000 0.810274 -0.0205039
5736044000 0.81612 -0.0370241
5748042000 0.818397 -0.0520476
5760040000 0.823468 -0.0719166
5772038000 0.827306 -0.0857822
5784036000 0.831811 -0.101222
5796034000 0.834545 -0.116668
5808032000 0.841806 -0.128877
5820030000 0.844283 -0.149473
5832028000 0.85079 -0.162483
5844026000 0.852744 -0.177708
5856024000 0.856799 -0.191918
5868022000 0.855859 -0.215032
5880020000 0.850711 -0.221817
5892018000 0.857257 -0.237402
5904016000 0.851212 -0.255289
5916014000 0.849963 -0.271869
5928012000 0.846236 -0.293486
5940010000 0.840843 -0.305192
5952008000 0.835052 -0.320708
5964006000 0.823682 -0.33194
5976004000 0.820441 -0.346608
5988002000 0.814209 -0.362482
6000000000 0.804447 -0.376194
