# Hz S RI R 50
1000000 0.994362 0.00167146
12998000 1.01701 -0.0589231
24996000 1.01173 -0.128372
36994000 0.997894 -0.194315
48992000 0.980597 -0.257692
60990000 0.959454 -0.31744
72988000 0.934318 -0.376136
84986000 0.906407 -0.431955
96984000 0.874938 -0.48579
108982000 0.841101 -0.537648
120980000 0.805591 -0.58692
132978000 0.768553 -0.63309
144976000 0.729523 -0.67791
156974000 0.688691 -0.720638
168972000 0.646377 -0.759809
180970000 0.603341 -0.796847
192968000 0.558634 -0.829964
204966000 0.512999 -0.86089
216964000 0.466691 -0.887883
228962000 0.419721 -0.911419
240960000 0.373153 -0.931615
252958000 0.326858 -0.947989
264956000 0.280401 -0.961481
276954000 0.234085 -0.97229
288952000 0.189223 -0.979687
300950000 0.143753 -0.984646
312948000 0.100081 -0.987173
324946000 0.0583855 -0.987691
336944000 0.0172819 -0.986446
348942000 -0.0223296 -0.984857
360940000 -0.0621662 -0.981306
372938000 -0.100794 -0.977975
384936000 -0.137832 -0.974243
396934000 -0.174809 -0.969672
408932000 -0.211423 -0.964987
420930000 -0.246231 -0.959464
432928000 -0.282296 -0.951968
444926000 -0.315978 -0.943493
456924000 -0.348591 -0.934513
468922000 -0.380686 -0.925153
480920000 -0.410518 -0.913154
492918000 -0.439239 -0.899942
504916000 -0.467003 -0.88585
516914000 -0.494763 -0.871311
528912000 -0.520064 -0.85479
540910000 -0.544229 -0.838036
552908000 -0.567091 -0.820554
564906000 -0.589015 -0.803439
576904000 -0.609378 -0.785835
588902000 -0.628797 -0.768846
600900000 -0.647297 -0.751872
612898000 -0.664369 -0.735078
624896000 -0.682337 -0.718635
636894000 -0.700116 -0.701589
648892000 -0.717329 -0.685948
660890000 -0.734488 -0.669921
672888000 -0.751562 -0.653492
684886000 -0.768202 -0.637039
696884000 -0.784733 -0.619555
708882000 -0.800582 -0.60321
720880000 -0.816718 -0.585031
732878000 -0.830703 -0.56553
744876000 -0.84363 -0.546719
756874000 -0.856318 -0.527677
768872000 -0.86852 -0.507435
780870000 -0.879112 -0.487273
792868000 -0.887869 -0.466823
804866000 -0.896325 -0.447236
816864000 -0.905245 -0.427647
828862000 -0.912609 -0.410242
840860000 -0.918681 -0.39213
852858000 -0.923696 -0.375152
864856000 -0.930865 -0.357098
876854000 -0.936341 -0.33947
888852000 -0.94324 -0.323464
900850000 -0.948739 -0.306641
912848000 -0.9546 -0.290831
924846000 -0.96012 -0.275063
936844000 -0.966048 -0.259749
948842000 -0.972098 -0.245768
960840000 -0.978733 -0.231432
972838000 -0.984399 -0.216259
984836000 -0.989436 -0.200171
996834000 -0.993552 -0.185134
1008832000 -0.996738 -0.169914
1020830000 -1.00042 -0.153965
1032828000 -1.00302 -0.136993
1044826000 -1.0052 -0.12045
1056824000 -1.0072 -0.103989
1068822000 -1.0088 -0.0865395
1080820000 -1.00848 -0.0681503
1092818000 -1.00887 -0.0503174
1104816000 -1.00767 -0.0343513
1116814000 -1.00686 -0.0178833
1128812000 -1.00705 -0.00286792
1140810000 -1.00576 0.0121616
1152808000 -1.00631 0.0257285
1164806000 -1.00575 0.0399902
1176804000 -1.00807 0.0562208
1188802000 -1.00389 0.0714008
1200800000 -1.00269 0.0809149
1212798000 -1.00225 0.0932214
1224796000 -1.00133 0.105285
1236794000 -1.00167 0.116828
1248792000 -1.00064 0.128482
1260790000 -1.00094 0.139905
1272788000 -0.999299 0.151414
1284786000 -0.996852 0.162789
1296784000 -0.992413 0.174371
1308782000 -0.989492 0.188011
1320780000 -0.986799 0.201848
1332778000 -0.983933 0.215821
1344776000 -0.981268 0.230096
1356774000 -0.978648 0.245932
1368772000 -0.975902 0.25758
1380770000 -0.972397 0.271514
1392768000 -0.967869 0.287132
1404766000 -0.961792 0.303455
1416764000 -0.957653 0.319534
1428762000 -0.951397 0.332985
1440760000 -0.946341 0.347844
1452758000 -0.94162 0.359978
1464756000 -0.937841 0.37332
1476754000 -0.933817 0.38509
1488752000 -0.929309 0.395837
1500750000 -0.925052 0.406719
1512748000 -0.917277 0.415009
1524746000 -0.91151 0.423794
1536744000 -0.904681 0.432699
1548742000 -0.898673 0.443004
1560740000 -0.894002 0.452558
1572738000 -0.88789 0.462532
1584736000 -0.882979 0.472974
1596734000 -0.879066 0.484282
1608732000 -0.874409 0.495971
1620730000 -0.869839 0.506284
1632728000 -0.865169 0.517614
1644726000 -0.858283 0.529262
1656724000 -0.852376 0.540453
1668722000 -0.844603 0.552363
1680720000 -0.838353 0.562859
1692718000 -0.833547 0.572399
1704716000 -0.829347 0.581039
1716714000 -0.823535 0.58764
1728712000 -0.816736 0.598073
1740710000 -0.806791 0.610306
1752708000 -0.798418 0.620253
1764706000 -0.788616 0.627528
1776704000 -0.779453 0.635229
1788702000 -0.770009 0.642082
1800700000 -0.760172 0.649904
1812698000 -0.748238 0.657272
1824696000 -0.739639 0.666711
1836694000 -0.732106 0.674648
1848692000 -0.724102 0.68457
1860690000 -0.715423 0.693542
1872688000 -0.706581 0.703153
1884686000 -0.698126 0.712973
1896684000 -0.690949 0.722213
1908682000 -0.681402 0.733804
1920680000 -0.674464 0.745329
1932678000 -0.666208 0.754869
1944676000 -0.658167 0.764018
1956674000 -0.651503 0.773455
1968672000 -0.646112 0.782102
1980670000 -0.639207 0.789628
1992668000 -0.633362 0.791601
2004666000 -0.62775 0.798011
2016664000 -0.624395 0.801403
2028662000 -0.61794 0.803758
2040660000 -0.611316 0.806441
2052658000 -0.603813 0.808135
2064656000 -0.595397 0.809472
2076654000 -0.585237 0.813138
2088652000 -0.573896 0.815469
2100650000 -0.564836 0.816108
2112648000 -0.549058 0.82345
2124646000 -0.537596 0.82943
2136644000 -0.524195 0.838613
2148642000 -0.508834 0.847447
2160640000 -0.495455 0.858055
2172638000 -0.485807 0.866969
2184636000 -0.474992 0.878331
2196634000 -0.465205 0.889384
2208632000 -0.459079 0.901146
2220630000 -0.453272 0.907907
2232628000 -0.451198 0.915879
2244626000 -0.448233 0.919543
2256624000 -0.445679 0.924419
2268622000 -0.439652 0.925157
2280620000 -0.437206 0.927872
2292618000 -0.434494 0.929278
2304616000 -0.428615 0.930142
2316614000 -0.421331 0.929221
2328612000 -0.409413 0.929505
2340610000 -0.396951 0.928554
2352608000 -0.380229 0.929407
2364606000 -0.364237 0.92924
2376604000 -0.349083 0.930772
2388602000 -0.332372 0.931679
2400600000 -0.315971 0.938258
2412598000 -0.299619 0.941719
2424596000 -0.284464 0.946231
2436594000 -0.268837 0.952899
2448592000 -0.254885 0.957092
2460590000 -0.241803 0.964589
2472588000 -0.23151 0.972171
2484586000 -0.223903 0.97843
2496584000 -0.214971 0.986085
2508582000 -0.207308 0.991375
2520580000 -0.198521 0.996137
2532578000 -0.191326 1.00021
2544576000 -0.185459 1.00426
2556574000 -0.179524 1.00472
2568572000 -0.170334 1.00873
2580570000 -0.1603 1.00755
2592568000 -0.152942 1.00532
2604566000 -0.141321 1.00205
2616564000 -0.134763 0.998168
2628562000 -0.12397 0.996369
2640560000 -0.114207 0.990786
2652558000 -0.10129 0.988661
2664556000 -0.0920999 0.986238
2676554000 -0.079647 0.985323
2688552000 -0.0671205 0.983647
2700550000 -0.0555738 0.983406
2712548000 -0.0430102 0.982838
2724546000 -0.0298353 0.983288
2736544000 -0.0196912 0.988252
2748542000 -0.00761159 0.991116
2760540000 0.00308751 0.993665
2772538000 0.0141473 0.99717
2784536000 0.024315 1.00036
2796534000 0.0335858 1.00192
2808532000 0.0419749 1.00383
2820530000 0.0512054 1.0056
2832528000 0.0591565 1.004
2844526000 0.0678287 1.00514
2856524000 0.0763805 1.00253
2868522000 0.0833764 0.998176
2880520000 0.090987 0.995503
2892518000 0.0996846 0.990072
2904516000 0.107409 0.988841
2916514000 0.115224 0.985436
2928512000 0.123943 0.98122
2940510000 0.128412 0.979713
2952508000 0.138778 0.976303
2964506000 0.151692 0.970548
2976504000 0.158607 0.967756
2988502000 0.174746 0.968853
3000500000 0.182734 0.967262
3012498000 0.19698 0.968527
3024496000 0.200867 0.966508
3036494000 0.213744 0.966445
3048492000 0.224751 0.966159
3060490000 0.23386 0.965042
3072488000 0.242143 0.964202
3084486000 0.249846 0.962122
3096484000 0.257586 0.960671
3108482000 0.262653 0.96016
3120480000 0.274898 0.957257
3132478000 0.277683 0.952074
3144476000 0.288208 0.946877
3156474000 0.297669 0.945949
3168472000 0.304164 0.941124
3180470000 0.311573 0.937565
3192468000 0.320598 0.933339
3204466000 0.32982 0.927518
3216464000 0.339429 0.92284
3228462000 0.352043 0.917721
3240460000 0.361962 0.913319
3252458000 0.374664 0.909046
3264456000 0.38322 0.906848
3276454000 0.394388 0.903415
3288452000 0.405344 0.89689
3300450000 0.411715 0.892526
3312448000 0.423795 0.88884
3324446000 0.432928 0.882654
3336444000 0.443967 0.878728
3348442000 0.452511 0.872262
3360440000 0.461669 0.867631
3372438000 0.47038 0.859458
3384436000 0.478449 0.85771
3396434000 0.487885 0.847443
3408432000 0.497183 0.841156
3420430000 0.510035 0.83713
3432428000 0.518535 0.828774
3444426000 0.530134 0.821013
3456424000 0.541193 0.814964
3468422000 0.548721 0.807471
3480420000 0.559736 0.800846
3492418000 0.570177 0.79459
3504416000 0.581338 0.787621
3516414000 0.589065 0.780563
3528412000 0.59978 0.778529
3540410000 0.606894 0.770535
3552408000 0.614344 0.767272
3564406000 0.620857 0.761604
3576404000 0.627333 0.754316
3588402000 0.635235 0.749592
3600400000 0.642816 0.740315
3612398000 0.648966 0.73385
3624396000 0.655705 0.726385
3636394000 0.663615 0.719334
3648392000 0.669748 0.713174
3660390000 0.677495 0.704155
3672388000 0.68365 0.698168
3684386000 0.692256 0.686435
3696384000 0.700146 0.679611
3708382000 0.709259 0.670111
3720380000 0.715626 0.661788
3732378000 0.72269 0.651437
3744376000 0.729373 0.642757
3756374000 0.73805 0.633754
3768372000 0.744585 0.625328
3780370000 0.75215 0.61482
3792368000 0.757774 0.610399
3804366000 0.765535 0.6032
3816364000 0.769052 0.592221
3828362000 0.774203 0.589054
3840360000 0.779255 0.584011
3852358000 0.783451 0.578961
3864356000 0.787158 0.569885
3876354000 0.789926 0.56406
3888352000 0.794947 0.558216
3900350000 0.799179 0.552573
3912348000 0.802609 0.546905
3924346000 0.807868 0.541719
3936344000 0.810346 0.534703
3948342000 0.813124 0.528962
3960340000 0.811502 0.524676
3972338000 0.815823 0.518627
3984336000 0.822347 0.507022
3996334000 0.827112 0.498917
4008332000 0.831549 0.49204
4020330000 0.837491 0.48397
4032328000 0.843788 0.474331
4044326000 0.84745 0.46496
4056324000 0.852365 0.45315
4068322000 0.85519 0.44072
4080320000 0.859096 0.427321
4092318000 0.865391 0.412327
4104316000 0.870033 0.393188
4116314000 0.876574 0.373311
4128312000 0.883281 0.357803
4140310000 0.887665 0.337765
4152308000 0.895565 0.320502
4164306000 0.902343 0.303396
4176304000 0.906924 0.291485
4188302000 0.912857 0.279355
4200300000 0.918019 0.272584
4212298000 0.915787 0.267477
4224296000 0.917062 0.266611
4236294000 0.919141 0.260705
4248292000 0.920036 0.263118
4260290000 0.925496 0.254109
4272288000 0.923181 0.251047
4284286000 0.926578 0.243837
4296284000 0.929646 0.2373
4308282000 0.927322 0.22613
4320280000 0.928545 0.213757
4332278000 0.93074 0.201452
4344276000 0.927408 0.186028
4356274000 0.928471 0.174719
4368272000 0.92275 0.16006
4380270000 0.922697 0.142903
4392268000 0.918981 0.122142
4404266000 0.918973 0.10528
4416264000 0.91831 0.0837493
4428262000 0.918217 0.0636207
4440260000 0.918959 0.045555
4452258000 0.922909 0.028122
4464256000 0.925456 0.0123484
4476254000 0.926174 -0.00287597
4488252000 0.927892 -0.015988
4500250000 0.927887 -0.0250861
4512248000 0.927666 -0.0402951
4524246000 0.929297 -0.049456
4536244000 0.929804 -0.0588915
4548242000 0.929052 -0.0701155
4560240000 0.929361 -0.0722672
4572238000 0.926834 -0.0826616
4584236000 0.924568 -0.0896198
4596234000 0.917004 -0.0961526
4608232000 0.910582 -0.108302
4620230000 0.903886 -0.118519
4632228000 0.895044 -0.135858
4644226000 0.88704 -0.151353
4656224000 0.876849 -0.170225
4668222000 0.86792 -0.186026
4680220000 0.856325 -0.205759
4692218000 0.853291 -0.225897
4704216000 0.83922 -0.243992
4716214000 0.830884 -0.26179
4728212000 0.818824 -0.277619
4740210000 0.807261 -0.295823
4752208000 0.794667 -0.314797
4764206000 0.784711 -0.332057
4776204000 0.774189 -0.347757
4788202000 0.766358 -0.362777
4800200000 0.753004 -0.379374
4812198000 0.744849 -0.395022
4824196000 0.737071 -0.408059
4836194000 0.722835 -0.417385
4848192000 0.707375 -0.428068
4860190000 0.695976 -0.43606
4872188000 0.679056 -0.444838
4884186000 0.660133 -0.454801
4896184000 0.640135 -0.465168
4908182000 0.619678 -0.474369
4920180000 0.589789 -0.480114
4932178000 0.565788 -0.493468
4944176000 0.536073 -0.497863
4956174000 0.508964 -0.506082
4968172000 0.47431 -0.50814
4980170000 0.440396 -0.510165
4992168000 0.408007 -0.510748
5004166000 0.373423 -0.512616
5016164000 0.335654 -0.513561
5028162000 0.302229 -0.511442
5040160000 0.265761 -0.503896
5052158000 0.230754 -0.498129
5064156000 0.196504 -0.484422
5076154000 0.166154 -0.47032
5088152000 0.133707 -0.456253
5100150000 0.103236 -0.434293
5112148000 0.0813746 -0.40824
5124146000 0.0536516 -0.382775
5136144000 0.0320175 -0.350388
5148142000 0.0139014 -0.318743
5160140000 -0.00160909 -0.277123
5172138000 -0.00594792 -0.238898
5184136000 -0.00967154 -0.194537
5196134000 -0.0140436 -0.14676
5208132000 -0.0108977 -0.0961504
5220130000 -0.0101577 -0.0511735
5232128000 -0.00639313 -0.00184139
5244126000 -0.00233399 0.0444871
5256124000 0.00827715 0.0859923
5268122000 0.0199011 0.130364
5280120000 0.0375554 0.165273
5292118000 0.0588228 0.196984
5304116000 0.0917177 0.221954
5316114000 0.122594 0.240647
5328112000 0.160391 0.259335
5340110000 0.200429 0.275883
5352108000 0.231554 0.286033
5364106000 0.271477 0.295689
5376104000 0.305953 0.301786
5388102000 0.33624 0.30719
5400100000 0.367379 0.307394
5412098000 0.398032 0.307337
5424096000 0.428235 0.302337
5436094000 0.45776 0.299138
5448092000 0.482952 0.292182
5460090000 0.510907 0.284731
5472088000 0.535847 0.273245
5484086000 0.562528 0.263159
5496084000 0.588405 0.24914
5508082000 0.612987 0.234765
5520080000 0.634685 0.219687
5532078000 0.656815 0.206728
5544076000 0.676147 0.191279
5556074000 0.695543 0.176866
5568072000 0.709367 0.167478
5580070000 0.725043 0.154619
5592068000 0.739188 0.138986
5604066000 0.756041 0.126373
5616064000 0.761719 0.109612
5628062000 0.769831 0.099863
5640060000 0.777401 0.0892744
5652058000 0.785306 0.0732612
5664056000 0.789053 0.0579405
5676054000 0.79426 0.04149
5688052000 0.796721 0.0276428
5700050000 0.80151 0.0104211
5712048000 0.80636 -0.00446061
5724046000 0.810826 -0.0212639
5736044000 0.816971 -0.0375524
5748042000 0.819991 -0.0533009
5760040000 0.822154 -0.0693046
5772038000 0.828572 -0.0862904
5784036000 0.832421 -0.102201
5796034000 0.835044 -0.117441
5808032000 0.840576 -0.130452
5820030000 0.842848 -0.150866
5832028000 0.849844 -0.164657
5844026000 0.851416 -0.180025
5856024000 0.85564 -0.196564
5868022000 0.851348 -0.216655
5880020000 0.848752 -0.225187
5892018000 0.853033 -0.243731
5904016000 0.850807 -0.262671
5916014000 0.849349 -0.279507
5928012000 0.842863 -0.29262
5940010000 0.840383 -0.307031
5952008000 0.833318 -0.322755
5964006000 0.823859 -0.337537
5976004000 0.820461 -0.35153
5988002000 0.814164 -0.364188
6000000000 0.804435 -0.377517
