# Hz S RI R 50
1000000 0.990495 -0.0025495
12998000 1.01634 -0.0593858
24996000 1.01066 -0.128704
36994000 0.997323 -0.194434
48992000 0.979622 -0.25775
60990000 0.959096 -0.317305
72988000 0.933985 -0.376063
84986000 0.905934 -0.432041
96984000 0.874562 -0.485785
108982000 0.841058 -0.53746
120980000 0.805166 -0.58684
132978000 0.767988 -0.633505
144976000 0.729275 -0.678003
156974000 0.688247 -0.720574
168972000 0.646154 -0.760122
180970000 0.603263 -0.796251
192968000 0.558494 -0.829592
204966000 0.512783 -0.86078
216964000 0.466758 -0.887566
228962000 0.41927 -0.911357
240960000 0.373286 -0.931317
252958000 0.326628 -0.947828
264956000 0.28037 -0.961542
276954000 0.234298 -0.972043
288952000 0.189065 -0.979401
300950000 0.143789 -0.984338
312948000 0.100381 -0.987131
324946000 0.0584746 -0.98748
336944000 0.0177047 -0.986363
348942000 -0.0219345 -0.984685
360940000 -0.0620581 -0.981284
372938000 -0.100572 -0.978
384936000 -0.137606 -0.974469
396934000 -0.174596 -0.969987
408932000 -0.211051 -0.965186
420930000 -0.245943 -0.959418
432928000 -0.281949 -0.951735
444926000 -0.315979 -0.94324
456924000 -0.348522 -0.934349
468922000 -0.380979 -0.924377
480920000 -0.410405 -0.913389
492918000 -0.439255 -0.900082
504916000 -0.466889 -0.885821
516914000 -0.494596 -0.871334
528912000 -0.51953 -0.854873
540910000 -0.544152 -0.838208
552908000 -0.566886 -0.820604
564906000 -0.588504 -0.803635
576904000 -0.609221 -0.78642
588902000 -0.628263 -0.769327
600900000 -0.646757 -0.751712
612898000 -0.664476 -0.735368
624896000 -0.682389 -0.718814
636894000 -0.70003 -0.701968
648892000 -0.717504 -0.685924
660890000 -0.734551 -0.670302
672888000 -0.75131 -0.653437
684886000 -0.767971 -0.637346
696884000 -0.78431 -0.619236
708882000 -0.800665 -0.602868
720880000 -0.816697 -0.584946
732878000 -0.830723 -0.565059
744876000 -0.84331 -0.546876
756874000 -0.856498 -0.527516
768872000 -0.86847 -0.506986
780870000 -0.879095 -0.486879
792868000 -0.88828 -0.466788
804866000 -0.896444 -0.446457
816864000 -0.905257 -0.427887
828862000 -0.912507 -0.410435
840860000 -0.919352 -0.390831
852858000 -0.924322 -0.374681
864856000 -0.930781 -0.357039
876854000 -0.936489 -0.339325
888852000 -0.943454 -0.323197
900850000 -0.949107 -0.306202
912848000 -0.954705 -0.29071
924846000 -0.960371 -0.275211
936844000 -0.96584 -0.259548
948842000 -0.972214 -0.245331
960840000 -0.978882 -0.23165
972838000 -0.984368 -0.216344
984836000 -0.989915 -0.200132
996834000 -0.993691 -0.185008
1008832000 -0.996871 -0.16953
1020830000 -1.00031 -0.153812
1032828000 -1.00265 -0.13695
1044826000 -1.00498 -0.12038
1056824000 -1.00705 -0.103899
1068822000 -1.00844 -0.0860843
1080820000 -1.00964 -0.0674486
1092818000 -1.00871 -0.0519035
1104816000 -1.00733 -0.0340526
1116814000 -1.0073 -0.0183226
1128812000 -1.00688 -0.00290537
1140810000 -1.00572 0.013277
1152808000 -1.00579 0.0262577
1164806000 -1.0057 0.0403992
1176804000 -1.00718 0.0562275
1188802000 -1.00364 0.0711676
1200800000 -1.00227 0.0819581
1212798000 -1.00221 0.0930926
1224796000 -1.00159 0.105343
1236794000 -1.00186 0.117377
1248792000 -1.00043 0.12853
1260790000 -1.00045 0.140008
1272788000 -0.999015 0.151535
1284786000 -0.996304 0.162669
1296784000 -0.992027 0.174172
1308782000 -0.989751 0.187792
1320780000 -0.986611 0.201529
1332778000 -0.983867 0.215117
1344776000 -0.981061 0.229523
1356774000 -0.978255 0.244782
1368772000 -0.975175 0.256803
1380770000 -0.970423 0.272103
1392768000 -0.966326 0.287609
1404766000 -0.962169 0.302463
1416764000 -0.956709 0.318938
1428762000 -0.95294 0.332707
1440760000 -0.94612 0.347365
1452758000 -0.941283 0.359483
1464756000 -0.937541 0.372304
1476754000 -0.933527 0.384868
1488752000 -0.929057 0.395378
1500750000 -0.924125 0.404449
1512748000 -0.917162 0.415071
1524746000 -0.911465 0.423679
1536744000 -0.90562 0.432688
1548742000 -0.899011 0.441898
1560740000 -0.891804 0.450856
1572738000 -0.887504 0.462454
1584736000 -0.883482 0.472525
1596734000 -0.879391 0.483704
1608732000 -0.874777 0.495263
1620730000 -0.870012 0.505655
1632728000 -0.864926 0.517172
1644726000 -0.858796 0.528922
1656724000 -0.851685 0.540651
1668722000 -0.844586 0.552569
1680720000 -0.838695 0.562985
1692718000 -0.834554 0.572418
1704716000 -0.829985 0.580224
1716714000 -0.822323 0.589036
1728712000 -0.815469 0.598738
1740710000 -0.806588 0.611307
1752708000 -0.797842 0.619775
1764706000 -0.788562 0.627289
1776704000 -0.779207 0.635315
1788702000 -0.770113 0.641934
1800700000 -0.759897 0.650698
1812698000 -0.748811 0.657122
1824696000 -0.73982 0.667006
1836694000 -0.731458 0.674511
1848692000 -0.724622 0.684955
1860690000 -0.715281 0.693267
1872688000 -0.707186 0.703328
1884686000 -0.698483 0.712761
1896684000 -0.691039 0.722011
1908682000 -0.681674 0.733913
1920680000 -0.675491 0.744747
1932678000 -0.66745 0.754969
1944676000 -0.65772 0.7638
1956674000 -0.651547 0.772619
1968672000 -0.646733 0.780516
1980670000 -0.637311 0.78771
1992668000 -0.634036 0.7928
2004666000 -0.629351 0.797339
2016664000 -0.62504 0.800934
2028662000 -0.61866 0.804046
2040660000 -0.611847 0.805973
2052658000 -0.604643 0.807657
2064656000 -0.596411 0.809258
2076654000 -0.585642 0.813388
2088652000 -0.575085 0.814646
2100650000 -0.564731 0.817062
2112648000 -0.5504 0.823073
2124646000 -0.538165 0.830439
2136644000 -0.523553 0.837741
2148642000 -0.51007 0.846918
2160640000 -0.495774 0.855642
2172638000 -0.485447 0.866147
2184636000 -0.475563 0.87797
2196634000 -0.465496 0.889344
2208632000 -0.459471 0.900173
2220630000 -0.454051 0.90806
2232628000 -0.451147 0.913679
2244626000 -0.450238 0.920363
2256624000 -0.445268 0.924406
2268622000 -0.440705 0.92627
2280620000 -0.43656 0.926072
2292618000 -0.434406 0.929516
2304616000 -0.429031 0.930493
2316614000 -0.422013 0.929648
2328612000 -0.409457 0.929617
2340610000 -0.397207 0.929766
2352608000 -0.380533 0.929523
2364606000 -0.365167 0.930229
2376604000 -0.349342 0.930358
2388602000 -0.331124 0.932881
2400600000 -0.315675 0.936977
2412598000 -0.299413 0.943005
2424596000 -0.284701 0.947082
2436594000 -0.269526 0.953276
2448592000 -0.256896 0.957098
2460590000 -0.242671 0.964577
2472588000 -0.232349 0.972817
2484586000 -0.224913 0.978578
2496584000 -0.217945 0.986028
2508582000 -0.206549 0.992363
2520580000 -0.199117 0.995999
2532578000 -0.192321 1.00145
2544576000 -0.186714 1.00497
2556574000 -0.179325 1.00601
2568572000 -0.172179 1.00896
2580570000 -0.160835 1.00821
2592568000 -0.153949 1.00544
2604566000 -0.149929 1.00188
2616564000 -0.135812 0.998183
2628562000 -0.125528 0.9976
2640560000 -0.115153 0.992298
2652558000 -0.103581 0.990318
2664556000 -0.0931893 0.988717
2676554000 -0.081779 0.987825
2688552000 -0.0684328 0.984148
2700550000 -0.0556421 0.984529
2712548000 -0.043682 0.98241
2724546000 -0.03066 0.983636
2736544000 -0.0199261 0.9889
2748542000 -0.00825878 0.991201
2760540000 0.0024984 0.994125
2772538000 0.0131797 0.997647
2784536000 0.0234616 1.00103
2796534000 0.0330475 1.00257
2808532000 0.0414621 1.00569
2820530000 0.0490613 1.0055
2832528000 0.0581726 1.00514
2844526000 0.0659305 1.00758
2856524000 0.0749736 1.0017
2868522000 0.0819904 0.999378
2880520000 0.0906327 0.996189
2892518000 0.0987992 0.990573
2904516000 0.106883 0.989297
2916514000 0.115112 0.985302
2928512000 0.123429 0.981413
2940510000 0.127023 0.98104
2952508000 0.138885 0.975215
2964506000 0.150527 0.969802
2976504000 0.158813 0.968594
2988502000 0.173159 0.969118
3000500000 0.185683 0.966616
3012498000 0.196479 0.967289
3024496000 0.201044 0.96748
3036494000 0.213279 0.967182
3048492000 0.224438 0.966634
3060490000 0.233225 0.965815
3072488000 0.241318 0.963913
3084486000 0.250314 0.963185
3096484000 0.258125 0.96077
3108482000 0.263421 0.958692
3120480000 0.272412 0.956663
3132478000 0.278452 0.952335
3144476000 0.286534 0.947955
3156474000 0.295868 0.945813
3168472000 0.303519 0.942815
3180470000 0.310717 0.938249
3192468000 0.32034 0.933651
3204466000 0.32982 0.928134
3216464000 0.339288 0.923112
3228462000 0.350945 0.919085
3240460000 0.362456 0.914594
3252458000 0.373874 0.911256
3264456000 0.386202 0.907443
3276454000 0.393608 0.904154
3288452000 0.405577 0.901334
3300450000 0.409796 0.892305
3312448000 0.42513 0.888778
3324446000 0.432511 0.882935
3336444000 0.443539 0.878747
3348442000 0.452284 0.873227
3360440000 0.461552 0.868319
3372438000 0.469781 0.860153
3384436000 0.476951 0.855482
3396434000 0.486333 0.847836
3408432000 0.497356 0.841727
3420430000 0.508316 0.837712
3432428000 0.51608 0.828487
3444426000 0.529615 0.820978
3456424000 0.540954 0.815644
3468422000 0.548925 0.80727
3480420000 0.559639 0.800667
3492418000 0.569973 0.794551
3504416000 0.580275 0.78774
3516414000 0.59021 0.780112
3528412000 0.599116 0.775628
3540410000 0.605999 0.771418
3552408000 0.614219 0.7671
3564406000 0.622878 0.762321
3576404000 0.629245 0.753529
3588402000 0.636302 0.749271
3600400000 0.642726 0.741065
3612398000 0.648505 0.734632
3624396000 0.655492 0.726556
3636394000 0.663114 0.719913
3648392000 0.671326 0.711752
3660390000 0.676373 0.705766
3672388000 0.685805 0.699256
3684386000 0.69398 0.683042
3696384000 0.69971 0.677875
3708382000 0.706927 0.669861
3720380000 0.714339 0.660265
3732378000 0.722774 0.651277
3744376000 0.729102 0.642745
3756374000 0.737033 0.633635
3768372000 0.744592 0.625725
3780370000 0.751856 0.61521
3792368000 0.7567 0.611143
3804366000 0.765874 0.601787
3816364000 0.769299 0.593012
3828362000 0.775393 0.588449
3840360000 0.779558 0.587641
3852358000 0.784721 0.575371
3864356000 0.786998 0.57104
3876354000 0.789515 0.563961
3888352000 0.794543 0.55849
3900350000 0.79985 0.552731
3912348000 0.803008 0.546539
3924346000 0.807745 0.54109
3936344000 0.810426 0.533969
3948342000 0.814254 0.528158
3960340000 0.811816 0.525076
3972338000 0.818091 0.51759
3984336000 0.820702 0.506228
3996334000 0.827691 0.498433
4008332000 0.833047 0.490711
4020330000 0.837728 0.481029
4032328000 0.844285 0.472113
4044326000 0.847494 0.463693
4056324000 0.852553 0.452336
4068322000 0.855521 0.439432
4080320000 0.858997 0.425671
4092318000 0.865278 0.411407
4104316000 0.869957 0.392058
4116314000 0.875875 0.373515
4128312000 0.881168 0.357462
4140310000 0.889071 0.33731
4152308000 0.896492 0.320574
4164306000 0.902 0.303991
4176304000 0.908475 0.29123
4188302000 0.911848 0.279664
4200300000 0.916357 0.27348
4212298000 0.915969 0.267267
4224296000 0.916684 0.266464
4236294000 0.919632 0.259111
4248292000 0.92191 0.260173
4260290000 0.928464 0.251632
4272288000 0.923553 0.251241
4284286000 0.927046 0.244908
4296284000 0.92613 0.236601
4308282000 0.928739 0.225132
4320280000 0.930054 0.212057
4332278000 0.929335 0.202924
4344276000 0.926327 0.187702
4356274000 0.926986 0.172644
4368272000 0.923116 0.159247
4380270000 0.922843 0.142595
4392268000 0.918952 0.121342
4404266000 0.918837 0.105481
4416264000 0.918736 0.0828689
4428262000 0.918215 0.064151
4440260000 0.919695 0.0446792
4452258000 0.923136 0.0285962
4464256000 0.925644 0.01388
4476254000 0.926976 -0.00327159
4488252000 0.92894 -0.01581
4500250000 0.92805 -0.0254345
4512248000 0.92779 -0.0405635
4524246000 0.930353 -0.0501331
4536244000 0.931453 -0.0611171
4548242000 0.927892 -0.0701449
4560240000 0.931579 -0.0757275
4572238000 0.928575 -0.0811097
4584236000 0.922848 -0.0893715
4596234000 0.919849 -0.0981722
4608232000 0.910616 -0.106874
4620230000 0.900992 -0.120144
4632228000 0.896366 -0.139221
4644226000 0.886614 -0.15324
4656224000 0.875178 -0.171291
4668222000 0.868049 -0.18675
4680220000 0.856237 -0.20664
4692218000 0.853179 -0.226455
4704216000 0.840026 -0.244882
4716214000 0.831276 -0.261497
4728212000 0.819288 -0.279268
4740210000 0.80818 -0.295543
4752208000 0.793937 -0.314264
4764206000 0.785665 -0.331938
4776204000 0.774059 -0.348104
4788202000 0.766944 -0.362691
4800200000 0.752716 -0.37948
4812198000 0.74598 -0.395699
4824196000 0.736008 -0.408348
4836194000 0.719815 -0.417816
4848192000 0.71094 -0.429775
4860190000 0.695516 -0.438605
4872188000 0.677733 -0.445672
4884186000 0.658907 -0.455633
4896184000 0.637014 -0.464797
4908182000 0.618538 -0.475919
4920180000 0.589883 -0.480676
4932178000 0.565308 -0.493809
4944176000 0.535689 -0.498392
4956174000 0.509268 -0.506738
4968172000 0.473752 -0.507727
4980170000 0.441266 -0.510523
4992168000 0.406981 -0.51168
5004166000 0.372477 -0.511968
5016164000 0.336268 -0.513503
5028162000 0.302795 -0.510493
5040160000 0.266346 -0.504065
5052158000 0.231144 -0.498214
5064156000 0.196923 -0.484349
5076154000 0.165865 -0.470656
5088152000 0.132662 -0.456121
5100150000 0.10369 -0.434565
5112148000 0.0807346 -0.408749
5124146000 0.0534273 -0.383049
5136144000 0.0307641 -0.350368
5148142000 0.0132981 -0.318023
5160140000 -0.00221502 -0.276538
5172138000 -0.00715888 -0.238161
5184136000 -0.0107322 -0.194424
5196134000 -0.0143016 -0.145923
5208132000 -0.0114854 -0.0959719
5220130000 -0.01046 -0.050752
5232128000 -0.00686456 -0.00188814
5244126000 -0.00247399 0.0443344
5256124000 0.00824358 0.0857266
5268122000 0.016871 0.135182
5280120000 0.0380463 0.165005
5292118000 0.0597302 0.196711
5304116000 0.0921185 0.221071
5316114000 0.123441 0.241466
5328112000 0.160568 0.259145
5340110000 0.201606 0.274296
5352108000 0.231028 0.284656
5364106000 0.271785 0.297209
5376104000 0.305992 0.301663
5388102000 0.336616 0.307077
5400100000 0.369444 0.307643
5412098000 0.399195 0.307959
5424096000 0.428764 0.303141
5436094000 0.457719 0.299974
5448092000 0.483369 0.292795
5460090000 0.511024 0.284953
5472088000 0.535855 0.274356
5484086000 0.562732 0.263608
5496084000 0.588067 0.248948
5508082000 0.614242 0.235154
5520080000 0.633615 0.220781
5532078000 0.656931 0.207801
5544076000 0.676261 0.191812
5556074000 0.695479 0.176876
5568072000 0.709403 0.166905
5580070000 0.725969 0.153814
5592068000 0.738457 0.138197
5604066000 0.756094 0.123811
5616064000 0.760337 0.112735
5628062000 0.771995 0.103683
5640060000 0.775832 0.0894067
5652058000 0.783211 0.0725568
5664056000 0.790612 0.0585307
5676054000 0.793122 0.043887
5688052000 0.798632 0.0272955
5700050000 0.801969 0.0125177
5712048000 0.807066 -0.00388078
5724046000 0.811295 -0.0208858
5736044000 0.817369 -0.0367939
5748042000 0.819799 -0.0528261
5760040000 0.822293 -0.069899
5772038000 0.826779 -0.0870479
5784036000 0.832307 -0.103186
5796034000 0.836799 -0.118027
5808032000 0.840791 -0.130011
5820030000 0.843366 -0.151518
5832028000 0.849971 -0.16513
5844026000 0.851365 -0.179866
5856024000 0.855767 -0.196723
5868022000 0.853901 -0.216585
5880020000 0.84706 -0.22453
5892018000 0.853049 -0.242198
5904016000 0.848387 -0.261387
5916014000 0.850895 -0.278417
5928012000 0.842465 -0.29485
5940010000 0.840832 -0.309564
5952008000 0.830312 -0.320746
5964006000 0.825616 -0.337533
5976004000 0.818783 -0.351539
5988002000 0.814637 -0.365179
6000000000 0.804426 -0.377902
