# Hz S RI R 50
1000000 0.994391 0.00129456
12998000 1.01638 -0.0584956
24996000 1.01084 -0.127675
36994000 0.997626 -0.193261
48992000 0.979913 -0.256806
60990000 0.959436 -0.316512
72988000 0.934063 -0.375585
84986000 0.906271 -0.431323
96984000 0.87511 -0.484995
108982000 0.8412 -0.536862
120980000 0.805751 -0.586292
132978000 0.76865 -0.632641
144976000 0.729532 -0.677516
156974000 0.688783 -0.720015
168972000 0.646922 -0.759345
180970000 0.603931 -0.796001
192968000 0.559266 -0.82919
204966000 0.513776 -0.860208
216964000 0.467467 -0.887335
228962000 0.42057 -0.910791
240960000 0.374156 -0.931182
252958000 0.327859 -0.94754
264956000 0.281527 -0.961203
276954000 0.235203 -0.972119
288952000 0.19035 -0.979399
300950000 0.14547 -0.984537
312948000 0.101421 -0.987314
324946000 0.0596165 -0.987549
336944000 0.0189191 -0.98674
348942000 -0.0211885 -0.985075
360940000 -0.0608424 -0.98151
372938000 -0.0996385 -0.978142
384936000 -0.136778 -0.97476
396934000 -0.173803 -0.970286
408932000 -0.210528 -0.965304
420930000 -0.245371 -0.960029
432928000 -0.281739 -0.952526
444926000 -0.314892 -0.943804
456924000 -0.347534 -0.935038
468922000 -0.380205 -0.92516
480920000 -0.409799 -0.913701
492918000 -0.438189 -0.900559
504916000 -0.466349 -0.886375
516914000 -0.493689 -0.872137
528912000 -0.518848 -0.855654
540910000 -0.544144 -0.838719
552908000 -0.565947 -0.821726
564906000 -0.588057 -0.804303
576904000 -0.608675 -0.786853
588902000 -0.628321 -0.770502
600900000 -0.646544 -0.752357
612898000 -0.664017 -0.735901
624896000 -0.681965 -0.71942
636894000 -0.700098 -0.70239
648892000 -0.717357 -0.686595
660890000 -0.734311 -0.670786
672888000 -0.751114 -0.654437
684886000 -0.767881 -0.638049
696884000 -0.78394 -0.619971
708882000 -0.799613 -0.603256
720880000 -0.816206 -0.585888
732878000 -0.830544 -0.566352
744876000 -0.843376 -0.547302
756874000 -0.856064 -0.528649
768872000 -0.868231 -0.508051
780870000 -0.87877 -0.487831
792868000 -0.888148 -0.467724
804866000 -0.896195 -0.448055
816864000 -0.904923 -0.428701
828862000 -0.913449 -0.411074
840860000 -0.918516 -0.392011
852858000 -0.92428 -0.375835
864856000 -0.93093 -0.357932
876854000 -0.936314 -0.340545
888852000 -0.943481 -0.323928
900850000 -0.949077 -0.306784
912848000 -0.954723 -0.291419
924846000 -0.960373 -0.275916
936844000 -0.965985 -0.260394
948842000 -0.97232 -0.246416
960840000 -0.978665 -0.232342
972838000 -0.984394 -0.216611
984836000 -0.98957 -0.200791
996834000 -0.993109 -0.185782
1008832000 -0.996089 -0.17089
1020830000 -1.00018 -0.154586
1032828000 -1.00274 -0.138057
1044826000 -1.0049 -0.121576
1056824000 -1.00694 -0.105131
1068822000 -1.00872 -0.0873624
1080820000 -1.00705 -0.0699514
1092818000 -1.00793 -0.0524587
1104816000 -1.00798 -0.0358375
1116814000 -1.00737 -0.0195205
1128812000 -1.0069 -0.00435863
1140810000 -1.00603 0.0113804
1152808000 -1.00624 0.0255464
1164806000 -1.00579 0.0388689
1176804000 -1.00877 0.0549502
1188802000 -1.00393 0.0699599
1200800000 -1.00296 0.0800316
1212798000 -1.00249 0.092196
1224796000 -1.00198 0.104573
1236794000 -1.00142 0.116821
1248792000 -1.00044 0.127896
1260790000 -1.00068 0.13898
1272788000 -0.998845 0.151001
1284786000 -0.996829 0.161464
1296784000 -0.992527 0.17324
1308782000 -0.989759 0.186711
1320780000 -0.986792 0.200525
1332778000 -0.983909 0.214603
1344776000 -0.98068 0.229134
1356774000 -0.977859 0.244104
1368772000 -0.975634 0.256473
1380770000 -0.972342 0.27202
1392768000 -0.967837 0.28688
1404766000 -0.962103 0.301987
1416764000 -0.95673 0.318066
1428762000 -0.9519 0.331885
1440760000 -0.946101 0.346213
1452758000 -0.941766 0.358752
1464756000 -0.938316 0.371157
1476754000 -0.93402 0.383886
1488752000 -0.929619 0.394442
1500750000 -0.925563 0.404821
1512748000 -0.917406 0.41417
1524746000 -0.911806 0.421964
1536744000 -0.905202 0.431907
1548742000 -0.899686 0.44155
1560740000 -0.894198 0.451125
1572738000 -0.888447 0.461484
1584736000 -0.884289 0.47182
1596734000 -0.879908 0.483178
1608732000 -0.875263 0.494652
1620730000 -0.870781 0.505171
1632728000 -0.866053 0.515851
1644726000 -0.85971 0.528217
1656724000 -0.852218 0.53997
1668722000 -0.846909 0.551054
1680720000 -0.840572 0.561278
1692718000 -0.835405 0.571595
1704716000 -0.82952 0.578514
1716714000 -0.82235 0.589238
1728712000 -0.816629 0.598794
1740710000 -0.807387 0.608915
1752708000 -0.799197 0.61951
1764706000 -0.789385 0.626404
1776704000 -0.780142 0.634539
1788702000 -0.770835 0.641596
1800700000 -0.761414 0.650497
1812698000 -0.749171 0.656648
1824696000 -0.740577 0.665941
1836694000 -0.731513 0.673768
1848692000 -0.723965 0.684181
1860690000 -0.715708 0.693018
1872688000 -0.70747 0.703204
1884686000 -0.69873 0.712137
1896684000 -0.691384 0.721707
1908682000 -0.681932 0.733526
1920680000 -0.675386 0.743722
1932678000 -0.66759 0.75513
1944676000 -0.657851 0.76358
1956674000 -0.652822 0.772943
1968672000 -0.647914 0.780479
1980670000 -0.641338 0.787989
1992668000 -0.635432 0.791114
2004666000 -0.629946 0.798198
2016664000 -0.626516 0.800565
2028662000 -0.619931 0.803552
2040660000 -0.613083 0.806258
2052658000 -0.605372 0.807461
2064656000 -0.597006 0.809294
2076654000 -0.586574 0.813438
2088652000 -0.575781 0.815134
2100650000 -0.565743 0.818833
2112648000 -0.550972 0.822472
2124646000 -0.538473 0.83055
2136644000 -0.524112 0.836861
2148642000 -0.510681 0.847362
2160640000 -0.496861 0.856023
2172638000 -0.486418 0.866352
2184636000 -0.476539 0.878198
2196634000 -0.466578 0.889281
2208632000 -0.460402 0.901415
2220630000 -0.454329 0.908034
2232628000 -0.452181 0.914603
2244626000 -0.449519 0.92028
2256624000 -0.447496 0.925139
2268622000 -0.441036 0.925061
2280620000 -0.438671 0.928462
2292618000 -0.435927 0.92922
2304616000 -0.429338 0.930309
2316614000 -0.422735 0.929772
2328612000 -0.410722 0.93024
2340610000 -0.398278 0.929761
2352608000 -0.382037 0.929003
2364606000 -0.366089 0.932493
2376604000 -0.35003 0.931485
2388602000 -0.333166 0.933996
2400600000 -0.316378 0.938208
2412598000 -0.301138 0.941852
2424596000 -0.286152 0.947636
2436594000 -0.270316 0.953255
2448592000 -0.256901 0.957731
2460590000 -0.243505 0.965096
2472588000 -0.233858 0.973177
2484586000 -0.226059 0.979394
2496584000 -0.217927 0.986502
2508582000 -0.209006 0.992219
2520580000 -0.199108 0.995815
2532578000 -0.194414 1.00128
2544576000 -0.187853 1.0059
2556574000 -0.179146 1.00708
2568572000 -0.172239 1.00762
2580570000 -0.161627 1.00803
2592568000 -0.154989 1.00591
2604566000 -0.151781 1.00245
2616564000 -0.13759 0.998671
2628562000 -0.126676 0.996788
2640560000 -0.117319 0.991209
2652558000 -0.106368 0.991244
2664556000 -0.0954286 0.988233
2676554000 -0.0812877 0.984711
2688552000 -0.0705897 0.984812
2700550000 -0.0561518 0.984237
2712548000 -0.0445652 0.983994
2724546000 -0.0302826 0.985811
2736544000 -0.0209785 0.989317
2748542000 -0.00948495 0.991751
2760540000 0.00191494 0.994943
2772538000 0.0125375 0.99832
2784536000 0.022886 1.00156
2796534000 0.0316685 1.00377
2808532000 0.0398857 1.00576
2820530000 0.0493867 1.00559
2832528000 0.0571108 1.00618
2844526000 0.0662794 1.00621
2856524000 0.0742447 1.00311
2868522000 0.0822563 1.00014
2880520000 0.0889031 0.997299
2892518000 0.0973006 0.991111
2904516000 0.105477 0.989992
2916514000 0.113904 0.986175
2928512000 0.121979 0.982162
2940510000 0.127029 0.981207
2952508000 0.137738 0.976934
2964506000 0.148159 0.971375
2976504000 0.158782 0.969064
2988502000 0.171417 0.969952
3000500000 0.182312 0.969688
3012498000 0.196277 0.969208
3024496000 0.20032 0.968547
3036494000 0.213323 0.967022
3048492000 0.223852 0.967032
3060490000 0.233488 0.9658
3072488000 0.241462 0.965645
3084486000 0.249486 0.964745
3096484000 0.257191 0.962165
3108482000 0.264667 0.961098
3120480000 0.272619 0.958036
3132478000 0.27755 0.951742
3144476000 0.286675 0.94883
3156474000 0.296378 0.94667
3168472000 0.303044 0.943348
3180470000 0.31052 0.939697
3192468000 0.319828 0.934769
3204466000 0.329597 0.928555
3216464000 0.339197 0.923906
3228462000 0.35125 0.91852
3240460000 0.361558 0.913291
3252458000 0.375524 0.910229
3264456000 0.383605 0.907959
3276454000 0.394254 0.903808
3288452000 0.404064 0.899069
3300450000 0.41011 0.892718
3312448000 0.425203 0.889181
3324446000 0.432439 0.883004
3336444000 0.443319 0.879535
3348442000 0.4518 0.873105
3360440000 0.46104 0.868729
3372438000 0.469478 0.861606
3384436000 0.478529 0.855422
3396434000 0.487294 0.845634
3408432000 0.496654 0.842775
3420430000 0.508007 0.837011
3432428000 0.516449 0.829639
3444426000 0.530236 0.820486
3456424000 0.541218 0.815279
3468422000 0.549045 0.808736
3480420000 0.559788 0.801762
3492418000 0.569519 0.796139
3504416000 0.580417 0.789089
3516414000 0.590288 0.780675
3528412000 0.599273 0.775012
3540410000 0.604229 0.772456
3552408000 0.613167 0.765483
3564406000 0.621415 0.762962
3576404000 0.626983 0.753138
3588402000 0.636256 0.749005
3600400000 0.640851 0.741341
3612398000 0.648529 0.735106
3624396000 0.655333 0.726678
3636394000 0.663645 0.720105
3648392000 0.670275 0.713152
3660390000 0.67614 0.705007
3672388000 0.683734 0.697948
3684386000 0.689696 0.686039
3696384000 0.699048 0.678434
3708382000 0.704693 0.672755
3720380000 0.71553 0.66204
3732378000 0.722631 0.651275
3744376000 0.728716 0.643217
3756374000 0.737163 0.634574
3768372000 0.743946 0.625927
3780370000 0.751841 0.615869
3792368000 0.756999 0.611336
3804366000 0.763934 0.602087
3816364000 0.769439 0.593908
3828362000 0.775124 0.590696
3840360000 0.777836 0.586689
3852358000 0.782991 0.576327
3864356000 0.787419 0.57148
3876354000 0.790791 0.565776
3888352000 0.794609 0.559372
3900350000 0.798577 0.553126
3912348000 0.802441 0.547106
3924346000 0.807612 0.54141
3936344000 0.810665 0.535842
3948342000 0.812301 0.530268
3960340000 0.810968 0.525609
3972338000 0.816506 0.519553
3984336000 0.821372 0.508761
3996334000 0.826913 0.499012
4008332000 0.832627 0.491655
4020330000 0.839579 0.481244
4032328000 0.843375 0.473686
4044326000 0.84828 0.463764
4056324000 0.853105 0.453236
4068322000 0.855538 0.440789
4080320000 0.859488 0.426838
4092318000 0.865747 0.412702
4104316000 0.871476 0.394436
4116314000 0.875552 0.37478
4128312000 0.882665 0.358953
4140310000 0.889266 0.33717
4152308000 0.894634 0.321772
4164306000 0.900366 0.304866
4176304000 0.906843 0.292809
4188302000 0.913284 0.280807
4200300000 0.916908 0.274731
4212298000 0.9158 0.267997
4224296000 0.917591 0.267054
4236294000 0.919939 0.26104
4248292000 0.92065 0.258858
4260290000 0.92654 0.253791
4272288000 0.924088 0.251276
4284286000 0.926746 0.247446
4296284000 0.926759 0.235529
4308282000 0.928084 0.226796
4320280000 0.927775 0.217619
4332278000 0.931447 0.196652
4344276000 0.928174 0.186245
4356274000 0.927749 0.172964
4368272000 0.924005 0.159685
4380270000 0.923526 0.142532
4392268000 0.919792 0.122144
4404266000 0.919842 0.105771
4416264000 0.919349 0.0836547
4428262000 0.918262 0.064581
4440260000 0.91853 0.0463827
4452258000 0.923875 0.0294483
4464256000 0.926752 0.0122132
4476254000 0.926943 -0.00239136
4488252000 0.92861 -0.0144213
4500250000 0.92825 -0.0250225
4512248000 0.928372 -0.0400642
4524246000 0.931079 -0.0486091
4536244000 0.93123 -0.0610036
4548242000 0.930259 -0.0684558
4560240000 0.927224 -0.0739209
4572238000 0.925663 -0.0810689
4584236000 0.923428 -0.0882901
4596234000 0.919227 -0.0977606
4608232000 0.909908 -0.109195
4620230000 0.90267 -0.121689
4632228000 0.893942 -0.138654
4644226000 0.887056 -0.153032
4656224000 0.87673 -0.170822
4668222000 0.86878 -0.186307
4680220000 0.857074 -0.206052
4692218000 0.854042 -0.226193
4704216000 0.840701 -0.244007
4716214000 0.832005 -0.261688
4728212000 0.818336 -0.277901
4740210000 0.808856 -0.295099
4752208000 0.795229 -0.314399
4764206000 0.785534 -0.332494
4776204000 0.775369 -0.347275
4788202000 0.767699 -0.362797
4800200000 0.754477 -0.378826
4812198000 0.746208 -0.395295
4824196000 0.736236 -0.407367
4836194000 0.722864 -0.416381
4848192000 0.709572 -0.430262
4860190000 0.694003 -0.437379
4872188000 0.680751 -0.445924
4884186000 0.658171 -0.452753
4896184000 0.636149 -0.464859
4908182000 0.619055 -0.476288
4920180000 0.590526 -0.482853
4932178000 0.565783 -0.493742
4944176000 0.536389 -0.498351
4956174000 0.509614 -0.506745
4968172000 0.473239 -0.50822
4980170000 0.44157 -0.5108
4992168000 0.408233 -0.512242
5004166000 0.37489 -0.512687
5016164000 0.335714 -0.513722
5028162000 0.303264 -0.511479
5040160000 0.266822 -0.504559
5052158000 0.231451 -0.498278
5064156000 0.197218 -0.484349
5076154000 0.166765 -0.470498
5088152000 0.132953 -0.454596
5100150000 0.102907 -0.433607
5112148000 0.0816635 -0.408522
5124146000 0.053623 -0.383925
5136144000 0.0310847 -0.350129
5148142000 0.0131156 -0.317789
5160140000 -0.00204255 -0.276577
5172138000 -0.00668948 -0.2385
5184136000 -0.0101752 -0.194177
5196134000 -0.0143714 -0.146439
5208132000 -0.0113718 -0.0959788
5220130000 -0.0106037 -0.0505022
5232128000 -0.00670448 -0.00198646
5244126000 -0.00238112 0.0442524
5256124000 0.00850136 0.0858034
5268122000 0.0170337 0.135135
5280120000 0.0382862 0.164806
5292118000 0.0599747 0.196672
5304116000 0.0923338 0.221402
5316114000 0.123455 0.242025
5328112000 0.160277 0.260105
5340110000 0.20187 0.275096
5352108000 0.230574 0.286048
5364106000 0.271103 0.297146
5376104000 0.30622 0.302044
5388102000 0.337321 0.307431
5400100000 0.369912 0.308131
5412098000 0.39895 0.307367
5424096000 0.429055 0.303787
5436094000 0.457988 0.300327
5448092000 0.483414 0.293384
5460090000 0.511234 0.285255
5472088000 0.536051 0.274761
5484086000 0.562852 0.26405
5496084000 0.589034 0.249196
5508082000 0.613748 0.236429
5520080000 0.634817 0.221074
5532078000 0.656682 0.20832
5544076000 0.676447 0.192544
5556074000 0.695571 0.177044
5568072000 0.709765 0.168898
5580070000 0.726505 0.153324
5592068000 0.738467 0.138734
5604066000 0.754634 0.126846
5616064000 0.758503 0.11371
5628062000 0.770567 0.0994719
5640060000 0.775551 0.08691
5652058000 0.782321 0.0748747
5664056000 0.788752 0.0577208
5676054000 0.793717 0.0436286
5688052000 0.797895 0.0283043
5700050000 0.803884 0.0122215
5712048000 0.806843 -0.0037842
5724046000 0.811687 -0.0205763
5736044000 0.817885 -0.0367702
5748042000 0.820692 -0.0517015
5760040000 0.823647 -0.0696634
5772038000 0.827666 -0.0874638
5784036000 0.833433 -0.100113
5796034000 0.83584 -0.117894
5808032000 0.841329 -0.129819
5820030000 0.84402 -0.151065
5832028000 0.849891 -0.16457
5844026000 0.851895 -0.180113
5856024000 0.854871 -0.195428
5868022000 0.853377 -0.218303
5880020000 0.846852 -0.228067
5892018000 0.854364 -0.240463
5904016000 0.84867 -0.259074
5916014000 0.847822 -0.278621
5928012000 0.845495 -0.295403
5940010000 0.838335 -0.308426
5952008000 0.829253 -0.320224
5964006000 0.825048 -0.338069
5976004000 0.823027 -0.350443
5988002000 0.813382 -0.364964
6000000000 0.804892 -0.377672
