# Hz S RI R 50
1000000 0.991047 -0.000571397
12998000 1.01567 -0.058416
24996000 1.01061 -0.127571
36994000 0.996887 -0.193505
48992000 0.979779 -0.256607
60990000 0.95931 -0.316096
72988000 0.934112 -0.374957
84986000 0.906167 -0.430959
96984000 0.874938 -0.484819
108982000 0.841264 -0.536642
120980000 0.805822 -0.585949
132978000 0.768872 -0.632485
144976000 0.729702 -0.67707
156974000 0.689008 -0.71985
168972000 0.646565 -0.759193
180970000 0.603808 -0.796074
192968000 0.559002 -0.829425
204966000 0.513364 -0.860144
216964000 0.467021 -0.887494
228962000 0.420241 -0.911103
240960000 0.374042 -0.931217
252958000 0.327924 -0.947664
264956000 0.281214 -0.961287
276954000 0.23512 -0.972072
288952000 0.190195 -0.979281
300950000 0.145477 -0.984477
312948000 0.10149 -0.987259
324946000 0.0599038 -0.987817
336944000 0.0186714 -0.986714
348942000 -0.0210401 -0.984866
360940000 -0.0610914 -0.981729
372938000 -0.0994453 -0.978342
384936000 -0.136696 -0.974708
396934000 -0.173614 -0.970146
408932000 -0.210448 -0.965608
420930000 -0.245075 -0.960186
432928000 -0.280997 -0.952311
444926000 -0.314745 -0.943688
456924000 -0.34755 -0.934983
468922000 -0.379949 -0.925407
480920000 -0.409594 -0.913881
492918000 -0.438324 -0.900507
504916000 -0.465732 -0.886643
516914000 -0.493919 -0.872
528912000 -0.518577 -0.855744
540910000 -0.543663 -0.838953
552908000 -0.566215 -0.821803
564906000 -0.588025 -0.804638
576904000 -0.608332 -0.787424
588902000 -0.62802 -0.770529
600900000 -0.646887 -0.752655
612898000 -0.664018 -0.736014
624896000 -0.68206 -0.719703
636894000 -0.699998 -0.702722
648892000 -0.717463 -0.68688
660890000 -0.734453 -0.671251
672888000 -0.751286 -0.654219
684886000 -0.767812 -0.638268
696884000 -0.784508 -0.620477
708882000 -0.800011 -0.603897
720880000 -0.816772 -0.585442
732878000 -0.830203 -0.566816
744876000 -0.843554 -0.547669
756874000 -0.856338 -0.528557
768872000 -0.868302 -0.508204
780870000 -0.878958 -0.487904
792868000 -0.888358 -0.468083
804866000 -0.896405 -0.448228
816864000 -0.905073 -0.429106
828862000 -0.91267 -0.411592
840860000 -0.918844 -0.393206
852858000 -0.923922 -0.376177
864856000 -0.93101 -0.358273
876854000 -0.937129 -0.340221
888852000 -0.943854 -0.323871
900850000 -0.94932 -0.306926
912848000 -0.95481 -0.29151
924846000 -0.960304 -0.276103
936844000 -0.966056 -0.260832
948842000 -0.972326 -0.245834
960840000 -0.978917 -0.232046
972838000 -0.984016 -0.217394
984836000 -0.98999 -0.20109
996834000 -0.993206 -0.185562
1008832000 -0.996781 -0.170667
1020830000 -1.00048 -0.154547
1032828000 -1.00283 -0.137794
1044826000 -1.00513 -0.121434
1056824000 -1.00689 -0.104573
1068822000 -1.00833 -0.0868272
1080820000 -1.00945 -0.0688576
1092818000 -1.00906 -0.051972
1104816000 -1.00756 -0.0351626
1116814000 -1.00759 -0.0197053
1128812000 -1.00773 -0.00392556
1140810000 -1.00609 0.0109594
1152808000 -1.00649 0.0252136
1164806000 -1.00599 0.0397615
1176804000 -1.00792 0.0556008
1188802000 -1.00379 0.0704633
1200800000 -1.00259 0.0812164
1212798000 -1.00248 0.0932232
1224796000 -1.00124 0.10487
1236794000 -1.00209 0.116646
1248792000 -1.00121 0.127743
1260790000 -1.00031 0.140447
1272788000 -0.999554 0.151145
1284786000 -0.997239 0.161626
1296784000 -0.992333 0.173329
1308782000 -0.989601 0.186956
1320780000 -0.986861 0.200553
1332778000 -0.984284 0.214849
1344776000 -0.980757 0.228974
1356774000 -0.978245 0.243921
1368772000 -0.97523 0.257041
1380770000 -0.972206 0.271881
1392768000 -0.967389 0.286159
1404766000 -0.962594 0.302854
1416764000 -0.958173 0.318222
1428762000 -0.952014 0.331843
1440760000 -0.946774 0.345625
1452758000 -0.94196 0.35901
1464756000 -0.937967 0.371245
1476754000 -0.933922 0.384219
1488752000 -0.929567 0.394775
1500750000 -0.924407 0.404978
1512748000 -0.917189 0.414538
1524746000 -0.911454 0.422626
1536744000 -0.904734 0.43156
1548742000 -0.898792 0.442049
1560740000 -0.89352 0.450804
1572738000 -0.888414 0.461258
1584736000 -0.883739 0.471699
1596734000 -0.879645 0.483121
1608732000 -0.875098 0.494577
1620730000 -0.870421 0.504994
1632728000 -0.86565 0.516787
1644726000 -0.859161 0.528987
1656724000 -0.85209 0.539067
1668722000 -0.845389 0.549288
1680720000 -0.840819 0.561788
1692718000 -0.834856 0.569791
1704716000 -0.830476 0.579913
1716714000 -0.823468 0.588434
1728712000 -0.816966 0.598227
1740710000 -0.807845 0.60908
1752708000 -0.798991 0.618805
1764706000 -0.789391 0.626217
1776704000 -0.780174 0.634517
1788702000 -0.771203 0.641357
1800700000 -0.760264 0.649342
1812698000 -0.74907 0.657457
1824696000 -0.741709 0.667307
1836694000 -0.733145 0.674426
1848692000 -0.72442 0.684594
1860690000 -0.715779 0.693402
1872688000 -0.707269 0.702853
1884686000 -0.698901 0.712526
1896684000 -0.691675 0.7218
1908682000 -0.682452 0.733609
1920680000 -0.675211 0.744264
1932678000 -0.667553 0.755169
1944676000 -0.657819 0.763748
1956674000 -0.651592 0.772633
1968672000 -0.648124 0.780315
1980670000 -0.639906 0.788602
1992668000 -0.63518 0.792916
2004666000 -0.632253 0.797746
2016664000 -0.626586 0.801069
2028662000 -0.619677 0.803606
2040660000 -0.613032 0.805873
2052658000 -0.605435 0.80739
2064656000 -0.597209 0.808799
2076654000 -0.587376 0.812765
2088652000 -0.575985 0.814377
2100650000 -0.564915 0.818162
2112648000 -0.550718 0.823845
2124646000 -0.538974 0.830369
2136644000 -0.524408 0.838289
2148642000 -0.509957 0.846728
2160640000 -0.497169 0.856543
2172638000 -0.486827 0.866907
2184636000 -0.476569 0.878314
2196634000 -0.466621 0.889674
2208632000 -0.460357 0.901775
2220630000 -0.455043 0.906493
2232628000 -0.451694 0.915795
2244626000 -0.449592 0.921729
2256624000 -0.447292 0.924496
2268622000 -0.440808 0.925776
2280620000 -0.438453 0.92796
2292618000 -0.4358 0.930372
2304616000 -0.429726 0.929971
2316614000 -0.422693 0.929899
2328612000 -0.411144 0.929796
2340610000 -0.398436 0.929779
2352608000 -0.382304 0.929285
2364606000 -0.365687 0.930436
2376604000 -0.350669 0.932303
2388602000 -0.335286 0.934587
2400600000 -0.31715 0.937328
2412598000 -0.300333 0.941431
2424596000 -0.285947 0.947912
2436594000 -0.270022 0.953441
2448592000 -0.258161 0.957742
2460590000 -0.243675 0.965287
2472588000 -0.2334 0.973379
2484586000 -0.22621 0.979221
2496584000 -0.216661 0.985802
2508582000 -0.207716 0.99241
2520580000 -0.198689 0.999097
2532578000 -0.194824 1.00286
2544576000 -0.187574 1.00645
2556574000 -0.18004 1.00593
2568572000 -0.172347 1.00881
2580570000 -0.161917 1.0084
2592568000 -0.155032 1.00567
2604566000 -0.144239 1.00308
2616564000 -0.137178 0.999628
2628562000 -0.125859 0.997414
2640560000 -0.115786 0.992421
2652558000 -0.106104 0.98954
2664556000 -0.0939702 0.988922
2676554000 -0.0827455 0.987318
2688552000 -0.0719102 0.985593
2700550000 -0.0577965 0.983294
2712548000 -0.0450082 0.983676
2724546000 -0.0319299 0.98583
2736544000 -0.0213635 0.990443
2748542000 -0.00903692 0.992175
2760540000 0.00185313 0.9952
2772538000 0.0127632 0.999112
2784536000 0.0227609 1.00256
2796534000 0.0323611 1.00276
2808532000 0.0407186 1.00558
2820530000 0.0484744 1.00548
2832528000 0.0575027 1.00741
2844526000 0.0669831 1.00593
2856524000 0.0745958 1.00291
2868522000 0.0817292 1.00063
2880520000 0.0888345 0.996777
2892518000 0.0971666 0.991844
2904516000 0.106162 0.990098
2916514000 0.113243 0.987184
2928512000 0.122413 0.981922
2940510000 0.125633 0.981142
2952508000 0.13807 0.974577
2964506000 0.149292 0.970693
2976504000 0.161131 0.969939
2988502000 0.173412 0.969819
3000500000 0.182527 0.967031
3012498000 0.194603 0.969204
3024496000 0.20002 0.969059
3036494000 0.213412 0.967697
3048492000 0.22416 0.967077
3060490000 0.233037 0.966445
3072488000 0.241524 0.965655
3084486000 0.249217 0.963618
3096484000 0.256771 0.961034
3108482000 0.263545 0.96023
3120480000 0.273713 0.957342
3132478000 0.275794 0.952476
3144476000 0.288266 0.948536
3156474000 0.295188 0.947554
3168472000 0.301954 0.942303
3180470000 0.310603 0.938746
3192468000 0.319487 0.934494
3204466000 0.329126 0.928587
3216464000 0.338905 0.924074
3228462000 0.350123 0.91876
3240460000 0.36137 0.915181
3252458000 0.372093 0.91084
3264456000 0.382328 0.908188
3276454000 0.391307 0.90458
3288452000 0.403305 0.900772
3300450000 0.410961 0.892999
3312448000 0.424106 0.889569
3324446000 0.432042 0.882534
3336444000 0.442805 0.879758
3348442000 0.4513 0.873676
3360440000 0.461806 0.868219
3372438000 0.469273 0.862303
3384436000 0.48012 0.855662
3396434000 0.486384 0.849657
3408432000 0.496583 0.842357
3420430000 0.508396 0.838817
3432428000 0.51755 0.828323
3444426000 0.529932 0.82195
3456424000 0.540445 0.815836
3468422000 0.548153 0.808764
3480420000 0.559221 0.80167
3492418000 0.56956 0.796002
3504416000 0.579923 0.789657
3516414000 0.58873 0.780707
3528412000 0.598489 0.77598
3540410000 0.604806 0.772954
3552408000 0.616158 0.765936
3564406000 0.622671 0.763055
3576404000 0.627281 0.752181
3588402000 0.634714 0.750819
3600400000 0.64139 0.742104
3612398000 0.647994 0.735178
3624396000 0.655454 0.726963
3636394000 0.662792 0.720644
3648392000 0.67016 0.712258
3660390000 0.676229 0.705115
3672388000 0.682406 0.696896
3684386000 0.691718 0.687098
3696384000 0.700113 0.678939
3708382000 0.706823 0.670679
3720380000 0.716206 0.663024
3732378000 0.723648 0.652463
3744376000 0.727617 0.644402
3756374000 0.736317 0.634139
3768372000 0.743887 0.626499
3780370000 0.751718 0.616196
3792368000 0.756258 0.611876
3804366000 0.764484 0.602972
3816364000 0.769503 0.595716
3828362000 0.774313 0.59016
3840360000 0.779429 0.586733
3852358000 0.783136 0.578536
3864356000 0.785069 0.569909
3876354000 0.790484 0.564899
3888352000 0.794736 0.559756
3900350000 0.798361 0.553882
3912348000 0.802207 0.547404
3924346000 0.807816 0.541551
3936344000 0.810588 0.535684
3948342000 0.812037 0.529477
3960340000 0.81047 0.524373
3972338000 0.815457 0.51814
3984336000 0.82163 0.506195
3996334000 0.827642 0.499629
4008332000 0.832123 0.491506
4020330000 0.839393 0.482585
4032328000 0.842346 0.4732
4044326000 0.846724 0.46372
4056324000 0.852895 0.453052
4068322000 0.855389 0.44096
4080320000 0.859236 0.427583
4092318000 0.865176 0.412901
4104316000 0.872208 0.39379
4116314000 0.875889 0.374828
4128312000 0.883787 0.358935
4140310000 0.889583 0.338853
4152308000 0.895123 0.321758
4164306000 0.902214 0.305188
4176304000 0.906733 0.291815
4188302000 0.912243 0.281807
4200300000 0.915682 0.274995
4212298000 0.915447 0.268588
4224296000 0.916883 0.26765
4236294000 0.918914 0.260969
4248292000 0.919176 0.260811
4260290000 0.92856 0.252661
4272288000 0.925721 0.251157
4284286000 0.927249 0.24645
4296284000 0.928703 0.237344
4308282000 0.928584 0.227144
4320280000 0.929951 0.21378
4332278000 0.929872 0.20136
4344276000 0.928854 0.187018
4356274000 0.930978 0.174015
4368272000 0.923852 0.160311
4380270000 0.923667 0.143445
4392268000 0.920165 0.122335
4404266000 0.919435 0.106128
4416264000 0.919075 0.084058
4428262000 0.919146 0.0653632
4440260000 0.920146 0.0477998
4452258000 0.924619 0.0297637
4464256000 0.924993 0.012996
4476254000 0.927519 -0.00174113
4488252000 0.929842 -0.0138771
4500250000 0.928634 -0.0245331
4512248000 0.928433 -0.0397009
4524246000 0.93031 -0.0499355
4536244000 0.931305 -0.059223
4548242000 0.929938 -0.0678935
4560240000 0.93224 -0.0751686
4572238000 0.92626 -0.0798506
4584236000 0.925173 -0.0879429
4596234000 0.920441 -0.0988729
4608232000 0.912172 -0.105927
4620230000 0.904059 -0.120542
4632228000 0.896129 -0.137212
4644226000 0.887087 -0.151777
4656224000 0.875998 -0.170118
4668222000 0.869216 -0.186277
4680220000 0.857455 -0.20588
4692218000 0.854516 -0.22567
4704216000 0.841001 -0.243892
4716214000 0.832307 -0.260683
4728212000 0.819054 -0.276881
4740210000 0.808926 -0.295924
4752208000 0.794958 -0.314559
4764206000 0.786172 -0.330936
4776204000 0.776201 -0.347119
4788202000 0.767828 -0.362543
4800200000 0.75462 -0.378423
4812198000 0.747196 -0.395032
4824196000 0.736806 -0.407497
4836194000 0.722784 -0.416355
4848192000 0.710134 -0.429653
4860190000 0.695443 -0.437666
4872188000 0.679209 -0.448102
4884186000 0.65842 -0.456344
4896184000 0.638709 -0.464578
4908182000 0.619337 -0.474231
4920180000 0.589735 -0.480933
4932178000 0.56626 -0.493992
4944176000 0.53669 -0.498357
4956174000 0.509795 -0.506569
4968172000 0.474726 -0.507514
4980170000 0.442653 -0.510955
4992168000 0.407254 -0.512554
5004166000 0.374402 -0.513624
5016164000 0.337064 -0.514178
5028162000 0.303183 -0.511388
5040160000 0.266595 -0.504256
5052158000 0.231769 -0.498358
5064156000 0.197212 -0.484704
5076154000 0.166441 -0.471095
5088152000 0.133092 -0.456323
5100150000 0.104128 -0.433759
5112148000 0.0815046 -0.410123
5124146000 0.0549576 -0.383448
5136144000 0.0313729 -0.350229
5148142000 0.0140416 -0.317853
5160140000 -0.00168834 -0.276485
5172138000 -0.00682138 -0.238235
5184136000 -0.00996631 -0.194267
5196134000 -0.0148963 -0.145607
5208132000 -0.0115485 -0.096036
5220130000 -0.0106726 -0.050585
5232128000 -0.00680749 -0.00190045
5244126000 -0.00248947 0.0443909
5256124000 0.00837473 0.0858394
5268122000 0.020456 0.130178
5280120000 0.0381356 0.16501
5292118000 0.0601024 0.196808
5304116000 0.0921258 0.221713
5316114000 0.123672 0.242025
5328112000 0.160725 0.259058
5340110000 0.20062 0.275383
5352108000 0.23194 0.286687
5364106000 0.271799 0.297873
5376104000 0.305898 0.302661
5388102000 0.336022 0.30778
5400100000 0.369431 0.307183
5412098000 0.399048 0.308286
5424096000 0.429471 0.304903
5436094000 0.458092 0.30084
5448092000 0.483247 0.293817
5460090000 0.511276 0.285746
5472088000 0.536329 0.276009
5484086000 0.563287 0.26465
5496084000 0.589281 0.25001
5508082000 0.612828 0.236792
5520080000 0.634642 0.221621
5532078000 0.657558 0.209667
5544076000 0.67653 0.193256
5556074000 0.695528 0.178208
5568072000 0.709375 0.168588
5580070000 0.725774 0.154892
5592068000 0.73778 0.1396
5604066000 0.753315 0.126062
5616064000 0.759457 0.113847
5628062000 0.77041 0.101816
5640060000 0.77791 0.0912349
5652058000 0.7831 0.0724086
5664056000 0.788504 0.0571329
5676054000 0.793765 0.0444996
5688052000 0.798721 0.0285121
5700050000 0.802994 0.0137167
5712048000 0.80647 -0.00382305
5724046000 0.811983 -0.020246
5736044000 0.81806 -0.036816
5748042000 0.820791 -0.0513383
5760040000 0.824087 -0.0694332
5772038000 0.827187 -0.0856489
5784036000 0.831354 -0.101027
5796034000 0.835173 -0.116412
5808032000 0.841431 -0.129335
5820030000 0.843782 -0.149607
5832028000 0.85062 -0.163882
5844026000 0.852495 -0.179087
5856024000 0.856505 -0.195374
5868022000 0.850878 -0.21651
5880020000 0.850895 -0.222858
5892018000 0.852323 -0.242207
5904016000 0.848814 -0.258933
5916014000 0.854511 -0.279009
5928012000 0.842359 -0.295322
5940010000 0.841466 -0.30987
5952008000 0.833635 -0.320523
5964006000 0.822778 -0.334974
5976004000 0.821463 -0.350018
5988002000 0.814231 -0.364424
6000000000 0.805082 -0.377223
