# Hz S RI R 50
1000000 0.989685 -0.00376972
12998000 1.01578 -0.0589236
24996000 1.01052 -0.127962
36994000 0.996975 -0.193554
48992000 0.979643 -0.256575
60990000 0.959048 -0.316633
72988000 0.933825 -0.375531
84986000 0.905879 -0.431391
96984000 0.87476 -0.485134
108982000 0.841085 -0.537
120980000 0.805754 -0.586173
132978000 0.76837 -0.632708
144976000 0.729647 -0.677391
156974000 0.688845 -0.72023
168972000 0.646329 -0.75945
180970000 0.603658 -0.796195
192968000 0.559127 -0.829126
204966000 0.513718 -0.860226
216964000 0.467152 -0.887369
228962000 0.420567 -0.910915
240960000 0.374176 -0.93118
252958000 0.327796 -0.94787
264956000 0.281536 -0.961163
276954000 0.235157 -0.972144
288952000 0.190455 -0.979275
300950000 0.145354 -0.984407
312948000 0.101851 -0.987243
324946000 0.0597662 -0.987891
336944000 0.0185863 -0.986742
348942000 -0.020675 -0.985239
360940000 -0.0608232 -0.981782
372938000 -0.099576 -0.978403
384936000 -0.136618 -0.974908
396934000 -0.173372 -0.970476
408932000 -0.210177 -0.965563
420930000 -0.245065 -0.960062
432928000 -0.281482 -0.952576
444926000 -0.31492 -0.94418
456924000 -0.347153 -0.935333
468922000 -0.379688 -0.925861
480920000 -0.409383 -0.91404
492918000 -0.438321 -0.90089
504916000 -0.465789 -0.887077
516914000 -0.493658 -0.872341
528912000 -0.519012 -0.8558
540910000 -0.543308 -0.83952
552908000 -0.566016 -0.821766
564906000 -0.587864 -0.804725
576904000 -0.608542 -0.787706
588902000 -0.627823 -0.770523
600900000 -0.646875 -0.752463
612898000 -0.664018 -0.736289
624896000 -0.68185 -0.719716
636894000 -0.699677 -0.702874
648892000 -0.717068 -0.687059
660890000 -0.734128 -0.67098
672888000 -0.751458 -0.654583
684886000 -0.767743 -0.638195
696884000 -0.784218 -0.620351
708882000 -0.800252 -0.604442
720880000 -0.816405 -0.585607
732878000 -0.830343 -0.566649
744876000 -0.843219 -0.54787
756874000 -0.856282 -0.528678
768872000 -0.86851 -0.50827
780870000 -0.879104 -0.488098
792868000 -0.888338 -0.467956
804866000 -0.896683 -0.448075
816864000 -0.905558 -0.429565
828862000 -0.912605 -0.411333
840860000 -0.918741 -0.392813
852858000 -0.924064 -0.376986
864856000 -0.93145 -0.357891
876854000 -0.936684 -0.340587
888852000 -0.943614 -0.324382
900850000 -0.949057 -0.307531
912848000 -0.954653 -0.291598
924846000 -0.960245 -0.275875
936844000 -0.966165 -0.260677
948842000 -0.97215 -0.24639
960840000 -0.978832 -0.233322
972838000 -0.984027 -0.217688
984836000 -0.988975 -0.20145
996834000 -0.993001 -0.185895
1008832000 -0.996464 -0.170725
1020830000 -1.00013 -0.154676
1032828000 -1.00285 -0.137806
1044826000 -1.00502 -0.121706
1056824000 -1.00679 -0.104884
1068822000 -1.00852 -0.0881577
1080820000 -1.00763 -0.0694582
1092818000 -1.00825 -0.0531232
1104816000 -1.00819 -0.0359121
1116814000 -1.00703 -0.0194858
1128812000 -1.00708 -0.00500884
1140810000 -1.00585 0.0110392
1152808000 -1.00603 0.024826
1164806000 -1.00599 0.0389705
1176804000 -1.00804 0.0546803
1188802000 -1.0037 0.0703859
1200800000 -1.0025 0.0809328
1212798000 -1.00242 0.0925279
1224796000 -1.00192 0.104858
1236794000 -1.00169 0.116475
1248792000 -1.00125 0.128241
1260790000 -1.00029 0.139376
1272788000 -0.99949 0.150564
1284786000 -0.996678 0.161726
1296784000 -0.992119 0.173582
1308782000 -0.989584 0.18688
1320780000 -0.986863 0.200405
1332778000 -0.984093 0.214377
1344776000 -0.981499 0.228962
1356774000 -0.978814 0.243809
1368772000 -0.975291 0.255859
1380770000 -0.972124 0.271568
1392768000 -0.96737 0.285833
1404766000 -0.962871 0.301919
1416764000 -0.958056 0.318017
1428762000 -0.952391 0.33191
1440760000 -0.947057 0.345348
1452758000 -0.942039 0.358549
1464756000 -0.938522 0.370536
1476754000 -0.934425 0.383754
1488752000 -0.929927 0.394412
1500750000 -0.925085 0.404095
1512748000 -0.91748 0.413802
1524746000 -0.911579 0.422164
1536744000 -0.905507 0.431697
1548742000 -0.899845 0.441857
1560740000 -0.893923 0.45028
1572738000 -0.88855 0.461342
1584736000 -0.883542 0.471668
1596734000 -0.879893 0.482928
1608732000 -0.875382 0.494467
1620730000 -0.870532 0.505018
1632728000 -0.865427 0.516336
1644726000 -0.859724 0.527707
1656724000 -0.853759 0.538808
1668722000 -0.846448 0.548442
1680720000 -0.841132 0.561425
1692718000 -0.836031 0.570298
1704716000 -0.830848 0.579398
1716714000 -0.823383 0.587186
1728712000 -0.81732 0.597612
1740710000 -0.807885 0.609418
1752708000 -0.799248 0.618353
1764706000 -0.789666 0.626121
1776704000 -0.779993 0.634346
1788702000 -0.771217 0.641625
1800700000 -0.759385 0.649275
1812698000 -0.749302 0.657212
1824696000 -0.742132 0.666205
1836694000 -0.732096 0.674966
1848692000 -0.724326 0.68368
1860690000 -0.716077 0.692637
1872688000 -0.707421 0.702643
1884686000 -0.699136 0.712383
1896684000 -0.691738 0.721914
1908682000 -0.682355 0.733568
1920680000 -0.675704 0.744426
1932678000 -0.666841 0.75468
1944676000 -0.659906 0.761805
1956674000 -0.653315 0.771916
1968672000 -0.648044 0.780868
1980670000 -0.641032 0.785463
1992668000 -0.636096 0.792892
2004666000 -0.630552 0.797339
2016664000 -0.627252 0.800343
2028662000 -0.620539 0.803218
2040660000 -0.613349 0.806175
2052658000 -0.606122 0.807253
2064656000 -0.597914 0.80909
2076654000 -0.587343 0.813341
2088652000 -0.576834 0.815383
2100650000 -0.564164 0.817925
2112648000 -0.55049 0.822976
2124646000 -0.539133 0.830452
2136644000 -0.525461 0.837898
2148642000 -0.511073 0.847005
2160640000 -0.497138 0.856299
2172638000 -0.48709 0.866835
2184636000 -0.476779 0.87856
2196634000 -0.466729 0.889366
2208632000 -0.461294 0.901928
2220630000 -0.455532 0.90701
2232628000 -0.452297 0.914453
2244626000 -0.449677 0.920626
2256624000 -0.44789 0.922506
2268622000 -0.442149 0.925064
2280620000 -0.438699 0.929289
2292618000 -0.435809 0.930901
2304616000 -0.43094 0.930593
2316614000 -0.423902 0.930062
2328612000 -0.412025 0.929685
2340610000 -0.399463 0.929507
2352608000 -0.382791 0.928786
2364606000 -0.36724 0.9313
2376604000 -0.351412 0.930973
2388602000 -0.33632 0.931764
2400600000 -0.316156 0.938293
2412598000 -0.299596 0.94199
2424596000 -0.286478 0.948106
2436594000 -0.270465 0.95398
2448592000 -0.258207 0.957676
2460590000 -0.244124 0.965482
2472588000 -0.234098 0.97349
2484586000 -0.227102 0.979805
2496584000 -0.218418 0.988618
2508582000 -0.208251 0.993071
2520580000 -0.200429 0.999381
2532578000 -0.19396 1.00066
2544576000 -0.18907 1.00614
2556574000 -0.179552 1.00666
2568572000 -0.173657 1.00953
2580570000 -0.161555 1.00814
2592568000 -0.156311 1.00675
2604566000 -0.145267 1.00305
2616564000 -0.137908 0.99951
2628562000 -0.12754 0.997418
2640560000 -0.118865 0.992056
2652558000 -0.106202 0.991951
2664556000 -0.0953108 0.98828
2676554000 -0.0820744 0.98711
2688552000 -0.0711133 0.984551
2700550000 -0.0570978 0.985398
2712548000 -0.0455304 0.98423
2724546000 -0.031496 0.985903
2736544000 -0.0226543 0.990402
2748542000 -0.00997666 0.992789
2760540000 0.00106425 0.995494
2772538000 0.0118133 0.99878
2784536000 0.0218565 1.00233
2796534000 0.0318097 1.00382
2808532000 0.0382161 1.00591
2820530000 0.0484889 1.00626
2832528000 0.0564986 1.00667
2844526000 0.0659282 1.00659
2856524000 0.0741531 1.00317
2868522000 0.0810381 1.00079
2880520000 0.0884479 0.997555
2892518000 0.096405 0.992442
2904516000 0.105254 0.990601
2916514000 0.112718 0.98694
2928512000 0.121868 0.983314
2940510000 0.12563 0.981391
2952508000 0.137546 0.976764
2964506000 0.148345 0.971195
2976504000 0.159646 0.970372
2988502000 0.170936 0.969471
3000500000 0.181877 0.966264
3012498000 0.195004 0.97056
3024496000 0.199473 0.969327
3036494000 0.212757 0.968769
3048492000 0.223596 0.967904
3060490000 0.232541 0.966697
3072488000 0.241039 0.965148
3084486000 0.248182 0.964574
3096484000 0.257665 0.961631
3108482000 0.262008 0.959465
3120480000 0.272351 0.958614
3132478000 0.276919 0.95459
3144476000 0.288478 0.949436
3156474000 0.295007 0.946848
3168472000 0.301307 0.942963
3180470000 0.310602 0.939349
3192468000 0.319563 0.934985
3204466000 0.328637 0.929172
3216464000 0.338473 0.924517
3228462000 0.350027 0.919565
3240460000 0.36106 0.915047
3252458000 0.373561 0.912088
3264456000 0.383406 0.908859
3276454000 0.392371 0.905429
3288452000 0.40389 0.898548
3300450000 0.411767 0.894547
3312448000 0.423565 0.889739
3324446000 0.432053 0.883882
3336444000 0.442848 0.880042
3348442000 0.452105 0.873943
3360440000 0.460932 0.869585
3372438000 0.469441 0.861115
3384436000 0.478044 0.858893
3396434000 0.48628 0.84717
3408432000 0.498536 0.842215
3420430000 0.509682 0.839872
3432428000 0.51599 0.829025
3444426000 0.529072 0.822251
3456424000 0.541268 0.816212
3468422000 0.54819 0.808693
3480420000 0.559705 0.801868
3492418000 0.569438 0.795795
3504416000 0.580014 0.789215
3516414000 0.589565 0.781494
3528412000 0.598067 0.778009
3540410000 0.606157 0.772679
3552408000 0.61328 0.765766
3564406000 0.621403 0.762623
3576404000 0.630297 0.753434
3588402000 0.636271 0.751646
3600400000 0.642144 0.74198
3612398000 0.648122 0.735742
3624396000 0.655155 0.727387
3636394000 0.662811 0.720037
3648392000 0.670236 0.713598
3660390000 0.67613 0.707735
3672388000 0.683584 0.698321
3684386000 0.692132 0.687158
3696384000 0.69991 0.678807
3708382000 0.708781 0.671589
3720380000 0.716801 0.661768
3732378000 0.722743 0.651544
3744376000 0.726913 0.645153
3756374000 0.738201 0.634301
3768372000 0.744138 0.626305
3780370000 0.751876 0.616344
3792368000 0.756664 0.611513
3804366000 0.763726 0.602982
3816364000 0.767858 0.596324
3828362000 0.773775 0.591386
3840360000 0.779144 0.586499
3852358000 0.783795 0.579183
3864356000 0.786455 0.570594
3876354000 0.790518 0.56532
3888352000 0.794126 0.558991
3900350000 0.798245 0.553833
3912348000 0.802301 0.547478
3924346000 0.807334 0.541588
3936344000 0.810379 0.535851
3948342000 0.812367 0.529714
3960340000 0.811001 0.525762
3972338000 0.815968 0.520032
3984336000 0.822071 0.508794
3996334000 0.826554 0.500102
4008332000 0.83132 0.492114
4020330000 0.837984 0.484036
4032328000 0.843636 0.473052
4044326000 0.847263 0.465177
4056324000 0.85304 0.453651
4068322000 0.855569 0.441293
4080320000 0.859823 0.42767
4092318000 0.865835 0.413309
4104316000 0.87067 0.393937
4116314000 0.876135 0.374702
4128312000 0.882519 0.357369
4140310000 0.889664 0.340176
4152308000 0.895724 0.322469
4164306000 0.901742 0.30509
4176304000 0.907343 0.292494
4188302000 0.912665 0.280847
4200300000 0.916844 0.275087
4212298000 0.915664 0.268705
4224296000 0.917219 0.267636
4236294000 0.919558 0.261046
4248292000 0.918778 0.263593
4260290000 0.924952 0.254476
4272288000 0.92326 0.251087
4284286000 0.925648 0.246821
4296284000 0.927841 0.240765
4308282000 0.92938 0.225558
4320280000 0.928936 0.214443
4332278000 0.931448 0.201504
4344276000 0.927923 0.188183
4356274000 0.928976 0.174941
4368272000 0.923891 0.159947
4380270000 0.923892 0.143057
4392268000 0.920029 0.122805
4404266000 0.919921 0.106901
4416264000 0.919294 0.0842449
4428262000 0.920893 0.0652169
4440260000 0.920314 0.0457996
4452258000 0.925162 0.0298628
4464256000 0.925647 0.0149791
4476254000 0.928209 -0.00269826
4488252000 0.928936 -0.0146115
4500250000 0.92854 -0.0240866
4512248000 0.928922 -0.0393084
4524246000 0.931452 -0.0490491
4536244000 0.931257 -0.0594762
4548242000 0.93093 -0.0676563
4560240000 0.933773 -0.0732563
4572238000 0.927822 -0.080296
4584236000 0.923303 -0.0882271
4596234000 0.918137 -0.0989244
4608232000 0.912118 -0.104146
4620230000 0.906216 -0.119714
4632228000 0.896432 -0.136275
4644226000 0.887834 -0.150967
4656224000 0.877358 -0.169481
4668222000 0.869358 -0.186092
4680220000 0.857466 -0.205827
4692218000 0.855343 -0.225517
4704216000 0.841526 -0.243238
4716214000 0.833227 -0.260774
4728212000 0.820709 -0.276441
4740210000 0.809837 -0.294526
4752208000 0.796597 -0.313811
4764206000 0.785783 -0.331213
4776204000 0.776367 -0.346921
4788202000 0.768463 -0.362435
4800200000 0.754922 -0.378832
4812198000 0.746915 -0.394669
4824196000 0.737919 -0.408299
4836194000 0.723222 -0.41745
4848192000 0.711543 -0.427954
4860190000 0.69625 -0.437647
4872188000 0.678991 -0.447385
4884186000 0.658439 -0.455099
4896184000 0.636788 -0.463659
4908182000 0.619292 -0.474571
4920180000 0.591661 -0.480093
4932178000 0.566563 -0.493706
4944176000 0.537036 -0.498198
4956174000 0.510279 -0.506212
4968172000 0.475264 -0.506957
4980170000 0.440821 -0.510025
4992168000 0.408343 -0.511198
5004166000 0.374634 -0.512882
5016164000 0.337092 -0.513773
5028162000 0.304367 -0.510874
5040160000 0.267492 -0.503521
5052158000 0.231963 -0.498403
5064156000 0.197591 -0.484338
5076154000 0.167589 -0.470357
5088152000 0.133275 -0.455843
5100150000 0.102197 -0.433019
5112148000 0.0821925 -0.409694
5124146000 0.0551577 -0.383623
5136144000 0.031276 -0.350109
5148142000 0.0139789 -0.317462
5160140000 -0.00151441 -0.276252
5172138000 -0.00641359 -0.23784
5184136000 -0.0102834 -0.19355
5196134000 -0.0142912 -0.146051
5208132000 -0.0112276 -0.0955093
5220130000 -0.010234 -0.0503422
5232128000 -0.00652201 -0.00157303
5244126000 -0.00222661 0.0448804
5256124000 0.00851394 0.0863858
5268122000 0.0205961 0.130695
5280120000 0.0384896 0.165398
5292118000 0.0602312 0.197212
5304116000 0.0926506 0.222041
5316114000 0.123911 0.241792
5328112000 0.15995 0.259992
5340110000 0.200668 0.275823
5352108000 0.231449 0.287445
5364106000 0.27223 0.297679
5376104000 0.305949 0.303459
5388102000 0.337364 0.307385
5400100000 0.369399 0.310724
5412098000 0.398618 0.309262
5424096000 0.429746 0.304152
5436094000 0.458398 0.300817
5448092000 0.483865 0.293817
5460090000 0.511601 0.28583
5472088000 0.536478 0.275821
5484086000 0.563537 0.264167
5496084000 0.59034 0.249069
5508082000 0.613665 0.236154
5520080000 0.634825 0.221799
5532078000 0.657353 0.209581
5544076000 0.676315 0.193557
5556074000 0.695875 0.178583
5568072000 0.710218 0.168667
5580070000 0.725732 0.156112
5592068000 0.73968 0.139033
5604066000 0.754863 0.126788
5616064000 0.76037 0.113282
5628062000 0.774474 0.0998276
5640060000 0.776001 0.0913833
5652058000 0.782788 0.0739133
5664056000 0.791254 0.0588791
5676054000 0.794008 0.0434006
5688052000 0.798971 0.0276902
5700050000 0.803407 0.013802
5712048000 0.807463 -0.00333093
5724046000 0.812208 -0.0199631
5736044000 0.818393 -0.0362873
5748042000 0.82185 -0.0523314
5760040000 0.824942 -0.068659
5772038000 0.825951 -0.0860432
5784036000 0.832668 -0.100884
5796034000 0.836436 -0.117266
5808032000 0.842173 -0.129347
5820030000 0.844299 -0.149755
5832028000 0.850762 -0.163289
5844026000 0.852254 -0.178773
5856024000 0.856334 -0.193835
5868022000 0.852255 -0.217182
5880020000 0.84727 -0.226995
5892018000 0.859038 -0.241686
5904016000 0.85267 -0.261414
5916014000 0.848376 -0.275431
5928012000 0.84605 -0.295653
5940010000 0.839637 -0.307552
5952008000 0.83409 -0.324878
5964006000 0.825949 -0.336151
5976004000 0.821835 -0.351011
5988002000 0.815165 -0.362959
6000000000 0.805305 -0.377386
