# Hz S RI R 50
1000000 0.987443 -0.00333205
12998000 1.01592 -0.0586006
24996000 1.0106 -0.128031
36994000 0.996939 -0.193632
48992000 0.979575 -0.257045
60990000 0.959153 -0.316427
72988000 0.934011 -0.375171
84986000 0.905962 -0.431222
96984000 0.87496 -0.484879
108982000 0.841254 -0.536874
120980000 0.80589 -0.586068
132978000 0.768957 -0.632327
144976000 0.729876 -0.677244
156974000 0.689429 -0.719915
168972000 0.647202 -0.759524
180970000 0.604001 -0.795993
192968000 0.559762 -0.829308
204966000 0.514218 -0.86025
216964000 0.468161 -0.887272
228962000 0.420849 -0.91104
240960000 0.374602 -0.931426
252958000 0.328049 -0.947986
264956000 0.281816 -0.961549
276954000 0.235299 -0.972434
288952000 0.190357 -0.979609
300950000 0.145202 -0.984778
312948000 0.10209 -0.987226
324946000 0.060043 -0.988023
336944000 0.0193083 -0.987013
348942000 -0.0209344 -0.98547
360940000 -0.0608564 -0.982003
372938000 -0.0995542 -0.978818
384936000 -0.136484 -0.975292
396934000 -0.173325 -0.970808
408932000 -0.210229 -0.965953
420930000 -0.245137 -0.96057
432928000 -0.280907 -0.953119
444926000 -0.314514 -0.944387
456924000 -0.347064 -0.93517
468922000 -0.37961 -0.925976
480920000 -0.409318 -0.914359
492918000 -0.438287 -0.901098
504916000 -0.465985 -0.887172
516914000 -0.493847 -0.872631
528912000 -0.518919 -0.856353
540910000 -0.543824 -0.839861
552908000 -0.565951 -0.822243
564906000 -0.588378 -0.80544
576904000 -0.608748 -0.787692
588902000 -0.6281 -0.770417
600900000 -0.647133 -0.753119
612898000 -0.664065 -0.736409
624896000 -0.682088 -0.719946
636894000 -0.699865 -0.703132
648892000 -0.717512 -0.687017
660890000 -0.734262 -0.671203
672888000 -0.75118 -0.654695
684886000 -0.76758 -0.638656
696884000 -0.784455 -0.620713
708882000 -0.800278 -0.604345
720880000 -0.816448 -0.586399
732878000 -0.829783 -0.566742
744876000 -0.843393 -0.548123
756874000 -0.8563 -0.529028
768872000 -0.868291 -0.508853
780870000 -0.879022 -0.488208
792868000 -0.888585 -0.468458
804866000 -0.896706 -0.448795
816864000 -0.90548 -0.429969
828862000 -0.913335 -0.412171
840860000 -0.919878 -0.392753
852858000 -0.923984 -0.376747
864856000 -0.93148 -0.358381
876854000 -0.936834 -0.340806
888852000 -0.943771 -0.32473
900850000 -0.949289 -0.307586
912848000 -0.954957 -0.291663
924846000 -0.960615 -0.275961
936844000 -0.966126 -0.260716
948842000 -0.972622 -0.246008
960840000 -0.978723 -0.232687
972838000 -0.984306 -0.217769
984836000 -0.989736 -0.201439
996834000 -0.993722 -0.186135
1008832000 -0.996786 -0.170923
1020830000 -1.00065 -0.154948
1032828000 -1.00302 -0.138309
1044826000 -1.0054 -0.121672
1056824000 -1.00739 -0.105226
1068822000 -1.00934 -0.0873518
1080820000 -1.00931 -0.0691069
1092818000 -1.00728 -0.0528641
1104816000 -1.0083 -0.0356414
1116814000 -1.00761 -0.019702
1128812000 -1.00779 -0.00418754
1140810000 -1.00688 0.0106255
1152808000 -1.00613 0.0251776
1164806000 -1.00609 0.0391891
1176804000 -1.00845 0.0551956
1188802000 -1.00392 0.0703869
1200800000 -1.00265 0.0803686
1212798000 -1.00258 0.0928958
1224796000 -1.00168 0.104737
1236794000 -1.00181 0.116614
1248792000 -1.0005 0.127549
1260790000 -0.99992 0.138792
1272788000 -0.999338 0.150999
1284786000 -0.996649 0.161695
1296784000 -0.992659 0.172981
1308782000 -0.989595 0.186982
1320780000 -0.986947 0.200805
1332778000 -0.98416 0.214661
1344776000 -0.981382 0.228976
1356774000 -0.979002 0.24335
1368772000 -0.975323 0.256775
1380770000 -0.972359 0.271273
1392768000 -0.967427 0.285985
1404766000 -0.963012 0.301663
1416764000 -0.957707 0.317309
1428762000 -0.952267 0.331855
1440760000 -0.946734 0.345659
1452758000 -0.942439 0.358081
1464756000 -0.9381 0.371356
1476754000 -0.934018 0.383744
1488752000 -0.930004 0.394124
1500750000 -0.925328 0.405453
1512748000 -0.918118 0.414047
1524746000 -0.912119 0.422364
1536744000 -0.905632 0.43078
1548742000 -0.898857 0.441416
1560740000 -0.893905 0.45083
1572738000 -0.888437 0.460986
1584736000 -0.883926 0.471839
1596734000 -0.880049 0.482933
1608732000 -0.875461 0.494374
1620730000 -0.871192 0.504416
1632728000 -0.866084 0.515672
1644726000 -0.86008 0.527743
1656724000 -0.853076 0.538896
1668722000 -0.846171 0.549061
1680720000 -0.840769 0.560219
1692718000 -0.835612 0.570415
1704716000 -0.830201 0.579079
1716714000 -0.82276 0.587389
1728712000 -0.81697 0.597927
1740710000 -0.808533 0.609194
1752708000 -0.799314 0.618744
1764706000 -0.789689 0.626359
1776704000 -0.780462 0.634393
1788702000 -0.771499 0.64137
1800700000 -0.761718 0.649603
1812698000 -0.749259 0.657378
1824696000 -0.741996 0.666989
1836694000 -0.732852 0.675109
1848692000 -0.724133 0.683586
1860690000 -0.716124 0.693031
1872688000 -0.70781 0.702364
1884686000 -0.699055 0.712659
1896684000 -0.691806 0.721876
1908682000 -0.682643 0.733381
1920680000 -0.675324 0.744605
1932678000 -0.668491 0.754622
1944676000 -0.658487 0.762149
1956674000 -0.653668 0.772408
1968672000 -0.649138 0.780475
1980670000 -0.642136 0.788352
1992668000 -0.635833 0.792814
2004666000 -0.630657 0.797325
2016664000 -0.626588 0.800936
2028662000 -0.619569 0.802777
2040660000 -0.612717 0.806126
2052658000 -0.606459 0.807268
2064656000 -0.597931 0.80911
2076654000 -0.58796 0.812733
2088652000 -0.576374 0.814699
2100650000 -0.566073 0.818391
2112648000 -0.550481 0.823587
2124646000 -0.539618 0.830679
2136644000 -0.524384 0.83791
2148642000 -0.510623 0.846761
2160640000 -0.496946 0.85637
2172638000 -0.486601 0.866824
2184636000 -0.476993 0.878755
2196634000 -0.467194 0.890076
2208632000 -0.461549 0.90113
2220630000 -0.455115 0.90899
2232628000 -0.452353 0.915463
2244626000 -0.451006 0.921618
2256624000 -0.446544 0.924451
2268622000 -0.442614 0.926417
2280620000 -0.439632 0.928174
2292618000 -0.435655 0.93007
2304616000 -0.430878 0.930788
2316614000 -0.423716 0.93048
2328612000 -0.412283 0.930134
2340610000 -0.399061 0.93049
2352608000 -0.383845 0.930139
2364606000 -0.366915 0.929999
2376604000 -0.351841 0.932082
2388602000 -0.335235 0.935165
2400600000 -0.317884 0.937964
2412598000 -0.30123 0.943381
2424596000 -0.286555 0.948252
2436594000 -0.271568 0.953321
2448592000 -0.258513 0.958564
2460590000 -0.244432 0.965907
2472588000 -0.234411 0.974097
2484586000 -0.226454 0.979986
2496584000 -0.217487 0.988305
2508582000 -0.210175 0.993842
2520580000 -0.199724 0.99925
2532578000 -0.194744 1.00061
2544576000 -0.190124 1.00526
2556574000 -0.180242 1.0055
2568572000 -0.17347 1.0096
2580570000 -0.161945 1.00817
2592568000 -0.155564 1.00733
2604566000 -0.152366 1.00282
2616564000 -0.138471 0.999462
2628562000 -0.128756 0.998658
2640560000 -0.118476 0.992028
2652558000 -0.105342 0.992986
2664556000 -0.0952802 0.988237
2676554000 -0.0826603 0.989715
2688552000 -0.0702548 0.98496
2700550000 -0.0588533 0.987264
2712548000 -0.0449947 0.984954
2724546000 -0.032544 0.986032
2736544000 -0.0220638 0.991086
2748542000 -0.0100725 0.992856
2760540000 0.00106178 0.99582
2772538000 0.0118334 0.999577
2784536000 0.0214246 1.00265
2796534000 0.0314505 1.00387
2808532000 0.0394082 1.00673
2820530000 0.0488631 1.00731
2832528000 0.0566898 1.0064
2844526000 0.0657832 1.0069
2856524000 0.0740779 1.0034
2868522000 0.0813149 1.00105
2880520000 0.0891761 0.997484
2892518000 0.0971259 0.992352
2904516000 0.105134 0.990926
2916514000 0.113385 0.987786
2928512000 0.121443 0.98346
2940510000 0.125004 0.982244
2952508000 0.136805 0.977693
2964506000 0.148071 0.972992
2976504000 0.159581 0.969406
2988502000 0.170383 0.97245
3000500000 0.180819 0.968768
3012498000 0.195213 0.970603
3024496000 0.199889 0.969813
3036494000 0.21312 0.96909
3048492000 0.223383 0.968054
3060490000 0.232635 0.967547
3072488000 0.241054 0.965526
3084486000 0.248466 0.964517
3096484000 0.256428 0.961403
3108482000 0.26451 0.960646
3120480000 0.272168 0.95721
3132478000 0.275463 0.953618
3144476000 0.287106 0.948464
3156474000 0.294874 0.948219
3168472000 0.301675 0.943177
3180470000 0.310552 0.939655
3192468000 0.319643 0.935218
3204466000 0.329329 0.929119
3216464000 0.339346 0.924678
3228462000 0.351481 0.919961
3240460000 0.361752 0.914748
3252458000 0.373157 0.912482
3264456000 0.383786 0.908136
3276454000 0.392906 0.906361
3288452000 0.403042 0.900761
3300450000 0.40878 0.893935
3312448000 0.423212 0.890487
3324446000 0.432 0.883716
3336444000 0.442695 0.880476
3348442000 0.451287 0.874029
3360440000 0.460413 0.869224
3372438000 0.469773 0.861343
3384436000 0.478254 0.858244
3396434000 0.486161 0.848254
3408432000 0.49795 0.842689
3420430000 0.50784 0.837936
3432428000 0.517133 0.831754
3444426000 0.529642 0.823001
3456424000 0.540883 0.816699
3468422000 0.547974 0.809086
3480420000 0.559444 0.802078
3492418000 0.570063 0.79661
3504416000 0.579897 0.790063
3516414000 0.588734 0.783141
3528412000 0.597925 0.77532
3540410000 0.604308 0.77381
3552408000 0.614939 0.764005
3564406000 0.622785 0.762608
3576404000 0.629335 0.753606
3588402000 0.636826 0.751107
3600400000 0.642167 0.742307
3612398000 0.647728 0.735139
3624396000 0.65533 0.727642
3636394000 0.663496 0.720793
3648392000 0.668809 0.714517
3660390000 0.675967 0.706933
3672388000 0.684571 0.700602
3684386000 0.692562 0.687946
3696384000 0.703037 0.679578
3708382000 0.707503 0.671597
3720380000 0.714632 0.661782
3732378000 0.722518 0.653115
3744376000 0.728389 0.645506
3756374000 0.73715 0.634051
3768372000 0.744301 0.626783
3780370000 0.752647 0.616213
3792368000 0.757328 0.612025
3804366000 0.765276 0.602759
3816364000 0.76992 0.594335
3828362000 0.775614 0.591338
3840360000 0.779182 0.586483
3852358000 0.784375 0.578073
3864356000 0.786416 0.571093
3876354000 0.790022 0.56535
3888352000 0.793616 0.559532
3900350000 0.799003 0.55329
3912348000 0.802479 0.547449
3924346000 0.807895 0.541707
3936344000 0.809909 0.535874
3948342000 0.812776 0.529253
3960340000 0.811239 0.524126
3972338000 0.816016 0.519021
3984336000 0.821316 0.506915
3996334000 0.82653 0.499625
4008332000 0.831985 0.491247
4020330000 0.839825 0.482325
4032328000 0.844283 0.473471
4044326000 0.846688 0.464066
4056324000 0.853762 0.45372
4068322000 0.855603 0.44113
4080320000 0.859952 0.427361
4092318000 0.865852 0.412569
4104316000 0.871327 0.393717
4116314000 0.876753 0.373573
4128312000 0.88393 0.358493
4140310000 0.891367 0.336576
4152308000 0.896427 0.321713
4164306000 0.90296 0.304885
4176304000 0.907047 0.293296
4188302000 0.912879 0.280784
4200300000 0.917303 0.274998
4212298000 0.916105 0.268542
4224296000 0.91748 0.267908
4236294000 0.920054 0.260292
4248292000 0.919315 0.261629
4260290000 0.926424 0.254375
4272288000 0.923753 0.253739
4284286000 0.928142 0.250075
4296284000 0.928848 0.236108
4308282000 0.928557 0.226247
4320280000 0.930736 0.211747
4332278000 0.927965 0.198659
4344276000 0.927899 0.184889
4356274000 0.930557 0.173954
4368272000 0.924452 0.160502
4380270000 0.924367 0.143215
4392268000 0.920339 0.122513
4404266000 0.920846 0.106197
4416264000 0.919512 0.0846958
4428262000 0.919104 0.0660323
4440260000 0.920822 0.0467239
4452258000 0.923412 0.0296632
4464256000 0.926454 0.0144343
4476254000 0.927034 -0.00265974
4488252000 0.92978 -0.0143593
4500250000 0.929299 -0.0246694
4512248000 0.928995 -0.0395575
4524246000 0.931357 -0.048966
4536244000 0.931342 -0.059922
4548242000 0.929081 -0.0687977
4560240000 0.93134 -0.071177
4572238000 0.927751 -0.0792451
4584236000 0.924206 -0.0889968
4596234000 0.916726 -0.100577
4608232000 0.91082 -0.107835
4620230000 0.9015 -0.120931
4632228000 0.89642 -0.136587
4644226000 0.886855 -0.153876
4656224000 0.877901 -0.169713
4668222000 0.869626 -0.18614
4680220000 0.858237 -0.205497
4692218000 0.855114 -0.225659
4704216000 0.842984 -0.243617
4716214000 0.833258 -0.260386
4728212000 0.820845 -0.276033
4740210000 0.809848 -0.295371
4752208000 0.796975 -0.31358
4764206000 0.78618 -0.330908
4776204000 0.776173 -0.347726
4788202000 0.768303 -0.362476
4800200000 0.755171 -0.378618
4812198000 0.747531 -0.395444
4824196000 0.737791 -0.408066
4836194000 0.721558 -0.41824
4848192000 0.711062 -0.429547
4860190000 0.696108 -0.436784
4872188000 0.680492 -0.447332
4884186000 0.660773 -0.455868
4896184000 0.637111 -0.464028
4908182000 0.620502 -0.474811
4920180000 0.591094 -0.47982
4932178000 0.566516 -0.494094
4944176000 0.537204 -0.498481
4956174000 0.510918 -0.506499
4968172000 0.474704 -0.508409
4980170000 0.441935 -0.511333
4992168000 0.407729 -0.512511
5004166000 0.374852 -0.51324
5016164000 0.338118 -0.515044
5028162000 0.304337 -0.511399
5040160000 0.267764 -0.503828
5052158000 0.232009 -0.498682
5064156000 0.197752 -0.484597
5076154000 0.166885 -0.47043
5088152000 0.134303 -0.456227
5100150000 0.103966 -0.434044
5112148000 0.0836841 -0.409612
5124146000 0.0548771 -0.383471
5136144000 0.0313791 -0.350137
5148142000 0.014043 -0.317985
5160140000 -0.00170283 -0.276558
5172138000 -0.00680761 -0.23837
5184136000 -0.00985781 -0.194046
5196134000 -0.0148908 -0.146243
5208132000 -0.0113034 -0.0956563
5220130000 -0.0104604 -0.051058
5232128000 -0.00669283 -0.0021759
5244126000 -0.00251789 0.0442991
5256124000 0.00841344 0.0859258
5268122000 0.0169811 0.135137
5280120000 0.03831 0.165052
5292118000 0.060034 0.197026
5304116000 0.091684 0.221963
5316114000 0.123979 0.240996
5328112000 0.159944 0.261208
5340110000 0.201023 0.275894
5352108000 0.23104 0.286602
5364106000 0.271526 0.29783
5376104000 0.305671 0.30343
5388102000 0.337497 0.309606
5400100000 0.371826 0.307039
5412098000 0.398447 0.308471
5424096000 0.428905 0.304844
5436094000 0.458147 0.301103
5448092000 0.483695 0.294221
5460090000 0.511555 0.286658
5472088000 0.537163 0.275619
5484086000 0.56285 0.264811
5496084000 0.590462 0.249788
5508082000 0.615362 0.237605
5520080000 0.634514 0.221585
5532078000 0.657239 0.209844
5544076000 0.676433 0.193905
5556074000 0.695492 0.178569
5568072000 0.710046 0.170762
5580070000 0.727423 0.154889
5592068000 0.739359 0.141727
5604066000 0.756206 0.128379
5616064000 0.758826 0.113536
5628062000 0.772258 0.103214
5640060000 0.776834 0.0917769
5652058000 0.783998 0.0759249
5664056000 0.788807 0.0597791
5676054000 0.79671 0.0444833
5688052000 0.799834 0.0289822
5700050000 0.80471 0.0131601
5712048000 0.807193 -0.00267462
5724046000 0.812192 -0.019948
5736044000 0.818726 -0.0361977
5748042000 0.821902 -0.0519422
5760040000 0.823444 -0.0685574
5772038000 0.828774 -0.0863258
5784036000 0.831927 -0.101035
5796034000 0.837486 -0.116135
5808032000 0.842288 -0.129483
5820030000 0.84464 -0.149471
5832028000 0.850942 -0.163401
5844026000 0.852515 -0.177609
5856024000 0.856513 -0.195021
5868022000 0.851927 -0.214361
5880020000 0.850591 -0.218992
5892018000 0.853152 -0.243283
5904016000 0.855588 -0.255784
5916014000 0.851745 -0.275893
5928012000 0.845719 -0.294944
5940010000 0.841444 -0.308151
5952008000 0.833876 -0.322693
5964006000 0.824413 -0.333487
5976004000 0.822185 -0.349608
5988002000 0.81491 -0.363479
6000000000 0.805971 -0.376822
