# Hz S RI R 50
1000000 0.989374 -0.00498211
12998000 1.01575 -0.0585212
24996000 1.01056 -0.1278
36994000 0.996889 -0.193632
48992000 0.979598 -0.257044
60990000 0.958948 -0.316654
72988000 0.933858 -0.375374
84986000 0.906091 -0.431092
96984000 0.874861 -0.484989
108982000 0.841074 -0.536884
120980000 0.805747 -0.58626
132978000 0.768625 -0.632657
144976000 0.729436 -0.677409
156974000 0.688761 -0.720152
168972000 0.646683 -0.759543
180970000 0.603745 -0.795867
192968000 0.559074 -0.829501
204966000 0.513402 -0.860608
216964000 0.467384 -0.887634
228962000 0.420614 -0.911073
240960000 0.374362 -0.931415
252958000 0.327817 -0.947931
264956000 0.281505 -0.961555
276954000 0.235202 -0.972228
288952000 0.190048 -0.979715
300950000 0.145272 -0.984741
312948000 0.101792 -0.987512
324946000 0.0599607 -0.988026
336944000 0.0191246 -0.986991
348942000 -0.0210092 -0.985226
360940000 -0.0609157 -0.982014
372938000 -0.0995316 -0.97865
384936000 -0.136512 -0.97511
396934000 -0.173524 -0.970649
408932000 -0.210109 -0.965828
420930000 -0.245215 -0.960322
432928000 -0.281166 -0.952796
444926000 -0.314997 -0.944102
456924000 -0.347402 -0.935552
468922000 -0.379677 -0.926023
480920000 -0.409243 -0.914547
492918000 -0.437694 -0.901405
504916000 -0.465784 -0.887126
516914000 -0.493313 -0.872726
528912000 -0.518322 -0.856504
540910000 -0.543176 -0.839327
552908000 -0.565931 -0.822439
564906000 -0.588216 -0.804917
576904000 -0.608893 -0.787349
588902000 -0.628063 -0.770553
600900000 -0.646603 -0.752856
612898000 -0.663991 -0.736518
624896000 -0.682202 -0.719655
636894000 -0.699989 -0.702856
648892000 -0.717498 -0.686901
660890000 -0.734458 -0.671353
672888000 -0.751044 -0.654969
684886000 -0.768313 -0.638492
696884000 -0.78419 -0.620298
708882000 -0.79977 -0.603714
720880000 -0.815797 -0.586692
732878000 -0.830299 -0.566669
744876000 -0.843379 -0.548131
756874000 -0.856234 -0.528947
768872000 -0.868451 -0.508692
780870000 -0.879135 -0.488445
792868000 -0.888218 -0.46861
804866000 -0.89638 -0.448838
816864000 -0.905409 -0.429702
828862000 -0.912309 -0.412177
840860000 -0.91887 -0.393906
852858000 -0.924466 -0.377209
864856000 -0.931589 -0.358447
876854000 -0.936865 -0.341166
888852000 -0.943597 -0.325115
900850000 -0.949063 -0.30782
912848000 -0.954762 -0.292422
924846000 -0.960171 -0.276636
936844000 -0.965852 -0.261085
948842000 -0.97228 -0.247176
960840000 -0.978111 -0.233227
972838000 -0.984324 -0.217762
984836000 -0.989758 -0.201354
996834000 -0.993523 -0.186365
1008832000 -0.996751 -0.171319
1020830000 -1.00022 -0.155123
1032828000 -1.0029 -0.138306
1044826000 -1.00521 -0.121974
1056824000 -1.007 -0.105078
1068822000 -1.00912 -0.0877394
1080820000 -1.00853 -0.0700649
1092818000 -1.00883 -0.0532909
1104816000 -1.0079 -0.0364797
1116814000 -1.00718 -0.0206766
1128812000 -1.00727 -0.00561688
1140810000 -1.00579 0.0100177
1152808000 -1.00606 0.0244438
1164806000 -1.00594 0.0385759
1176804000 -1.0082 0.0546432
1188802000 -1.00405 0.0701049
1200800000 -1.00302 0.0798951
1212798000 -1.00255 0.092682
1224796000 -1.00175 0.104786
1236794000 -1.00159 0.115817
1248792000 -1.00077 0.127732
1260790000 -0.999224 0.138924
1272788000 -0.998796 0.150227
1284786000 -0.997352 0.161704
1296784000 -0.992218 0.17306
1308782000 -0.989827 0.186454
1320780000 -0.987035 0.199916
1332778000 -0.98425 0.214146
1344776000 -0.980914 0.228428
1356774000 -0.978793 0.243242
1368772000 -0.975353 0.255965
1380770000 -0.972225 0.270716
1392768000 -0.968064 0.28544
1404766000 -0.962903 0.301237
1416764000 -0.95815 0.317302
1428762000 -0.952594 0.331105
1440760000 -0.947583 0.345363
1452758000 -0.942227 0.358261
1464756000 -0.938225 0.369948
1476754000 -0.934519 0.383157
1488752000 -0.930406 0.39357
1500750000 -0.923623 0.405743
1512748000 -0.917599 0.413125
1524746000 -0.911885 0.42202
1536744000 -0.905911 0.431525
1548742000 -0.899857 0.441537
1560740000 -0.893398 0.451698
1572738000 -0.888228 0.460811
1584736000 -0.883678 0.471765
1596734000 -0.880282 0.482872
1608732000 -0.875682 0.494574
1620730000 -0.871032 0.504655
1632728000 -0.866198 0.515982
1644726000 -0.86024 0.527512
1656724000 -0.852939 0.538619
1668722000 -0.846999 0.548027
1680720000 -0.840843 0.560747
1692718000 -0.836472 0.570215
1704716000 -0.831678 0.579021
1716714000 -0.82375 0.586263
1728712000 -0.816876 0.596484
1740710000 -0.808845 0.608496
1752708000 -0.799986 0.618405
1764706000 -0.790114 0.625853
1776704000 -0.780604 0.633904
1788702000 -0.771178 0.64073
1800700000 -0.761026 0.649872
1812698000 -0.748894 0.656446
1824696000 -0.741829 0.666653
1836694000 -0.733297 0.675124
1848692000 -0.725312 0.684254
1860690000 -0.716236 0.692748
1872688000 -0.707943 0.701902
1884686000 -0.699525 0.712099
1896684000 -0.691891 0.721744
1908682000 -0.682609 0.733083
1920680000 -0.676377 0.743936
1932678000 -0.667506 0.754569
1944676000 -0.659605 0.762781
1956674000 -0.653451 0.772266
1968672000 -0.64882 0.779916
1980670000 -0.640162 0.786862
1992668000 -0.637107 0.792607
2004666000 -0.632525 0.798221
2016664000 -0.627128 0.800628
2028662000 -0.621284 0.803034
2040660000 -0.613937 0.805275
2052658000 -0.606727 0.80719
2064656000 -0.598371 0.80881
2076654000 -0.588498 0.812499
2088652000 -0.577698 0.814896
2100650000 -0.564835 0.817021
2112648000 -0.55149 0.823254
2124646000 -0.539078 0.830451
2136644000 -0.525153 0.837019
2148642000 -0.510934 0.847924
2160640000 -0.497763 0.85609
2172638000 -0.487832 0.867035
2184636000 -0.477268 0.878571
2196634000 -0.467375 0.889772
2208632000 -0.461028 0.901154
2220630000 -0.45524 0.908584
2232628000 -0.452414 0.916074
2244626000 -0.450907 0.9195
2256624000 -0.449022 0.92405
2268622000 -0.442734 0.9262
2280620000 -0.439372 0.92824
2292618000 -0.436667 0.931324
2304616000 -0.431313 0.930798
2316614000 -0.424789 0.930249
2328612000 -0.412491 0.929797
2340610000 -0.399867 0.929978
2352608000 -0.38451 0.9305
2364606000 -0.369462 0.930355
2376604000 -0.352574 0.931554
2388602000 -0.335208 0.935196
2400600000 -0.318682 0.938949
2412598000 -0.302645 0.94255
2424596000 -0.286879 0.947996
2436594000 -0.272595 0.954001
2448592000 -0.258322 0.958325
2460590000 -0.245148 0.966069
2472588000 -0.234834 0.974181
2484586000 -0.22694 0.980392
2496584000 -0.218679 0.988356
2508582000 -0.210128 0.991975
2520580000 -0.200629 1.00055
2532578000 -0.194938 1.00184
2544576000 -0.188878 1.0071
2556574000 -0.181577 1.00692
2568572000 -0.173222 1.01051
2580570000 -0.163537 1.0081
2592568000 -0.156477 1.00705
2604566000 -0.14549 1.00374
2616564000 -0.138776 0.999617
2628562000 -0.128077 0.998166
2640560000 -0.118252 0.992967
2652558000 -0.107543 0.992866
2664556000 -0.0947609 0.98923
2676554000 -0.0834569 0.987416
2688552000 -0.0714715 0.984176
2700550000 -0.0615011 0.986891
2712548000 -0.0460342 0.984463
2724546000 -0.0320559 0.987019
2736544000 -0.0227873 0.990163
2748542000 -0.0103117 0.993235
2760540000 0.000361865 0.996186
2772538000 0.0115175 0.99966
2784536000 0.0215694 1.00315
2796534000 0.0305894 1.00396
2808532000 0.0384446 1.00776
2820530000 0.0472947 1.00704
2832528000 0.0555174 1.0077
2844526000 0.0655846 1.00654
2856524000 0.0716871 1.00486
2868522000 0.0795044 1.00158
2880520000 0.0878199 0.997755
2892518000 0.0964603 0.992583
2904516000 0.10429 0.991274
2916514000 0.112842 0.987913
2928512000 0.120283 0.983323
2940510000 0.125489 0.982299
2952508000 0.1365 0.976039
2964506000 0.146421 0.971807
2976504000 0.156356 0.968768
2988502000 0.171159 0.970635
3000500000 0.180668 0.966513
3012498000 0.193705 0.972011
3024496000 0.198003 0.968552
3036494000 0.212218 0.968718
3048492000 0.222807 0.968534
3060490000 0.232281 0.967759
3072488000 0.240397 0.96633
3084486000 0.24811 0.965257
3096484000 0.255048 0.963035
3108482000 0.26156 0.960677
3120480000 0.270326 0.958146
3132478000 0.275887 0.952802
3144476000 0.287272 0.949692
3156474000 0.29353 0.948215
3168472000 0.301293 0.944676
3180470000 0.309677 0.940416
3192468000 0.318661 0.93544
3204466000 0.327908 0.929894
3216464000 0.338144 0.924846
3228462000 0.349075 0.920232
3240460000 0.360936 0.914914
3252458000 0.37309 0.912484
3264456000 0.383815 0.908331
3276454000 0.392418 0.906223
3288452000 0.40296 0.900461
3300450000 0.409807 0.896202
3312448000 0.423576 0.890622
3324446000 0.43118 0.884799
3336444000 0.442285 0.880637
3348442000 0.451061 0.874288
3360440000 0.459587 0.870129
3372438000 0.46906 0.863304
3384436000 0.476749 0.857475
3396434000 0.485229 0.849811
3408432000 0.496055 0.843337
3420430000 0.507957 0.83849
3432428000 0.516148 0.830506
3444426000 0.528415 0.822834
3456424000 0.539058 0.817323
3468422000 0.548482 0.810502
3480420000 0.558431 0.803165
3492418000 0.569128 0.796869
3504416000 0.579033 0.791072
3516414000 0.588592 0.78367
3528412000 0.595869 0.777988
3540410000 0.604322 0.771534
3552408000 0.612782 0.766659
3564406000 0.620582 0.763947
3576404000 0.627322 0.755739
3588402000 0.634596 0.750826
3600400000 0.641652 0.743068
3612398000 0.647353 0.736495
3624396000 0.654387 0.728408
3636394000 0.662278 0.721761
3648392000 0.669899 0.714161
3660390000 0.675069 0.707704
3672388000 0.684532 0.698948
3684386000 0.690533 0.689429
3696384000 0.699531 0.682713
3708382000 0.706609 0.673093
3720380000 0.714825 0.663408
3732378000 0.722523 0.654078
3744376000 0.727989 0.645177
3756374000 0.73625 0.635638
3768372000 0.743822 0.627851
3780370000 0.751336 0.617258
3792368000 0.757083 0.612604
3804366000 0.76461 0.605982
3816364000 0.768981 0.595051
3828362000 0.77492 0.590726
3840360000 0.778864 0.586924
3852358000 0.782912 0.577705
3864356000 0.785661 0.571264
3876354000 0.789434 0.567622
3888352000 0.794111 0.560536
3900350000 0.799104 0.554781
3912348000 0.802106 0.548321
3924346000 0.80724 0.542671
3936344000 0.809262 0.537376
3948342000 0.812091 0.530887
3960340000 0.81284 0.527355
3972338000 0.816916 0.518971
3984336000 0.820924 0.507662
3996334000 0.82576 0.499859
4008332000 0.831918 0.493495
4020330000 0.836542 0.483738
4032328000 0.843014 0.475087
4044326000 0.847574 0.464584
4056324000 0.852707 0.454561
4068322000 0.855505 0.442032
4080320000 0.859768 0.428449
4092318000 0.865069 0.413878
4104316000 0.870865 0.394881
4116314000 0.877099 0.375005
4128312000 0.883696 0.35961
4140310000 0.889317 0.33925
4152308000 0.894446 0.322889
4164306000 0.902231 0.305056
4176304000 0.907302 0.294133
4188302000 0.912685 0.281709
4200300000 0.916807 0.274371
4212298000 0.915894 0.269065
4224296000 0.91658 0.268496
4236294000 0.9199 0.260329
4248292000 0.921953 0.262346
4260290000 0.928555 0.252379
4272288000 0.925796 0.253161
4284286000 0.925945 0.245925
4296284000 0.929096 0.238155
4308282000 0.928845 0.226096
4320280000 0.930803 0.213741
4332278000 0.930099 0.198915
4344276000 0.929088 0.186358
4356274000 0.928245 0.17706
4368272000 0.924019 0.160459
4380270000 0.924504 0.143987
4392268000 0.920377 0.123149
4404266000 0.919246 0.106972
4416264000 0.920135 0.0856068
4428262000 0.918805 0.0669198
4440260000 0.921528 0.0469089
4452258000 0.924159 0.0300656
4464256000 0.926626 0.013974
4476254000 0.928499 -0.00272388
4488252000 0.929529 -0.0139475
4500250000 0.929271 -0.0235205
4512248000 0.928948 -0.0387494
4524246000 0.931534 -0.0486837
4536244000 0.932375 -0.0576309
4548242000 0.930193 -0.0686569
4560240000 0.931072 -0.0711992
4572238000 0.926954 -0.0820304
4584236000 0.924463 -0.0848081
4596234000 0.91979 -0.097569
4608232000 0.91247 -0.107082
4620230000 0.904881 -0.120922
4632228000 0.898032 -0.13586
4644226000 0.888342 -0.151258
4656224000 0.876784 -0.169902
4668222000 0.869475 -0.185271
4680220000 0.858594 -0.205076
4692218000 0.855464 -0.224892
4704216000 0.842691 -0.243505
4716214000 0.834099 -0.259924
4728212000 0.821024 -0.274874
4740210000 0.809789 -0.295015
4752208000 0.798045 -0.314411
4764206000 0.786872 -0.330828
4776204000 0.776482 -0.346717
4788202000 0.768867 -0.362166
4800200000 0.755627 -0.378535
4812198000 0.748345 -0.395017
4824196000 0.738108 -0.407245
4836194000 0.724066 -0.417589
4848192000 0.712159 -0.43033
4860190000 0.696133 -0.436701
4872188000 0.68181 -0.446079
4884186000 0.660056 -0.452264
4896184000 0.63901 -0.463155
4908182000 0.619916 -0.475105
4920180000 0.590417 -0.479466
4932178000 0.567857 -0.493079
4944176000 0.538093 -0.49771
4956174000 0.511263 -0.505824
4968172000 0.475373 -0.506748
4980170000 0.443086 -0.509713
4992168000 0.408676 -0.511395
5004166000 0.375291 -0.512069
5016164000 0.337787 -0.512524
5028162000 0.30474 -0.511389
5040160000 0.268183 -0.504044
5052158000 0.232449 -0.498325
5064156000 0.198357 -0.484467
5076154000 0.167752 -0.470239
5088152000 0.133572 -0.456631
5100150000 0.103909 -0.433241
5112148000 0.0826688 -0.408927
5124146000 0.0554319 -0.383923
5136144000 0.0320604 -0.350318
5148142000 0.0143622 -0.317875
5160140000 -0.00141909 -0.276415
5172138000 -0.00622472 -0.238188
5184136000 -0.0103884 -0.194056
5196134000 -0.0141582 -0.145907
5208132000 -0.0108029 -0.0952106
5220130000 -0.0100733 -0.0501667
5232128000 -0.00647843 -0.00144246
5244126000 -0.00203641 0.0450468
5256124000 0.00848115 0.0865764
5268122000 0.0204926 0.130973
5280120000 0.0381556 0.165559
5292118000 0.0597706 0.197562
5304116000 0.092414 0.222545
5316114000 0.122738 0.24178
5328112000 0.159594 0.260263
5340110000 0.20044 0.276028
5352108000 0.231005 0.286796
5364106000 0.271284 0.299072
5376104000 0.305325 0.302821
5388102000 0.336467 0.308387
5400100000 0.369239 0.308048
5412098000 0.398861 0.308796
5424096000 0.429259 0.304722
5436094000 0.458354 0.301284
5448092000 0.48386 0.294409
5460090000 0.511318 0.286965
5472088000 0.537398 0.275914
5484086000 0.563735 0.265522
5496084000 0.590846 0.250735
5508082000 0.613305 0.237347
5520080000 0.635146 0.222876
5532078000 0.656952 0.210876
5544076000 0.676695 0.194594
5556074000 0.696003 0.179297
5568072000 0.709266 0.171159
5580070000 0.725594 0.1574
5592068000 0.738779 0.143015
5604066000 0.754077 0.126609
5616064000 0.761188 0.113343
5628062000 0.774609 0.103922
5640060000 0.77637 0.0899683
5652058000 0.782323 0.0750131
5664056000 0.79024 0.0616316
5676054000 0.797155 0.0445431
5688052000 0.799264 0.0280796
5700050000 0.803458 0.0149687
5712048000 0.807441 -0.00219587
5724046000 0.812447 -0.0195214
5736044000 0.818795 -0.0361915
5748042000 0.821212 -0.051087
5760040000 0.824278 -0.0678961
5772038000 0.830799 -0.0851886
5784036000 0.833445 -0.100609
5796034000 0.837656 -0.11591
5808032000 0.842807 -0.129035
5820030000 0.845066 -0.148526
5832028000 0.851538 -0.162627
5844026000 0.853242 -0.177528
5856024000 0.856125 -0.193239
5868022000 0.854215 -0.215869
5880020000 0.85015 -0.223414
5892018000 0.854632 -0.239187
5904016000 0.853614 -0.257873
5916014000 0.854486 -0.276209
5928012000 0.84438 -0.293911
5940010000 0.844108 -0.304131
5952008000 0.832617 -0.321629
5964006000 0.826963 -0.333701
5976004000 0.822134 -0.350177
5988002000 0.815392 -0.362859
6000000000 0.805914 -0.375923
