# Hz S RI R 50
1000000 0.988338 0.000992205
12998000 1.01557 -0.0589524
24996000 1.01027 -0.127845
36994000 0.996576 -0.193638
48992000 0.97935 -0.256791
60990000 0.958828 -0.316606
72988000 0.9336 -0.375564
84986000 0.905881 -0.43118
96984000 0.874696 -0.48498
108982000 0.841012 -0.536795
120980000 0.805655 -0.586154
132978000 0.768616 -0.632445
144976000 0.729602 -0.677241
156974000 0.688803 -0.719811
168972000 0.646531 -0.759465
180970000 0.603486 -0.796478
192968000 0.559258 -0.82947
204966000 0.513289 -0.86051
216964000 0.46745 -0.88749
228962000 0.420206 -0.911278
240960000 0.374012 -0.931444
252958000 0.32743 -0.947897
264956000 0.281131 -0.961514
276954000 0.234893 -0.972289
288952000 0.190029 -0.979738
300950000 0.14519 -0.984824
312948000 0.101428 -0.987217
324946000 0.0596203 -0.987866
336944000 0.0187422 -0.986889
348942000 -0.0211144 -0.985327
360940000 -0.0609987 -0.981991
372938000 -0.0996644 -0.978656
384936000 -0.136679 -0.974964
396934000 -0.1736 -0.970513
408932000 -0.210134 -0.96593
420930000 -0.245287 -0.960223
432928000 -0.280706 -0.952632
444926000 -0.314701 -0.94441
456924000 -0.347059 -0.935451
468922000 -0.379887 -0.925938
480920000 -0.409649 -0.914324
492918000 -0.438098 -0.901209
504916000 -0.466024 -0.886856
516914000 -0.493631 -0.872634
528912000 -0.518538 -0.856429
540910000 -0.543477 -0.839844
552908000 -0.566015 -0.821795
564906000 -0.588214 -0.805066
576904000 -0.60909 -0.787077
588902000 -0.628215 -0.770433
600900000 -0.646691 -0.752546
612898000 -0.664356 -0.736472
624896000 -0.6822 -0.719595
636894000 -0.699949 -0.702817
648892000 -0.717416 -0.68687
660890000 -0.734307 -0.67116
672888000 -0.751321 -0.654678
684886000 -0.767782 -0.638436
696884000 -0.784208 -0.620045
708882000 -0.800537 -0.603382
720880000 -0.816364 -0.586124
732878000 -0.830614 -0.566667
744876000 -0.843736 -0.547594
756874000 -0.85626 -0.528837
768872000 -0.868481 -0.508377
780870000 -0.879346 -0.487745
792868000 -0.888507 -0.467879
804866000 -0.897482 -0.448214
816864000 -0.906099 -0.429257
828862000 -0.912976 -0.411034
840860000 -0.918785 -0.392948
852858000 -0.924166 -0.375938
864856000 -0.931201 -0.358418
876854000 -0.936849 -0.340509
888852000 -0.94372 -0.323633
900850000 -0.94864 -0.306988
912848000 -0.954763 -0.291316
924846000 -0.960452 -0.275753
936844000 -0.966078 -0.260587
948842000 -0.972265 -0.246233
960840000 -0.979074 -0.232061
972838000 -0.98421 -0.217016
984836000 -0.989521 -0.201153
996834000 -0.993521 -0.185777
1008832000 -0.996637 -0.170915
1020830000 -1.00044 -0.155033
1032828000 -1.00289 -0.137891
1044826000 -1.00515 -0.121545
1056824000 -1.00718 -0.105326
1068822000 -1.00865 -0.0871261
1080820000 -1.00767 -0.0698657
1092818000 -1.00817 -0.0528549
1104816000 -1.00812 -0.0361145
1116814000 -1.0072 -0.0197134
1128812000 -1.00744 -0.00483783
1140810000 -1.0065 0.0107619
1152808000 -1.00644 0.0248534
1164806000 -1.00583 0.0386804
1176804000 -1.00851 0.0551954
1188802000 -1.00386 0.070286
1200800000 -1.00281 0.0804632
1212798000 -1.00225 0.0930477
1224796000 -1.00158 0.104366
1236794000 -1.00213 0.116431
1248792000 -1.00088 0.128642
1260790000 -1.00069 0.13925
1272788000 -0.999279 0.151167
1284786000 -0.996486 0.162046
1296784000 -0.992669 0.173698
1308782000 -0.98979 0.187028
1320780000 -0.986947 0.200457
1332778000 -0.984137 0.214607
1344776000 -0.981007 0.228642
1356774000 -0.978079 0.243727
1368772000 -0.975327 0.255861
1380770000 -0.97177 0.270568
1392768000 -0.968273 0.285648
1404766000 -0.962998 0.302344
1416764000 -0.957896 0.317306
1428762000 -0.952051 0.332019
1440760000 -0.94696 0.345547
1452758000 -0.942152 0.358782
1464756000 -0.938431 0.370798
1476754000 -0.934058 0.38386
1488752000 -0.929453 0.394455
1500750000 -0.925573 0.40583
1512748000 -0.917482 0.413713
1524746000 -0.911844 0.422907
1536744000 -0.905553 0.43178
1548742000 -0.899062 0.441761
1560740000 -0.893402 0.450711
1572738000 -0.888297 0.46123
1584736000 -0.883539 0.472016
1596734000 -0.879769 0.483088
1608732000 -0.875125 0.494938
1620730000 -0.870729 0.504698
1632728000 -0.86599 0.516682
1644726000 -0.860804 0.527309
1656724000 -0.853432 0.539206
1668722000 -0.846076 0.548792
1680720000 -0.840806 0.561395
1692718000 -0.83592 0.570225
1704716000 -0.829928 0.579484
1716714000 -0.824085 0.587166
1728712000 -0.817516 0.596896
1740710000 -0.807195 0.608262
1752708000 -0.799656 0.618842
1764706000 -0.789957 0.625856
1776704000 -0.780345 0.634117
1788702000 -0.771097 0.640971
1800700000 -0.761788 0.649211
1812698000 -0.74967 0.656686
1824696000 -0.741913 0.666648
1836694000 -0.733145 0.674026
1848692000 -0.72465 0.683538
1860690000 -0.716371 0.692862
1872688000 -0.708037 0.70249
1884686000 -0.699486 0.71224
1896684000 -0.692137 0.721658
1908682000 -0.682848 0.733252
1920680000 -0.676029 0.743752
1932678000 -0.668514 0.754193
1944676000 -0.658693 0.76394
1956674000 -0.652967 0.771794
1968672000 -0.648335 0.780037
1980670000 -0.641263 0.788376
1992668000 -0.63765 0.793308
2004666000 -0.631562 0.796867
2016664000 -0.627412 0.800191
2028662000 -0.620682 0.802882
2040660000 -0.614659 0.805748
2052658000 -0.606486 0.807138
2064656000 -0.598522 0.808772
2076654000 -0.587874 0.812421
2088652000 -0.577037 0.814494
2100650000 -0.56676 0.817292
2112648000 -0.551181 0.82165
2124646000 -0.539569 0.830323
2136644000 -0.52455 0.839558
2148642000 -0.51157 0.847524
2160640000 -0.497967 0.856333
2172638000 -0.487819 0.867222
2184636000 -0.477376 0.878786
2196634000 -0.46737 0.88928
2208632000 -0.461312 0.90138
2220630000 -0.456417 0.908184
2232628000 -0.452817 0.915426
2244626000 -0.451205 0.920884
2256624000 -0.446914 0.924872
2268622000 -0.4419 0.927102
2280620000 -0.439264 0.929927
2292618000 -0.437328 0.931977
2304616000 -0.431392 0.930669
2316614000 -0.42423 0.93009
2328612000 -0.41289 0.930089
2340610000 -0.399925 0.931073
2352608000 -0.383571 0.930356
2364606000 -0.368785 0.932391
2376604000 -0.352184 0.931204
2388602000 -0.334302 0.931326
2400600000 -0.317091 0.937656
2412598000 -0.30129 0.943108
2424596000 -0.287375 0.948512
2436594000 -0.270862 0.954375
2448592000 -0.258965 0.958924
2460590000 -0.244756 0.96595
2472588000 -0.234525 0.974051
2484586000 -0.226688 0.980456
2496584000 -0.218596 0.988253
2508582000 -0.208198 0.993898
2520580000 -0.200557 0.998828
2532578000 -0.193713 1.00069
2544576000 -0.18861 1.00626
2556574000 -0.180586 1.00747
2568572000 -0.173795 1.00941
2580570000 -0.164379 1.00802
2592568000 -0.156788 1.0069
2604566000 -0.146028 1.00356
2616564000 -0.138487 0.999906
2628562000 -0.129106 0.999877
2640560000 -0.119223 0.992835
2652558000 -0.108081 0.99212
2664556000 -0.0954469 0.988434
2676554000 -0.0844649 0.988715
2688552000 -0.0727243 0.986164
2700550000 -0.0586181 0.985952
2712548000 -0.0466314 0.984909
2724546000 -0.0331264 0.98692
2736544000 -0.0230244 0.990653
2748542000 -0.0104793 0.993074
2760540000 0.000547345 0.996134
2772538000 0.0113279 0.999682
2784536000 0.0218284 1.00324
2796534000 0.0318575 1.00464
2808532000 0.0391653 1.0077
2820530000 0.0490716 1.00737
2832528000 0.0557933 1.00747
2844526000 0.0645505 1.00794
2856524000 0.0725697 1.00376
2868522000 0.0805058 1.0013
2880520000 0.0877437 0.997541
2892518000 0.0961423 0.992727
2904516000 0.104517 0.991091
2916514000 0.111808 0.987527
2928512000 0.121673 0.983742
2940510000 0.124088 0.982621
2952508000 0.136421 0.978075
2964506000 0.148416 0.973488
2976504000 0.157599 0.970073
2988502000 0.1709 0.968743
3000500000 0.183477 0.969621
3012498000 0.194756 0.97131
3024496000 0.198661 0.970837
3036494000 0.212373 0.969076
3048492000 0.222945 0.968225
3060490000 0.232132 0.967382
3072488000 0.23975 0.966781
3084486000 0.248061 0.964612
3096484000 0.257335 0.962859
3108482000 0.263326 0.961704
3120480000 0.27143 0.958761
3132478000 0.276731 0.954787
3144476000 0.286705 0.949225
3156474000 0.29508 0.948197
3168472000 0.301046 0.944293
3180470000 0.31014 0.939729
3192468000 0.318838 0.935435
3204466000 0.328649 0.929547
3216464000 0.33795 0.925307
3228462000 0.350622 0.920453
3240460000 0.36161 0.914806
3252458000 0.372447 0.911934
3264456000 0.384459 0.908541
3276454000 0.391224 0.907012
3288452000 0.402748 0.899769
3300450000 0.410395 0.895002
3312448000 0.423195 0.891296
3324446000 0.431002 0.884404
3336444000 0.441955 0.880965
3348442000 0.450958 0.874487
3360440000 0.460849 0.86996
3372438000 0.468374 0.862695
3384436000 0.47827 0.859227
3396434000 0.484957 0.849333
3408432000 0.498477 0.842855
3420430000 0.50763 0.838388
3432428000 0.515709 0.831057
3444426000 0.530494 0.82356
3456424000 0.539618 0.817275
3468422000 0.54753 0.809845
3480420000 0.558945 0.803135
3492418000 0.569342 0.797545
3504416000 0.579409 0.789992
3516414000 0.588073 0.783768
3528412000 0.59613 0.778363
3540410000 0.604529 0.772063
3552408000 0.611491 0.766722
3564406000 0.621693 0.764593
3576404000 0.625918 0.752055
3588402000 0.634057 0.750884
3600400000 0.641935 0.743437
3612398000 0.647774 0.736541
3624396000 0.654452 0.728495
3636394000 0.662604 0.721088
3648392000 0.670357 0.715975
3660390000 0.676547 0.708373
3672388000 0.68585 0.69904
3684386000 0.691402 0.688842
3696384000 0.700782 0.680842
3708382000 0.707738 0.673623
3720380000 0.71507 0.663906
3732378000 0.722032 0.654313
3744376000 0.727381 0.645192
3756374000 0.736809 0.63561
3768372000 0.743999 0.627513
3780370000 0.751518 0.617876
3792368000 0.756601 0.612089
3804366000 0.76419 0.60393
3816364000 0.769941 0.595634
3828362000 0.774203 0.591733
3840360000 0.777687 0.586236
3852358000 0.785603 0.577514
3864356000 0.788099 0.57227
3876354000 0.790949 0.566501
3888352000 0.794141 0.559534
3900350000 0.79883 0.554372
3912348000 0.802171 0.548132
3924346000 0.807453 0.542531
3936344000 0.809415 0.536172
3948342000 0.812333 0.530484
3960340000 0.812296 0.526022
3972338000 0.81635 0.520521
3984336000 0.822015 0.506672
3996334000 0.826549 0.500013
4008332000 0.832251 0.492917
4020330000 0.838434 0.484039
4032328000 0.843643 0.475395
4044326000 0.848205 0.46545
4056324000 0.852872 0.454519
4068322000 0.855614 0.441366
4080320000 0.860115 0.427936
4092318000 0.865593 0.41347
4104316000 0.871069 0.395324
4116314000 0.875805 0.375189
4128312000 0.882276 0.359014
4140310000 0.888527 0.339809
4152308000 0.895659 0.323662
4164306000 0.902676 0.306044
4176304000 0.907124 0.292325
4188302000 0.913008 0.281901
4200300000 0.918356 0.274084
4212298000 0.915814 0.269175
4224296000 0.917082 0.26891
4236294000 0.919881 0.261479
4248292000 0.920727 0.261985
4260290000 0.929263 0.254167
4272288000 0.924888 0.252987
4284286000 0.927385 0.246077
4296284000 0.929185 0.239683
4308282000 0.932257 0.226516
4320280000 0.928078 0.217208
4332278000 0.930585 0.201615
4344276000 0.93003 0.184598
4356274000 0.929173 0.173889
4368272000 0.924546 0.160332
4380270000 0.924113 0.143503
4392268000 0.920469 0.122599
4404266000 0.920448 0.106086
4416264000 0.918289 0.0855984
4428262000 0.917545 0.0658331
4440260000 0.919672 0.0477332
4452258000 0.923795 0.0318515
4464256000 0.925816 0.0139607
4476254000 0.927273 -0.00102482
4488252000 0.930109 -0.0139978
4500250000 0.928911 -0.0234919
4512248000 0.929436 -0.0387212
4524246000 0.93134 -0.0484062
4536244000 0.932938 -0.0583795
4548242000 0.931338 -0.0675262
4560240000 0.930149 -0.073746
4572238000 0.928541 -0.0788415
4584236000 0.924097 -0.0898646
4596234000 0.917614 -0.0986201
4608232000 0.91189 -0.105223
4620230000 0.9045 -0.118678
4632228000 0.89786 -0.13666
4644226000 0.88847 -0.152117
4656224000 0.878195 -0.168975
4668222000 0.869134 -0.185475
4680220000 0.85809 -0.205171
4692218000 0.855437 -0.224786
4704216000 0.842088 -0.2433
4716214000 0.833114 -0.261266
4728212000 0.822802 -0.275849
4740210000 0.810299 -0.295371
4752208000 0.797239 -0.313355
4764206000 0.788116 -0.331166
4776204000 0.776967 -0.346646
4788202000 0.768791 -0.36196
4800200000 0.755428 -0.378422
4812198000 0.747747 -0.394245
4824196000 0.738458 -0.40744
4836194000 0.722971 -0.417014
4848192000 0.712006 -0.430247
4860190000 0.6965 -0.438292
4872188000 0.681789 -0.447171
4884186000 0.659716 -0.452613
4896184000 0.637977 -0.463402
4908182000 0.618757 -0.475945
4920180000 0.592241 -0.480054
4932178000 0.566689 -0.492616
4944176000 0.537889 -0.497702
4956174000 0.510834 -0.506066
4968172000 0.475759 -0.507529
4980170000 0.443976 -0.51008
4992168000 0.408964 -0.512134
5004166000 0.374716 -0.512363
5016164000 0.337365 -0.513814
5028162000 0.304401 -0.512024
5040160000 0.267858 -0.503964
5052158000 0.232768 -0.49831
5064156000 0.19848 -0.484484
5076154000 0.168139 -0.471085
5088152000 0.134399 -0.456543
5100150000 0.105016 -0.433524
5112148000 0.0825568 -0.407951
5124146000 0.0546528 -0.383315
5136144000 0.0321161 -0.350123
5148142000 0.0142701 -0.317725
5160140000 -0.00137365 -0.276411
5172138000 -0.00642893 -0.238114
5184136000 -0.0103855 -0.193737
5196134000 -0.0146684 -0.14589
5208132000 -0.0116865 -0.0953451
5220130000 -0.0103934 -0.050439
5232128000 -0.00661632 -0.0018434
5244126000 -0.00237514 0.0445519
5256124000 0.00826411 0.0861806
5268122000 0.0203842 0.130644
5280120000 0.0381356 0.165417
5292118000 0.0598498 0.197304
5304116000 0.0922305 0.222382
5316114000 0.123961 0.241762
5328112000 0.160563 0.2606
5340110000 0.201283 0.275772
5352108000 0.231814 0.287014
5364106000 0.270091 0.298743
5376104000 0.305119 0.303471
5388102000 0.336237 0.308775
5400100000 0.369825 0.307635
5412098000 0.398578 0.308773
5424096000 0.429298 0.304654
5436094000 0.458209 0.301623
5448092000 0.483726 0.294653
5460090000 0.51204 0.287272
5472088000 0.536864 0.275881
5484086000 0.563229 0.265727
5496084000 0.590119 0.251117
5508082000 0.613942 0.237479
5520080000 0.635426 0.22295
5532078000 0.657445 0.210989
5544076000 0.676607 0.194683
5556074000 0.696029 0.179752
5568072000 0.709318 0.171023
5580070000 0.725961 0.157222
5592068000 0.738096 0.142263
5604066000 0.755979 0.127038
5616064000 0.758609 0.113239
5628062000 0.777151 0.100161
5640060000 0.779594 0.0926731
5652058000 0.78516 0.0766981
5664056000 0.789377 0.0603479
5676054000 0.794358 0.0470048
5688052000 0.798555 0.0294702
5700050000 0.803703 0.015035
5712048000 0.807853 -0.00225947
5724046000 0.812536 -0.0193223
5736044000 0.818548 -0.035822
5748042000 0.822612 -0.0511359
5760040000 0.824254 -0.0681423
5772038000 0.829801 -0.0853462
5784036000 0.834178 -0.099023
5796034000 0.83653 -0.116744
5808032000 0.841746 -0.128736
5820030000 0.8448 -0.14946
5832028000 0.851371 -0.162518
5844026000 0.853118 -0.176995
5856024000 0.856402 -0.193615
5868022000 0.854645 -0.216778
5880020000 0.847338 -0.223827
5892018000 0.854259 -0.237622
5904016000 0.851213 -0.254945
5916014000 0.850412 -0.278721
5928012000 0.845128 -0.295287
5940010000 0.842465 -0.306044
5952008000 0.834827 -0.324403
5964006000 0.826019 -0.336196
5976004000 0.821704 -0.350662
5988002000 0.815564 -0.362819
6000000000 0.8062 -0.375851
