# Hz S RI R 50
1000000 0.993471 -0.00426172
12998000 1.01584 -0.0588414
24996000 1.01054 -0.127897
36994000 0.996921 -0.19379
48992000 0.979684 -0.256933
60990000 0.959002 -0.316601
72988000 0.933777 -0.375487
84986000 0.906028 -0.431451
96984000 0.874922 -0.485117
108982000 0.841105 -0.536998
120980000 0.805565 -0.58659
132978000 0.768472 -0.633016
144976000 0.72992 -0.677427
156974000 0.688921 -0.720429
168972000 0.646695 -0.75997
180970000 0.604252 -0.796158
192968000 0.559383 -0.829456
204966000 0.5138 -0.860453
216964000 0.467947 -0.887748
228962000 0.420703 -0.911444
240960000 0.374705 -0.931642
252958000 0.328223 -0.947929
264956000 0.281784 -0.961928
276954000 0.235476 -0.972432
288952000 0.190612 -0.979886
300950000 0.145475 -0.985164
312948000 0.101833 -0.987829
324946000 0.0598226 -0.988292
336944000 0.0190041 -0.987425
348942000 -0.0209676 -0.985569
360940000 -0.0611286 -0.98224
372938000 -0.0997414 -0.978981
384936000 -0.136677 -0.975264
396934000 -0.173495 -0.970777
408932000 -0.210168 -0.966239
420930000 -0.245114 -0.960738
432928000 -0.280918 -0.952806
444926000 -0.314982 -0.944394
456924000 -0.347589 -0.93598
468922000 -0.379696 -0.926387
480920000 -0.409623 -0.914861
492918000 -0.438306 -0.901549
504916000 -0.466051 -0.887387
516914000 -0.49365 -0.873035
528912000 -0.51896 -0.856801
540910000 -0.543839 -0.839818
552908000 -0.566208 -0.822364
564906000 -0.588311 -0.805518
576904000 -0.609197 -0.787693
588902000 -0.628444 -0.770682
600900000 -0.647083 -0.753179
612898000 -0.664253 -0.736555
624896000 -0.68228 -0.719995
636894000 -0.700005 -0.703321
648892000 -0.717427 -0.687325
660890000 -0.734628 -0.671368
672888000 -0.751398 -0.654868
684886000 -0.768059 -0.638438
696884000 -0.784645 -0.620758
708882000 -0.800532 -0.60415
720880000 -0.816904 -0.586366
732878000 -0.830238 -0.56692
744876000 -0.843555 -0.548379
756874000 -0.856451 -0.529212
768872000 -0.868469 -0.509029
780870000 -0.8795 -0.488558
792868000 -0.888487 -0.468947
804866000 -0.896909 -0.44894
816864000 -0.905664 -0.429908
828862000 -0.913245 -0.411717
840860000 -0.918952 -0.393904
852858000 -0.925023 -0.377188
864856000 -0.931229 -0.358459
876854000 -0.937204 -0.340919
888852000 -0.944079 -0.324482
900850000 -0.949484 -0.307571
912848000 -0.955102 -0.291817
924846000 -0.960696 -0.276094
936844000 -0.966191 -0.26092
948842000 -0.972676 -0.246891
960840000 -0.978626 -0.232297
972838000 -0.984567 -0.217709
984836000 -0.989945 -0.201584
996834000 -0.993615 -0.186153
1008832000 -0.997181 -0.171075
1020830000 -1.00085 -0.154831
1032828000 -1.00318 -0.138018
1044826000 -1.00548 -0.121938
1056824000 -1.0072 -0.105237
1068822000 -1.00885 -0.0876784
1080820000 -1.01013 -0.0696036
1092818000 -1.00822 -0.0524423
1104816000 -1.00782 -0.0361358
1116814000 -1.00821 -0.0197583
1128812000 -1.0072 -0.00427664
1140810000 -1.00761 0.0110869
1152808000 -1.00708 0.0251962
1164806000 -1.00634 0.0390616
1176804000 -1.00897 0.0546942
1188802000 -1.00419 0.0701931
1200800000 -1.0027 0.0804524
1212798000 -1.00241 0.0925504
1224796000 -1.00205 0.104288
1236794000 -1.00198 0.115803
1248792000 -1.00087 0.127502
1260790000 -0.99918 0.139262
1272788000 -0.999392 0.150685
1284786000 -0.99681 0.161645
1296784000 -0.992404 0.172845
1308782000 -0.989859 0.186505
1320780000 -0.987249 0.200306
1332778000 -0.984536 0.214176
1344776000 -0.981743 0.227846
1356774000 -0.979309 0.242968
1368772000 -0.975086 0.255636
1380770000 -0.972144 0.270325
1392768000 -0.967524 0.284933
1404766000 -0.963408 0.300829
1416764000 -0.957993 0.316972
1428762000 -0.952982 0.331547
1440760000 -0.946921 0.345991
1452758000 -0.94272 0.358041
1464756000 -0.938568 0.370302
1476754000 -0.934595 0.383289
1488752000 -0.930276 0.394105
1500750000 -0.926178 0.405393
1512748000 -0.917959 0.413795
1524746000 -0.912383 0.422165
1536744000 -0.906234 0.43101
1548742000 -0.899619 0.441116
1560740000 -0.893193 0.450144
1572738000 -0.88906 0.460793
1584736000 -0.884317 0.471705
1596734000 -0.880243 0.482792
1608732000 -0.875961 0.494381
1620730000 -0.871593 0.504437
1632728000 -0.866791 0.515714
1644726000 -0.860248 0.527235
1656724000 -0.853308 0.538369
1668722000 -0.847673 0.549089
1680720000 -0.842242 0.560776
1692718000 -0.835601 0.569478
1704716000 -0.830735 0.579411
1716714000 -0.823494 0.587177
1728712000 -0.817955 0.597796
1740710000 -0.809098 0.607271
1752708000 -0.800284 0.618088
1764706000 -0.790855 0.625299
1776704000 -0.780994 0.633526
1788702000 -0.771461 0.640753
1800700000 -0.761004 0.649791
1812698000 -0.749288 0.656086
1824696000 -0.742112 0.665912
1836694000 -0.733887 0.675211
1848692000 -0.724367 0.683961
1860690000 -0.716612 0.693714
1872688000 -0.707977 0.70235
1884686000 -0.699676 0.712035
1896684000 -0.692565 0.72162
1908682000 -0.68344 0.733311
1920680000 -0.677019 0.743387
1932678000 -0.668474 0.754937
1944676000 -0.660546 0.76305
1956674000 -0.654298 0.772766
1968672000 -0.649245 0.779313
1980670000 -0.640219 0.788736
1992668000 -0.638865 0.791488
2004666000 -0.633463 0.797415
2016664000 -0.628388 0.800312
2028662000 -0.621719 0.803062
2040660000 -0.615186 0.805593
2052658000 -0.607431 0.806908
2064656000 -0.599551 0.808591
2076654000 -0.588954 0.813104
2088652000 -0.578677 0.814196
2100650000 -0.567132 0.818906
2112648000 -0.553324 0.823499
2124646000 -0.540687 0.829765
2136644000 -0.525943 0.837549
2148642000 -0.512234 0.847607
2160640000 -0.49833 0.854967
2172638000 -0.487934 0.867099
2184636000 -0.478099 0.878667
2196634000 -0.468155 0.889581
2208632000 -0.462196 0.901971
2220630000 -0.456501 0.909754
2232628000 -0.454142 0.916445
2244626000 -0.452364 0.920579
2256624000 -0.450286 0.924523
2268622000 -0.443329 0.925897
2280620000 -0.440979 0.927608
2292618000 -0.438162 0.930415
2304616000 -0.433263 0.930872
2316614000 -0.426191 0.930482
2328612000 -0.414396 0.929985
2340610000 -0.401771 0.930475
2352608000 -0.385715 0.93061
2364606000 -0.370591 0.932462
2376604000 -0.352938 0.932294
2388602000 -0.337885 0.933797
2400600000 -0.318088 0.938512
2412598000 -0.302879 0.94393
2424596000 -0.288617 0.949007
2436594000 -0.272317 0.954006
2448592000 -0.25919 0.959621
2460590000 -0.245581 0.966354
2472588000 -0.234969 0.97437
2484586000 -0.227104 0.98072
2496584000 -0.218795 0.986739
2508582000 -0.209298 0.993625
2520580000 -0.200748 0.998453
2532578000 -0.195233 1.00095
2544576000 -0.190729 1.00647
2556574000 -0.180531 1.00904
2568572000 -0.175433 1.01006
2580570000 -0.164507 1.00904
2592568000 -0.156792 1.00672
2604566000 -0.154044 1.0035
2616564000 -0.139574 0.999794
2628562000 -0.129839 0.998727
2640560000 -0.119564 0.99212
2652558000 -0.110636 0.990743
2664556000 -0.0967876 0.989808
2676554000 -0.0852829 0.986549
2688552000 -0.0735531 0.985974
2700550000 -0.0575623 0.987701
2712548000 -0.0473556 0.984886
2724546000 -0.0341023 0.986324
2736544000 -0.0229197 0.991374
2748542000 -0.0116203 0.993636
2760540000 -0.000170192 0.996515
2772538000 0.0104738 1.00034
2784536000 0.0207793 1.00379
2796534000 0.0295247 1.00502
2808532000 0.0376355 1.00566
2820530000 0.0473829 1.00732
2832528000 0.0552652 1.00855
2844526000 0.0653768 1.00854
2856524000 0.0722157 1.00419
2868522000 0.080406 1.00087
2880520000 0.0882278 0.998205
2892518000 0.0964715 0.99292
2904516000 0.104541 0.991343
2916514000 0.111962 0.988385
2928512000 0.121233 0.984009
2940510000 0.12343 0.981915
2952508000 0.135433 0.978013
2964506000 0.146552 0.97338
2976504000 0.1562 0.970507
2988502000 0.170654 0.969864
3000500000 0.182569 0.968519
3012498000 0.194621 0.971988
3024496000 0.198952 0.96967
3036494000 0.21125 0.969202
3048492000 0.222357 0.968829
3060490000 0.231731 0.96788
3072488000 0.238501 0.967413
3084486000 0.247728 0.965777
3096484000 0.2562 0.963252
3108482000 0.262741 0.961945
3120480000 0.269132 0.958595
3132478000 0.275164 0.955176
3144476000 0.287846 0.949379
3156474000 0.294092 0.948278
3168472000 0.299798 0.943373
3180470000 0.309406 0.940176
3192468000 0.318131 0.936269
3204466000 0.327542 0.930287
3216464000 0.33767 0.925346
3228462000 0.349133 0.921093
3240460000 0.359257 0.915858
3252458000 0.371498 0.91253
3264456000 0.382667 0.910145
3276454000 0.390624 0.907149
3288452000 0.402906 0.901212
3300450000 0.408517 0.896757
3312448000 0.422406 0.89047
3324446000 0.430698 0.884711
3336444000 0.441668 0.88126
3348442000 0.450486 0.875327
3360440000 0.459109 0.870511
3372438000 0.468165 0.8632
3384436000 0.478029 0.858059
3396434000 0.487422 0.84817
3408432000 0.496757 0.843714
3420430000 0.507706 0.8392
3432428000 0.513966 0.831552
3444426000 0.528241 0.823817
3456424000 0.539585 0.816963
3468422000 0.54733 0.810434
3480420000 0.558203 0.803471
3492418000 0.568501 0.797664
3504416000 0.57954 0.791852
3516414000 0.588539 0.783767
3528412000 0.59708 0.7784
3540410000 0.604567 0.775149
3552408000 0.609456 0.769435
3564406000 0.621979 0.764077
3576404000 0.626174 0.756305
3588402000 0.63404 0.753419
3600400000 0.640363 0.743719
3612398000 0.646972 0.737039
3624396000 0.654405 0.729069
3636394000 0.661606 0.722091
3648392000 0.66946 0.715451
3660390000 0.675353 0.708061
3672388000 0.683149 0.697786
3684386000 0.690645 0.690174
3696384000 0.699033 0.680793
3708382000 0.707706 0.673729
3720380000 0.715356 0.663429
3732378000 0.722539 0.653757
3744376000 0.727702 0.646302
3756374000 0.736654 0.63622
3768372000 0.743646 0.628074
3780370000 0.751484 0.618331
3792368000 0.756574 0.612762
3804366000 0.763711 0.604743
3816364000 0.768265 0.596474
3828362000 0.772555 0.592441
3840360000 0.776012 0.586929
3852358000 0.783837 0.57902
3864356000 0.787388 0.573206
3876354000 0.7888 0.56737
3888352000 0.79319 0.56129
3900350000 0.798155 0.555613
3912348000 0.801738 0.549169
3924346000 0.807171 0.543621
3936344000 0.809586 0.537241
3948342000 0.812467 0.531857
3960340000 0.812142 0.528577
3972338000 0.817147 0.520017
3984336000 0.82231 0.506182
3996334000 0.826526 0.500376
4008332000 0.831006 0.494543
4020330000 0.838881 0.485791
4032328000 0.842651 0.476436
4044326000 0.847524 0.466111
4056324000 0.852789 0.455283
4068322000 0.8555 0.442572
4080320000 0.859319 0.428548
4092318000 0.865034 0.415027
4104316000 0.871343 0.3965
4116314000 0.876472 0.375344
4128312000 0.883329 0.359314
4140310000 0.889494 0.341725
4152308000 0.895014 0.324669
4164306000 0.901472 0.306127
4176304000 0.907318 0.293861
4188302000 0.913472 0.282562
4200300000 0.917543 0.276192
4212298000 0.916032 0.269957
4224296000 0.917117 0.269154
4236294000 0.920674 0.261541
4248292000 0.920485 0.26036
4260290000 0.927786 0.253127
4272288000 0.926693 0.253249
4284286000 0.929344 0.248416
4296284000 0.929575 0.2408
4308282000 0.927493 0.227956
4320280000 0.933827 0.218083
4332278000 0.934464 0.200602
4344276000 0.924516 0.188215
4356274000 0.929752 0.176627
4368272000 0.92478 0.16223
4380270000 0.924416 0.144451
4392268000 0.921134 0.12377
4404266000 0.920197 0.107934
4416264000 0.918879 0.0861943
4428262000 0.919516 0.068156
4440260000 0.920843 0.0482076
4452258000 0.926184 0.0305139
4464256000 0.926345 0.0150604
4476254000 0.927792 -0.000812138
4488252000 0.930353 -0.0132548
4500250000 0.929338 -0.0226116
4512248000 0.929343 -0.0383214
4524246000 0.93198 -0.0478408
4536244000 0.931662 -0.0580348
4548242000 0.929589 -0.0680611
4560240000 0.930067 -0.0719239
4572238000 0.927637 -0.0795504
4584236000 0.926692 -0.0886108
4596234000 0.918724 -0.0989803
4608232000 0.911263 -0.103135
4620230000 0.905449 -0.115117
4632228000 0.896874 -0.134767
4644226000 0.888635 -0.150556
4656224000 0.877713 -0.169007
4668222000 0.870303 -0.185209
4680220000 0.858919 -0.204693
4692218000 0.855837 -0.224581
4704216000 0.842275 -0.242111
4716214000 0.834038 -0.260013
4728212000 0.820755 -0.276348
4740210000 0.808844 -0.293577
4752208000 0.797178 -0.313261
4764206000 0.788532 -0.329873
4776204000 0.777264 -0.346181
4788202000 0.769164 -0.361354
4800200000 0.75585 -0.377975
4812198000 0.74881 -0.39273
4824196000 0.738385 -0.406989
4836194000 0.724917 -0.415202
4848192000 0.712833 -0.4296
4860190000 0.697729 -0.433497
4872188000 0.681278 -0.446496
4884186000 0.662789 -0.456008
4896184000 0.64175 -0.4632
4908182000 0.621005 -0.472754
4920180000 0.591198 -0.480211
4932178000 0.568021 -0.492057
4944176000 0.538517 -0.497132
4956174000 0.511505 -0.505762
4968172000 0.475745 -0.50694
4980170000 0.444096 -0.509188
4992168000 0.40886 -0.512224
5004166000 0.375747 -0.512117
5016164000 0.33803 -0.513717
5028162000 0.304423 -0.511558
5040160000 0.268261 -0.503705
5052158000 0.232819 -0.498054
5064156000 0.198635 -0.484326
5076154000 0.167527 -0.470477
5088152000 0.13437 -0.456945
5100150000 0.105512 -0.433205
5112148000 0.0822242 -0.408304
5124146000 0.0552496 -0.383446
5136144000 0.0325002 -0.350071
5148142000 0.015178 -0.31765
5160140000 -0.000860958 -0.276476
5172138000 -0.00596297 -0.237913
5184136000 -0.00997366 -0.193586
5196134000 -0.0138292 -0.145977
5208132000 -0.0108652 -0.0954405
5220130000 -0.0100742 -0.0499481
5232128000 -0.00655136 -0.00110735
5244126000 -0.00220952 0.0451808
5256124000 0.00848748 0.0867354
5268122000 0.0170139 0.135829
5280120000 0.0381199 0.165866
5292118000 0.0594104 0.197996
5304116000 0.0921675 0.223396
5316114000 0.122422 0.242788
5328112000 0.159586 0.260779
5340110000 0.201238 0.276801
5352108000 0.230387 0.286658
5364106000 0.27193 0.298408
5376104000 0.305859 0.303686
5388102000 0.337102 0.31
5400100000 0.371165 0.31031
5412098000 0.398944 0.309877
5424096000 0.428974 0.304998
5436094000 0.458178 0.301786
5448092000 0.483909 0.295037
5460090000 0.511582 0.287824
5472088000 0.53639 0.277308
5484086000 0.563372 0.265997
5496084000 0.589769 0.252068
5508082000 0.614449 0.238052
5520080000 0.635135 0.22301
5532078000 0.657662 0.210722
5544076000 0.676605 0.195365
5556074000 0.695908 0.180904
5568072000 0.709393 0.171898
5580070000 0.726475 0.15677
5592068000 0.738709 0.142248
5604066000 0.754301 0.129309
5616064000 0.762824 0.116711
5628062000 0.772028 0.103598
5640060000 0.776635 0.0902589
5652058000 0.78449 0.0752316
5664056000 0.790013 0.060428
5676054000 0.795039 0.0449731
5688052000 0.797084 0.0297536
5700050000 0.804643 0.0147161
5712048000 0.807895 -0.00190094
5724046000 0.81282 -0.0186736
5736044000 0.818802 -0.0346498
5748042000 0.822495 -0.0501889
5760040000 0.825407 -0.0683291
5772038000 0.827393 -0.0854663
5784036000 0.834558 -0.0997356
5796034000 0.837363 -0.115432
5808032000 0.842391 -0.127911
5820030000 0.844691 -0.148227
5832028000 0.851953 -0.161471
5844026000 0.853675 -0.175736
5856024000 0.856465 -0.191416
5868022000 0.853327 -0.213705
5880020000 0.854362 -0.22294
5892018000 0.853217 -0.237866
5904016000 0.852525 -0.257528
5916014000 0.84964 -0.272043
5928012000 0.849146 -0.291686
5940010000 0.843638 -0.303402
5952008000 0.837999 -0.318894
5964006000 0.826971 -0.33363
5976004000 0.823343 -0.345332
5988002000 0.816641 -0.361567
6000000000 0.806928 -0.374888
