# Hz S RI R 50
1000000 0.992144 -0.00320593
12998000 1.0158 -0.0590974
24996000 1.01046 -0.128006
36994000 0.996777 -0.193826
48992000 0.979429 -0.256942
60990000 0.958936 -0.31654
72988000 0.933695 -0.375803
84986000 0.905622 -0.431493
96984000 0.874686 -0.485246
108982000 0.841128 -0.536971
120980000 0.805865 -0.586267
132978000 0.768562 -0.632809
144976000 0.729648 -0.677634
156974000 0.68863 -0.720208
168972000 0.646683 -0.759592
180970000 0.603651 -0.796375
192968000 0.558936 -0.829768
204966000 0.513507 -0.86055
216964000 0.467486 -0.887663
228962000 0.420627 -0.911402
240960000 0.374377 -0.931571
252958000 0.32799 -0.947965
264956000 0.281585 -0.961733
276954000 0.235099 -0.97247
288952000 0.190354 -0.979638
300950000 0.145241 -0.985015
312948000 0.101709 -0.987663
324946000 0.0599684 -0.988003
336944000 0.0189179 -0.987424
348942000 -0.0208171 -0.985593
360940000 -0.0610293 -0.981997
372938000 -0.0994258 -0.978892
384936000 -0.136724 -0.975214
396934000 -0.173642 -0.970779
408932000 -0.209896 -0.966024
420930000 -0.24489 -0.960594
432928000 -0.281092 -0.952894
444926000 -0.31495 -0.944242
456924000 -0.347623 -0.935561
468922000 -0.379511 -0.92639
480920000 -0.409154 -0.914869
492918000 -0.438071 -0.901379
504916000 -0.465576 -0.887643
516914000 -0.493833 -0.872919
528912000 -0.518375 -0.856873
540910000 -0.543518 -0.839731
552908000 -0.565953 -0.822575
564906000 -0.587654 -0.80539
576904000 -0.608417 -0.787714
588902000 -0.627957 -0.771112
600900000 -0.646305 -0.752989
612898000 -0.663988 -0.736666
624896000 -0.682201 -0.719756
636894000 -0.700015 -0.702999
648892000 -0.717306 -0.687099
660890000 -0.734274 -0.671335
672888000 -0.75111 -0.654822
684886000 -0.767873 -0.638561
696884000 -0.784552 -0.621149
708882000 -0.800039 -0.604156
720880000 -0.816428 -0.586325
732878000 -0.830263 -0.567352
744876000 -0.842984 -0.548587
756874000 -0.856207 -0.52954
768872000 -0.8685 -0.509045
780870000 -0.879194 -0.488839
792868000 -0.888423 -0.468953
804866000 -0.896244 -0.449337
816864000 -0.905336 -0.430417
828862000 -0.912781 -0.412518
840860000 -0.919481 -0.394888
852858000 -0.924511 -0.377235
864856000 -0.931515 -0.358531
876854000 -0.936798 -0.341235
888852000 -0.943875 -0.32461
900850000 -0.948999 -0.307737
912848000 -0.954839 -0.292067
924846000 -0.960426 -0.276463
936844000 -0.966169 -0.261219
948842000 -0.972551 -0.246122
960840000 -0.978844 -0.23282
972838000 -0.984319 -0.217222
984836000 -0.990067 -0.201672
996834000 -0.993419 -0.186573
1008832000 -0.996486 -0.171196
1020830000 -1.00034 -0.155423
1032828000 -1.003 -0.138065
1044826000 -1.00511 -0.122133
1056824000 -1.00705 -0.10577
1068822000 -1.00877 -0.0875131
1080820000 -1.00991 -0.0703734
1092818000 -1.00837 -0.0533138
1104816000 -1.00781 -0.0358539
1116814000 -1.0075 -0.0198827
1128812000 -1.00774 -0.0058471
1140810000 -1.00628 0.0113243
1152808000 -1.00617 0.024384
1164806000 -1.00646 0.0384125
1176804000 -1.00887 0.0549733
1188802000 -1.00419 0.0700288
1200800000 -1.00222 0.0805949
1212798000 -1.00269 0.0922301
1224796000 -1.00103 0.104926
1236794000 -1.00194 0.116918
1248792000 -1.00074 0.128069
1260790000 -1.00024 0.138836
1272788000 -0.999438 0.151428
1284786000 -0.996453 0.162101
1296784000 -0.992347 0.173206
1308782000 -0.989764 0.186781
1320780000 -0.987102 0.200164
1332778000 -0.984466 0.214111
1344776000 -0.981358 0.227846
1356774000 -0.978654 0.243362
1368772000 -0.975816 0.255451
1380770000 -0.971719 0.271341
1392768000 -0.967776 0.285628
1404766000 -0.963221 0.300401
1416764000 -0.958607 0.316488
1428762000 -0.953228 0.330809
1440760000 -0.947018 0.345406
1452758000 -0.942727 0.35764
1464756000 -0.938897 0.370339
1476754000 -0.934774 0.382827
1488752000 -0.930656 0.393688
1500750000 -0.926851 0.405022
1512748000 -0.918458 0.413182
1524746000 -0.912583 0.422567
1536744000 -0.906256 0.431018
1548742000 -0.899634 0.440949
1560740000 -0.893026 0.450639
1572738000 -0.88899 0.460789
1584736000 -0.884141 0.471139
1596734000 -0.880581 0.482589
1608732000 -0.875958 0.494118
1620730000 -0.871705 0.504092
1632728000 -0.866773 0.515538
1644726000 -0.860357 0.527179
1656724000 -0.853768 0.538987
1668722000 -0.846867 0.548463
1680720000 -0.841272 0.560789
1692718000 -0.836766 0.570057
1704716000 -0.831763 0.578783
1716714000 -0.825672 0.585602
1728712000 -0.818549 0.596516
1740710000 -0.809462 0.608971
1752708000 -0.800447 0.617881
1764706000 -0.790499 0.6254
1776704000 -0.781372 0.633389
1788702000 -0.772073 0.640357
1800700000 -0.760402 0.65133
1812698000 -0.750057 0.655988
1824696000 -0.741009 0.667789
1836694000 -0.732945 0.674427
1848692000 -0.725087 0.683665
1860690000 -0.716757 0.693842
1872688000 -0.707804 0.701896
1884686000 -0.699796 0.712014
1896684000 -0.692383 0.721567
1908682000 -0.683346 0.733254
1920680000 -0.676325 0.743496
1932678000 -0.668194 0.75396
1944676000 -0.660533 0.762983
1956674000 -0.654332 0.772669
1968672000 -0.649056 0.78017
1980670000 -0.641468 0.786316
1992668000 -0.637946 0.791791
2004666000 -0.632723 0.798217
2016664000 -0.628471 0.800704
2028662000 -0.621964 0.802653
2040660000 -0.615472 0.806048
2052658000 -0.607547 0.806761
2064656000 -0.599489 0.808345
2076654000 -0.588446 0.812553
2088652000 -0.578503 0.813918
2100650000 -0.566085 0.818218
2112648000 -0.552186 0.822181
2124646000 -0.539706 0.83018
2136644000 -0.525341 0.837146
2148642000 -0.512065 0.8476
2160640000 -0.497096 0.855735
2172638000 -0.48852 0.867106
2184636000 -0.477513 0.878976
2196634000 -0.467637 0.889539
2208632000 -0.461965 0.901234
2220630000 -0.456567 0.908429
2232628000 -0.453527 0.914613
2244626000 -0.451847 0.920554
2256624000 -0.45033 0.924611
2268622000 -0.442873 0.927496
2280620000 -0.441966 0.929581
2292618000 -0.437699 0.931236
2304616000 -0.432152 0.930556
2316614000 -0.425694 0.93042
2328612000 -0.413628 0.930333
2340610000 -0.401055 0.930031
2352608000 -0.384801 0.929997
2364606000 -0.370239 0.930799
2376604000 -0.354106 0.931804
2388602000 -0.336408 0.933517
2400600000 -0.318838 0.937236
2412598000 -0.304066 0.943055
2424596000 -0.288967 0.947045
2436594000 -0.271995 0.954148
2448592000 -0.259585 0.958798
2460590000 -0.245717 0.96608
2472588000 -0.235218 0.97411
2484586000 -0.227417 0.980696
2496584000 -0.220492 0.986461
2508582000 -0.211296 0.993937
2520580000 -0.200878 0.998066
2532578000 -0.197213 1.00304
2544576000 -0.188346 1.00667
2556574000 -0.181634 1.0081
2568572000 -0.17455 1.0108
2580570000 -0.163607 1.00996
2592568000 -0.157129 1.00683
2604566000 -0.146346 1.00402
2616564000 -0.139228 1.00038
2628562000 -0.128248 0.999092
2640560000 -0.118664 0.99335
2652558000 -0.106976 0.991607
2664556000 -0.0969089 0.991055
2676554000 -0.0847132 0.989714
2688552000 -0.0731113 0.987448
2700550000 -0.0588112 0.986326
2712548000 -0.0473928 0.984916
2724546000 -0.0333506 0.986113
2736544000 -0.0237075 0.991421
2748542000 -0.010899 0.99372
2760540000 -0.000160943 0.996561
2772538000 0.0109726 0.999846
2784536000 0.0214086 1.00363
2796534000 0.0310483 1.00412
2808532000 0.0404217 1.0073
2820530000 0.0468692 1.00714
2832528000 0.0564315 1.00707
2844526000 0.0650937 1.00782
2856524000 0.0726826 1.00443
2868522000 0.0803589 1.00176
2880520000 0.0871373 0.998564
2892518000 0.0960084 0.993245
2904516000 0.104695 0.99156
2916514000 0.112835 0.987831
2928512000 0.120811 0.98442
2940510000 0.124643 0.98188
2952508000 0.136451 0.976494
2964506000 0.14685 0.972902
2976504000 0.157839 0.971643
2988502000 0.17006 0.969917
3000500000 0.182148 0.967206
3012498000 0.193843 0.970106
3024496000 0.197296 0.97021
3036494000 0.212278 0.968841
3048492000 0.222584 0.968859
3060490000 0.23178 0.968334
3072488000 0.239306 0.966792
3084486000 0.246949 0.965417
3096484000 0.256089 0.963826
3108482000 0.2616 0.960633
3120480000 0.270767 0.95811
3132478000 0.274739 0.95374
3144476000 0.28718 0.950699
3156474000 0.294986 0.9497
3168472000 0.300271 0.945608
3180470000 0.309526 0.94047
3192468000 0.318377 0.936265
3204466000 0.327765 0.930312
3216464000 0.337239 0.925681
3228462000 0.348911 0.921319
3240460000 0.359332 0.914961
3252458000 0.371175 0.912301
3264456000 0.381089 0.909913
3276454000 0.392179 0.905606
3288452000 0.402632 0.900193
3300450000 0.408281 0.896952
3312448000 0.422442 0.890208
3324446000 0.430549 0.885166
3336444000 0.441554 0.881661
3348442000 0.449867 0.875365
3360440000 0.459872 0.871144
3372438000 0.467871 0.862605
3384436000 0.478588 0.858784
3396434000 0.485501 0.848289
3408432000 0.496315 0.84466
3420430000 0.508591 0.838704
3432428000 0.51539 0.832653
3444426000 0.529052 0.823549
3456424000 0.539823 0.817501
3468422000 0.548101 0.811037
3480420000 0.558389 0.803377
3492418000 0.568572 0.797302
3504416000 0.57995 0.791049
3516414000 0.587791 0.781825
3528412000 0.598103 0.77576
3540410000 0.605026 0.77478
3552408000 0.613105 0.76666
3564406000 0.623024 0.764312
3576404000 0.627066 0.757832
3588402000 0.634726 0.753121
3600400000 0.641379 0.743921
3612398000 0.647442 0.737509
3624396000 0.654321 0.72906
3636394000 0.662208 0.721835
3648392000 0.66884 0.715294
3660390000 0.676075 0.70893
3672388000 0.683281 0.699591
3684386000 0.690891 0.689591
3696384000 0.700218 0.684357
3708382000 0.705481 0.674231
3720380000 0.715809 0.664335
3732378000 0.722232 0.654547
3744376000 0.727359 0.646604
3756374000 0.736171 0.63648
3768372000 0.743825 0.627815
3780370000 0.752381 0.618071
3792368000 0.756446 0.61293
3804366000 0.762496 0.603393
3816364000 0.769551 0.596664
3828362000 0.774545 0.590371
3840360000 0.777135 0.5868
3852358000 0.782568 0.579273
3864356000 0.786914 0.573226
3876354000 0.789261 0.566754
3888352000 0.794597 0.560648
3900350000 0.798845 0.555241
3912348000 0.802214 0.548708
3924346000 0.807625 0.542843
3936344000 0.808942 0.537362
3948342000 0.811458 0.531323
3960340000 0.812721 0.527127
3972338000 0.815623 0.522018
3984336000 0.823361 0.510516
3996334000 0.826311 0.500823
4008332000 0.831673 0.492046
4020330000 0.838235 0.483662
4032328000 0.844957 0.47468
4044326000 0.847517 0.465112
4056324000 0.853645 0.454211
4068322000 0.855534 0.441892
4080320000 0.859928 0.42837
4092318000 0.865633 0.414301
4104316000 0.870654 0.396546
4116314000 0.876849 0.375223
4128312000 0.881819 0.359977
4140310000 0.889458 0.339903
4152308000 0.894869 0.324387
4164306000 0.903174 0.307068
4176304000 0.907674 0.293243
4188302000 0.912799 0.282073
4200300000 0.917635 0.274422
4212298000 0.916357 0.269967
4224296000 0.917336 0.268672
4236294000 0.920487 0.261776
4248292000 0.919952 0.262359
4260290000 0.925436 0.25338
4272288000 0.927043 0.251842
4284286000 0.928416 0.245285
4296284000 0.931381 0.238329
4308282000 0.932111 0.227037
4320280000 0.932983 0.215311
4332278000 0.928245 0.197704
4344276000 0.924067 0.188581
4356274000 0.931654 0.174125
4368272000 0.925162 0.160386
4380270000 0.924847 0.144132
4392268000 0.920969 0.12321
4404266000 0.920891 0.107084
4416264000 0.9198 0.0848218
4428262000 0.918891 0.0664599
4440260000 0.92022 0.0471359
4452258000 0.925163 0.03205
4464256000 0.927821 0.014973
4476254000 0.928352 -0.0031654
4488252000 0.930998 -0.013652
4500250000 0.929741 -0.0230548
4512248000 0.92955 -0.0384797
4524246000 0.932034 -0.0483312
4536244000 0.931326 -0.0575383
4548242000 0.930755 -0.0685586
4560240000 0.931824 -0.0716648
4572238000 0.92752 -0.078607
4584236000 0.924971 -0.0890272
4596234000 0.919134 -0.0960115
4608232000 0.913224 -0.103787
4620230000 0.905937 -0.120241
4632228000 0.8975 -0.134584
4644226000 0.888231 -0.150509
4656224000 0.878867 -0.168357
4668222000 0.870162 -0.185236
4680220000 0.859046 -0.204554
4692218000 0.85623 -0.224211
4704216000 0.842911 -0.242807
4716214000 0.833991 -0.25968
4728212000 0.822463 -0.277053
4740210000 0.809762 -0.293437
4752208000 0.797769 -0.31238
4764206000 0.787655 -0.331194
4776204000 0.776922 -0.346226
4788202000 0.769317 -0.36151
4800200000 0.756098 -0.377421
4812198000 0.748375 -0.393781
4824196000 0.739042 -0.406125
4836194000 0.725585 -0.413319
4848192000 0.712513 -0.428497
4860190000 0.69673 -0.434974
4872188000 0.682789 -0.446913
4884186000 0.661025 -0.453402
4896184000 0.639558 -0.46136
4908182000 0.620895 -0.473981
4920180000 0.592775 -0.479573
4932178000 0.569057 -0.492156
4944176000 0.538784 -0.497171
4956174000 0.511638 -0.505975
4968172000 0.477103 -0.505819
4980170000 0.444201 -0.510828
4992168000 0.409975 -0.510827
5004166000 0.376272 -0.512963
5016164000 0.339573 -0.5148
5028162000 0.305235 -0.510544
5040160000 0.26807 -0.503852
5052158000 0.233052 -0.498312
5064156000 0.198888 -0.48473
5076154000 0.168178 -0.470401
5088152000 0.134847 -0.456577
5100150000 0.106577 -0.434051
5112148000 0.0833718 -0.410957
5124146000 0.0569927 -0.384167
5136144000 0.0330795 -0.350157
5148142000 0.0153734 -0.318006
5160140000 -0.000873272 -0.276648
5172138000 -0.00590009 -0.238439
5184136000 -0.00990328 -0.193782
5196134000 -0.0141065 -0.146414
5208132000 -0.0108911 -0.0954984
5220130000 -0.0106297 -0.0504252
5232128000 -0.00639912 -0.00138545
5244126000 -0.00223437 0.0448615
5256124000 0.00820415 0.0862684
5268122000 0.0202455 0.130913
5280120000 0.0379474 0.165742
5292118000 0.0593805 0.197728
5304116000 0.0919458 0.222823
5316114000 0.122511 0.24261
5328112000 0.15981 0.261082
5340110000 0.200929 0.276477
5352108000 0.230191 0.286832
5364106000 0.271091 0.29949
5376104000 0.305927 0.305
5388102000 0.336682 0.308661
5400100000 0.369153 0.31044
5412098000 0.398727 0.309607
5424096000 0.429064 0.305663
5436094000 0.458198 0.301929
5448092000 0.483686 0.295024
5460090000 0.511196 0.28748
5472088000 0.53769 0.27673
5484086000 0.563934 0.266307
5496084000 0.58902 0.251169
5508082000 0.614552 0.238559
5520080000 0.634205 0.224047
5532078000 0.657552 0.210943
5544076000 0.676614 0.195234
5556074000 0.695728 0.18083
5568072000 0.709319 0.171408
5580070000 0.726168 0.156397
5592068000 0.739317 0.142898
5604066000 0.754653 0.128979
5616064000 0.758705 0.113297
5628062000 0.773727 0.102517
5640060000 0.776477 0.0931955
5652058000 0.785058 0.0768711
5664056000 0.789906 0.060746
5676054000 0.795404 0.0455528
5688052000 0.798093 0.0306196
5700050000 0.804525 0.0147221
5712048000 0.807732 -0.00173019
5724046000 0.812754 -0.0186255
5736044000 0.818993 -0.0354651
5748042000 0.822973 -0.0512055
5760040000 0.823555 -0.0676659
5772038000 0.829378 -0.0851874
5784036000 0.833765 -0.0997773
5796034000 0.837718 -0.117026
5808032000 0.842273 -0.127371
5820030000 0.845582 -0.147312
5832028000 0.851615 -0.161754
5844026000 0.853899 -0.175873
5856024000 0.857925 -0.192158
5868022000 0.852956 -0.214173
5880020000 0.850286 -0.220081
5892018000 0.857037 -0.238143
5904016000 0.851325 -0.256354
5916014000 0.848687 -0.272775
5928012000 0.847368 -0.290941
5940010000 0.842163 -0.306764
5952008000 0.832505 -0.319765
5964006000 0.823153 -0.329278
5976004000 0.823118 -0.347524
5988002000 0.816579 -0.361432
6000000000 0.806284 -0.37505
