# Hz S RI R 50
1000000 0.988349 -0.00183038
12998000 1.0158 -0.0585086
24996000 1.01073 -0.127487
36994000 0.997205 -0.193295
48992000 0.979914 -0.256487
60990000 0.959563 -0.316253
72988000 0.934332 -0.375035
84986000 0.90632 -0.430906
96984000 0.875152 -0.484549
108982000 0.841591 -0.536654
120980000 0.806106 -0.585808
132978000 0.768983 -0.632464
144976000 0.730395 -0.677258
156974000 0.689375 -0.719963
168972000 0.647115 -0.759328
180970000 0.604216 -0.795805
192968000 0.55976 -0.829365
204966000 0.514199 -0.860533
216964000 0.467908 -0.887766
228962000 0.421177 -0.911453
240960000 0.374932 -0.931597
252958000 0.328432 -0.948285
264956000 0.282235 -0.961821
276954000 0.235823 -0.972728
288952000 0.190832 -0.98002
300950000 0.146153 -0.985116
312948000 0.102584 -0.987836
324946000 0.0604503 -0.988538
336944000 0.019352 -0.987414
348942000 -0.0201549 -0.985834
360940000 -0.0604076 -0.982374
372938000 -0.098964 -0.979062
384936000 -0.13619 -0.975479
396934000 -0.172804 -0.971022
408932000 -0.209869 -0.966048
420930000 -0.244985 -0.960512
432928000 -0.280837 -0.953375
444926000 -0.314293 -0.944802
456924000 -0.346823 -0.936358
468922000 -0.378701 -0.926758
480920000 -0.408814 -0.914873
492918000 -0.437566 -0.902035
504916000 -0.465294 -0.887976
516914000 -0.49327 -0.873746
528912000 -0.518476 -0.857103
540910000 -0.543242 -0.840677
552908000 -0.565731 -0.822917
564906000 -0.587615 -0.805919
576904000 -0.608573 -0.788384
588902000 -0.627935 -0.771277
600900000 -0.646752 -0.753725
612898000 -0.663739 -0.737348
624896000 -0.68164 -0.72047
636894000 -0.699643 -0.703765
648892000 -0.716919 -0.687847
660890000 -0.73392 -0.671973
672888000 -0.75045 -0.655369
684886000 -0.767505 -0.639332
696884000 -0.783909 -0.621087
708882000 -0.800013 -0.60481
720880000 -0.815894 -0.58698
732878000 -0.829847 -0.567952
744876000 -0.843296 -0.549151
756874000 -0.856201 -0.530157
768872000 -0.868359 -0.509754
780870000 -0.879116 -0.489467
792868000 -0.88837 -0.469905
804866000 -0.896641 -0.449991
816864000 -0.905717 -0.431065
828862000 -0.912825 -0.413138
840860000 -0.919303 -0.395235
852858000 -0.924371 -0.377352
864856000 -0.931605 -0.359345
876854000 -0.937272 -0.341753
888852000 -0.944099 -0.325244
900850000 -0.949258 -0.308457
912848000 -0.954968 -0.292516
924846000 -0.960487 -0.277039
936844000 -0.96622 -0.261374
948842000 -0.972401 -0.247088
960840000 -0.978703 -0.233852
972838000 -0.984266 -0.218188
984836000 -0.989189 -0.202037
996834000 -0.993597 -0.186581
1008832000 -0.996716 -0.171411
1020830000 -1.00045 -0.156069
1032828000 -1.00317 -0.139114
1044826000 -1.00531 -0.122772
1056824000 -1.0073 -0.106491
1068822000 -1.00887 -0.0886121
1080820000 -1.01052 -0.0728933
1092818000 -1.0085 -0.0538305
1104816000 -1.00813 -0.0366143
1116814000 -1.00759 -0.0208416
1128812000 -1.0084 -0.0060139
1140810000 -1.00617 0.00962768
1152808000 -1.00641 0.0233057
1164806000 -1.00626 0.0377638
1176804000 -1.00913 0.0538888
1188802000 -1.00442 0.0693035
1200800000 -1.00269 0.080019
1212798000 -1.00279 0.092033
1224796000 -1.00301 0.104191
1236794000 -1.00193 0.11566
1248792000 -1.00115 0.127465
1260790000 -1.00093 0.138837
1272788000 -0.999769 0.150154
1284786000 -0.99685 0.161719
1296784000 -0.993152 0.173011
1308782000 -0.990378 0.185818
1320780000 -0.987534 0.199408
1332778000 -0.985113 0.21302
1344776000 -0.981919 0.227072
1356774000 -0.979369 0.242274
1368772000 -0.976831 0.255291
1380770000 -0.973363 0.269829
1392768000 -0.968549 0.285266
1404766000 -0.963719 0.300754
1416764000 -0.958668 0.31693
1428762000 -0.953101 0.330621
1440760000 -0.94798 0.344099
1452758000 -0.943221 0.357302
1464756000 -0.939116 0.369365
1476754000 -0.935341 0.382374
1488752000 -0.930846 0.392817
1500750000 -0.925322 0.403911
1512748000 -0.918636 0.413157
1524746000 -0.912733 0.421323
1536744000 -0.906678 0.430156
1548742000 -0.899804 0.44031
1560740000 -0.895394 0.450012
1572738000 -0.889422 0.460049
1584736000 -0.884499 0.47085
1596734000 -0.880866 0.481859
1608732000 -0.876548 0.493387
1620730000 -0.871935 0.504136
1632728000 -0.867285 0.515301
1644726000 -0.860771 0.526862
1656724000 -0.853882 0.537626
1668722000 -0.848891 0.548095
1680720000 -0.842928 0.559582
1692718000 -0.837836 0.569095
1704716000 -0.832148 0.578106
1716714000 -0.824764 0.58644
1728712000 -0.818898 0.59524
1740710000 -0.809923 0.60737
1752708000 -0.801281 0.617627
1764706000 -0.791299 0.624951
1776704000 -0.781927 0.633113
1788702000 -0.77251 0.640062
1800700000 -0.761958 0.648468
1812698000 -0.750089 0.65625
1824696000 -0.742184 0.666398
1836694000 -0.732653 0.673499
1848692000 -0.725613 0.683352
1860690000 -0.716841 0.692378
1872688000 -0.708328 0.702132
1884686000 -0.700346 0.71204
1896684000 -0.693034 0.721292
1908682000 -0.684076 0.732679
1920680000 -0.67763 0.743152
1932678000 -0.669135 0.754523
1944676000 -0.660548 0.7616
1956674000 -0.655806 0.772074
1968672000 -0.649662 0.779729
1980670000 -0.641632 0.787793
1992668000 -0.637647 0.793741
2004666000 -0.634027 0.797547
2016664000 -0.629165 0.800221
2028662000 -0.622524 0.801908
2040660000 -0.615727 0.804797
2052658000 -0.608325 0.806493
2064656000 -0.600247 0.808318
2076654000 -0.590181 0.811869
2088652000 -0.57919 0.813984
2100650000 -0.567346 0.818317
2112648000 -0.553365 0.823389
2124646000 -0.541294 0.830318
2136644000 -0.526229 0.837324
2148642000 -0.511842 0.847353
2160640000 -0.498231 0.856966
2172638000 -0.488346 0.866852
2184636000 -0.478538 0.878698
2196634000 -0.468322 0.889491
2208632000 -0.463358 0.90141
2220630000 -0.457959 0.908114
2232628000 -0.455068 0.914865
2244626000 -0.453889 0.920875
2256624000 -0.450904 0.925067
2268622000 -0.444415 0.926877
2280620000 -0.442997 0.926978
2292618000 -0.439524 0.931397
2304616000 -0.433544 0.93096
2316614000 -0.426848 0.930147
2328612000 -0.415227 0.930232
2340610000 -0.402594 0.929956
2352608000 -0.386701 0.930963
2364606000 -0.37049 0.931383
2376604000 -0.354002 0.931542
2388602000 -0.337987 0.932454
2400600000 -0.320235 0.938485
2412598000 -0.304009 0.94375
2424596000 -0.28941 0.948155
2436594000 -0.273491 0.954321
2448592000 -0.260828 0.958788
2460590000 -0.246053 0.966169
2472588000 -0.235754 0.973852
2484586000 -0.228581 0.980796
2496584000 -0.219172 0.98848
2508582000 -0.211846 0.995271
2520580000 -0.202302 0.997174
2532578000 -0.196727 1.00143
2544576000 -0.190304 1.00712
2556574000 -0.182864 1.00671
2568572000 -0.175652 1.0101
2580570000 -0.165558 1.00864
2592568000 -0.158993 1.00698
2604566000 -0.147296 1.00405
2616564000 -0.14022 1.00017
2628562000 -0.130091 0.998833
2640560000 -0.1208 0.993077
2652558000 -0.109724 0.990469
2664556000 -0.097818 0.988477
2676554000 -0.0852145 0.989543
2688552000 -0.0737559 0.986521
2700550000 -0.0614351 0.985965
2712548000 -0.0477162 0.985083
2724546000 -0.0346952 0.987338
2736544000 -0.0243964 0.991584
2748542000 -0.0117957 0.994075
2760540000 -0.000804952 0.996977
2772538000 0.0101238 1.00048
2784536000 0.0199735 1.00365
2796534000 0.0304522 1.00555
2808532000 0.03782 1.00649
2820530000 0.0478054 1.00826
2832528000 0.0543977 1.00863
2844526000 0.0635078 1.00802
2856524000 0.070971 1.00351
2868522000 0.0792221 1.00161
2880520000 0.0873709 0.998566
2892518000 0.0949641 0.993618
2904516000 0.102968 0.992174
2916514000 0.111606 0.988038
2928512000 0.118937 0.985072
2940510000 0.122849 0.983379
2952508000 0.13343 0.977539
2964506000 0.14636 0.974495
2976504000 0.15662 0.9726
2988502000 0.169892 0.97196
3000500000 0.179484 0.971561
3012498000 0.193037 0.971644
3024496000 0.196218 0.97104
3036494000 0.210592 0.970603
3048492000 0.221054 0.969127
3060490000 0.230431 0.968346
3072488000 0.238673 0.966968
3084486000 0.247056 0.966173
3096484000 0.255809 0.963313
3108482000 0.259429 0.961947
3120480000 0.269552 0.960845
3132478000 0.273924 0.955147
3144476000 0.285404 0.951173
3156474000 0.292994 0.949096
3168472000 0.299269 0.945389
3180470000 0.308578 0.940844
3192468000 0.317667 0.936812
3204466000 0.326627 0.930694
3216464000 0.336851 0.926597
3228462000 0.348499 0.920182
3240460000 0.359184 0.917701
3252458000 0.37155 0.912153
3264456000 0.382235 0.910274
3276454000 0.390975 0.907236
3288452000 0.401753 0.90271
3300450000 0.408828 0.896651
3312448000 0.420703 0.891317
3324446000 0.429538 0.884999
3336444000 0.440756 0.882031
3348442000 0.449203 0.875828
3360440000 0.45809 0.871133
3372438000 0.46804 0.863979
3384436000 0.477546 0.858182
3396434000 0.484805 0.850749
3408432000 0.494081 0.844656
3420430000 0.507933 0.839052
3432428000 0.515004 0.832439
3444426000 0.527274 0.824207
3456424000 0.538946 0.818206
3468422000 0.546346 0.811294
3480420000 0.557416 0.804259
3492418000 0.567736 0.798618
3504416000 0.578551 0.792009
3516414000 0.587344 0.783419
3528412000 0.597992 0.781148
3540410000 0.604425 0.774233
3552408000 0.611631 0.769263
3564406000 0.619869 0.766106
3576404000 0.627249 0.755925
3588402000 0.633879 0.754536
3600400000 0.640643 0.744485
3612398000 0.647094 0.73852
3624396000 0.653609 0.730056
3636394000 0.661646 0.722488
3648392000 0.668486 0.716373
3660390000 0.676039 0.709692
3672388000 0.683871 0.701562
3684386000 0.690822 0.689177
3696384000 0.698378 0.683005
3708382000 0.707431 0.676097
3720380000 0.715138 0.665336
3732378000 0.722777 0.655268
3744376000 0.726293 0.648507
3756374000 0.736105 0.636511
3768372000 0.743134 0.629232
3780370000 0.751119 0.619103
3792368000 0.755967 0.613707
3804366000 0.764655 0.606062
3816364000 0.767713 0.596427
3828362000 0.773727 0.592044
3840360000 0.778922 0.588135
3852358000 0.783097 0.582095
3864356000 0.786044 0.573156
3876354000 0.789186 0.569471
3888352000 0.794668 0.561875
3900350000 0.797876 0.55696
3912348000 0.801573 0.550256
3924346000 0.806591 0.544491
3936344000 0.808875 0.538516
3948342000 0.81273 0.5321
3960340000 0.811553 0.52791
3972338000 0.817145 0.521232
3984336000 0.821883 0.510365
3996334000 0.825506 0.502926
4008332000 0.831488 0.493589
4020330000 0.840439 0.486157
4032328000 0.843977 0.476092
4044326000 0.847439 0.466886
4056324000 0.852801 0.455276
4068322000 0.8554 0.443359
4080320000 0.859683 0.429184
4092318000 0.865683 0.415534
4104316000 0.872363 0.396644
4116314000 0.876216 0.376586
4128312000 0.882091 0.360779
4140310000 0.88938 0.340951
4152308000 0.895429 0.324322
4164306000 0.901112 0.306406
4176304000 0.907353 0.295748
4188302000 0.912421 0.283646
4200300000 0.917279 0.276988
4212298000 0.915819 0.270416
4224296000 0.916801 0.269436
4236294000 0.919977 0.262607
4248292000 0.918391 0.263236
4260290000 0.92771 0.256929
4272288000 0.925806 0.255057
4284286000 0.928134 0.249199
4296284000 0.930144 0.239283
4308282000 0.929767 0.227591
4320280000 0.928935 0.21427
4332278000 0.929765 0.201713
4344276000 0.930548 0.189744
4356274000 0.931973 0.176234
4368272000 0.92399 0.162403
4380270000 0.924628 0.145444
4392268000 0.920853 0.124683
4404266000 0.920538 0.108849
4416264000 0.919187 0.085811
4428262000 0.919069 0.0671629
4440260000 0.921551 0.0486047
4452258000 0.924604 0.0310481
4464256000 0.927809 0.0147302
4476254000 0.928392 0.000174157
4488252000 0.929294 -0.0131573
4500250000 0.930016 -0.0228305
4512248000 0.929728 -0.0375991
4524246000 0.931818 -0.0471936
4536244000 0.932783 -0.0570689
4548242000 0.93036 -0.0658826
4560240000 0.933002 -0.0727202
4572238000 0.930261 -0.0766713
4584236000 0.928842 -0.0867724
4596234000 0.921375 -0.0962085
4608232000 0.912879 -0.102978
4620230000 0.903418 -0.116957
4632228000 0.898766 -0.132317
4644226000 0.8891 -0.149869
4656224000 0.879474 -0.167768
4668222000 0.870526 -0.184218
4680220000 0.858977 -0.203797
4692218000 0.856334 -0.224059
4704216000 0.84256 -0.242169
4716214000 0.833803 -0.259496
4728212000 0.822286 -0.276133
4740210000 0.811458 -0.294355
4752208000 0.797132 -0.313158
4764206000 0.788438 -0.329425
4776204000 0.77789 -0.346063
4788202000 0.769629 -0.361318
4800200000 0.7563 -0.37733
4812198000 0.748917 -0.393609
4824196000 0.739167 -0.406606
4836194000 0.724956 -0.416989
4848192000 0.713148 -0.427579
4860190000 0.697573 -0.434991
4872188000 0.68525 -0.441805
4884186000 0.660209 -0.452448
4896184000 0.639375 -0.461201
4908182000 0.621026 -0.475328
4920180000 0.593039 -0.480318
4932178000 0.568685 -0.492096
4944176000 0.539585 -0.496633
4956174000 0.512466 -0.505418
4968172000 0.476969 -0.506105
4980170000 0.444439 -0.509306
4992168000 0.410474 -0.51189
5004166000 0.376808 -0.511058
5016164000 0.339079 -0.513187
5028162000 0.304436 -0.510225
5040160000 0.26881 -0.504255
5052158000 0.233316 -0.497977
5064156000 0.19908 -0.484476
5076154000 0.168602 -0.470821
5088152000 0.13453 -0.45679
5100150000 0.105612 -0.432796
5112148000 0.083491 -0.409995
5124146000 0.0554954 -0.383106
5136144000 0.03317 -0.349761
5148142000 0.0151607 -0.317711
5160140000 -0.000500842 -0.276233
5172138000 -0.00599526 -0.238002
5184136000 -0.00962166 -0.193344
5196134000 -0.014307 -0.145305
5208132000 -0.0112146 -0.0950156
5220130000 -0.00992882 -0.0497227
5232128000 -0.00617886 -0.00121511
5244126000 -0.00220279 0.0452168
5256124000 0.00836952 0.0866897
5268122000 0.0202896 0.131184
5280120000 0.0378621 0.16602
5292118000 0.0595113 0.198073
5304116000 0.092005 0.222747
5316114000 0.123292 0.243146
5328112000 0.160308 0.260908
5340110000 0.201027 0.27702
5352108000 0.230603 0.286709
5364106000 0.271879 0.299057
5376104000 0.303663 0.304021
5388102000 0.336989 0.309766
5400100000 0.367902 0.310046
5412098000 0.398441 0.309169
5424096000 0.429351 0.305805
5436094000 0.458275 0.302245
5448092000 0.48391 0.295374
5460090000 0.511878 0.288012
5472088000 0.538141 0.276926
5484086000 0.563828 0.266173
5496084000 0.589307 0.251944
5508082000 0.614326 0.239949
5520080000 0.635051 0.224784
5532078000 0.657687 0.211687
5544076000 0.676773 0.196236
5556074000 0.695612 0.181419
5568072000 0.710083 0.172196
5580070000 0.725431 0.158409
5592068000 0.739498 0.143644
5604066000 0.754662 0.130397
5616064000 0.759551 0.115716
5628062000 0.773212 0.104052
5640060000 0.776403 0.0914966
5652058000 0.782881 0.076979
5664056000 0.78949 0.0625463
5676054000 0.79722 0.0465965
5688052000 0.797935 0.0314066
5700050000 0.804265 0.0161859
5712048000 0.807839 -0.00129257
5724046000 0.812951 -0.0181981
5736044000 0.819252 -0.034442
5748042000 0.822302 -0.0506354
5760040000 0.826275 -0.0660304
5772038000 0.828853 -0.0844933
5784036000 0.834183 -0.0971555
5796034000 0.838788 -0.114753
5808032000 0.843227 -0.126505
5820030000 0.845586 -0.14645
5832028000 0.851976 -0.160473
5844026000 0.854052 -0.174152
5856024000 0.858549 -0.190397
5868022000 0.856894 -0.211917
5880020000 0.848699 -0.222514
5892018000 0.856942 -0.237522
5904016000 0.857413 -0.256066
5916014000 0.85301 -0.269509
5928012000 0.847743 -0.289372
5940010000 0.841908 -0.303115
5952008000 0.839984 -0.319309
5964006000 0.825436 -0.332565
5976004000 0.825592 -0.347502
5988002000 0.816465 -0.361402
6000000000 0.807658 -0.374982
