# Hz S RI R 50
1000000 0.987895 -0.00534915
12998000 1.01531 -0.0586952
24996000 1.01004 -0.127771
36994000 0.996505 -0.193477
48992000 0.979249 -0.256743
60990000 0.95885 -0.31641
72988000 0.933692 -0.375226
84986000 0.905789 -0.430929
96984000 0.874755 -0.484814
108982000 0.841134 -0.5365
120980000 0.805764 -0.586012
132978000 0.768576 -0.63252
144976000 0.729339 -0.677379
156974000 0.688846 -0.720013
168972000 0.646404 -0.759498
180970000 0.603852 -0.795982
192968000 0.55897 -0.829346
204966000 0.513841 -0.860253
216964000 0.467635 -0.887175
228962000 0.420781 -0.911095
240960000 0.374436 -0.931202
252958000 0.328085 -0.94772
264956000 0.281939 -0.961257
276954000 0.23559 -0.972301
288952000 0.190638 -0.979452
300950000 0.145586 -0.984593
312948000 0.102332 -0.987298
324946000 0.060439 -0.987908
336944000 0.0194393 -0.987069
348942000 -0.0205974 -0.985392
360940000 -0.0606513 -0.982083
372938000 -0.0993839 -0.978787
384936000 -0.136374 -0.975103
396934000 -0.173364 -0.970554
408932000 -0.209993 -0.96595
420930000 -0.244929 -0.960124
432928000 -0.280682 -0.953064
444926000 -0.314619 -0.944182
456924000 -0.3471 -0.935629
468922000 -0.379401 -0.925964
480920000 -0.409092 -0.914678
492918000 -0.437621 -0.901513
504916000 -0.465524 -0.887342
516914000 -0.493251 -0.872971
528912000 -0.518659 -0.856554
540910000 -0.543489 -0.840051
552908000 -0.565904 -0.822599
564906000 -0.587324 -0.805625
576904000 -0.608403 -0.787861
588902000 -0.628118 -0.770957
600900000 -0.646341 -0.753678
612898000 -0.663966 -0.736812
624896000 -0.68195 -0.719985
636894000 -0.699733 -0.703364
648892000 -0.717267 -0.687406
660890000 -0.734252 -0.671441
672888000 -0.751049 -0.655036
684886000 -0.767737 -0.638902
696884000 -0.784415 -0.620905
708882000 -0.799855 -0.603707
720880000 -0.815988 -0.58655
732878000 -0.82996 -0.567326
744876000 -0.842853 -0.548885
756874000 -0.855919 -0.529934
768872000 -0.868145 -0.509606
780870000 -0.878627 -0.489508
792868000 -0.887711 -0.469498
804866000 -0.896304 -0.449754
816864000 -0.905451 -0.430745
828862000 -0.912843 -0.412991
840860000 -0.920262 -0.394672
852858000 -0.924304 -0.377161
864856000 -0.93166 -0.358919
876854000 -0.936769 -0.341348
888852000 -0.943994 -0.32494
900850000 -0.949338 -0.307659
912848000 -0.954648 -0.292145
924846000 -0.96034 -0.2766
936844000 -0.965788 -0.261295
948842000 -0.972538 -0.246743
960840000 -0.97831 -0.232856
972838000 -0.984014 -0.218131
984836000 -0.989405 -0.202132
996834000 -0.993521 -0.186735
1008832000 -0.996367 -0.171404
1020830000 -1.00012 -0.155754
1032828000 -1.00278 -0.138717
1044826000 -1.00515 -0.122652
1056824000 -1.00678 -0.105945
1068822000 -1.00883 -0.0887474
1080820000 -1.00845 -0.0708722
1092818000 -1.00927 -0.054195
1104816000 -1.00853 -0.037044
1116814000 -1.00679 -0.0214917
1128812000 -1.00769 -0.00573835
1140810000 -1.00554 0.00946757
1152808000 -1.0064 0.0240992
1164806000 -1.00633 0.0380005
1176804000 -1.00885 0.0536737
1188802000 -1.00407 0.0697725
1200800000 -1.00235 0.0799687
1212798000 -1.00269 0.0921315
1224796000 -1.00192 0.10451
1236794000 -1.00222 0.116017
1248792000 -1.00045 0.127431
1260790000 -1.00014 0.138557
1272788000 -0.999383 0.150447
1284786000 -0.996808 0.161412
1296784000 -0.992679 0.172372
1308782000 -0.989984 0.185973
1320780000 -0.987318 0.199456
1332778000 -0.984385 0.213178
1344776000 -0.981585 0.227346
1356774000 -0.979363 0.242136
1368772000 -0.976403 0.254712
1380770000 -0.972161 0.270113
1392768000 -0.968212 0.284361
1404766000 -0.963468 0.300152
1416764000 -0.958135 0.31607
1428762000 -0.953377 0.33038
1440760000 -0.947772 0.344844
1452758000 -0.942826 0.356991
1464756000 -0.93887 0.369959
1476754000 -0.934691 0.382286
1488752000 -0.930487 0.393276
1500750000 -0.926506 0.404883
1512748000 -0.91863 0.413063
1524746000 -0.912268 0.421618
1536744000 -0.906194 0.430909
1548742000 -0.900041 0.440377
1560740000 -0.894634 0.45007
1572738000 -0.888928 0.460758
1584736000 -0.884541 0.470917
1596734000 -0.880841 0.48195
1608732000 -0.876278 0.493694
1620730000 -0.872084 0.503745
1632728000 -0.866974 0.515342
1644726000 -0.861257 0.527465
1656724000 -0.85416 0.538013
1668722000 -0.848263 0.548116
1680720000 -0.842248 0.560364
1692718000 -0.836849 0.569281
1704716000 -0.832488 0.578787
1716714000 -0.823777 0.585333
1728712000 -0.818631 0.595357
1740710000 -0.808955 0.606995
1752708000 -0.800987 0.61703
1764706000 -0.791542 0.624171
1776704000 -0.782107 0.63261
1788702000 -0.772655 0.639664
1800700000 -0.761914 0.648784
1812698000 -0.750707 0.655379
1824696000 -0.742989 0.66526
1836694000 -0.733774 0.674008
1848692000 -0.7258 0.683499
1860690000 -0.717712 0.69206
1872688000 -0.708449 0.701974
1884686000 -0.700445 0.711572
1896684000 -0.692758 0.721115
1908682000 -0.683655 0.732488
1920680000 -0.677143 0.743443
1932678000 -0.669053 0.753949
1944676000 -0.660544 0.763057
1956674000 -0.654655 0.771884
1968672000 -0.649561 0.78035
1980670000 -0.643622 0.787806
1992668000 -0.638484 0.792394
2004666000 -0.63412 0.796809
2016664000 -0.629654 0.799809
2028662000 -0.624048 0.801365
2040660000 -0.616352 0.804406
2052658000 -0.609267 0.806176
2064656000 -0.600801 0.807961
2076654000 -0.590403 0.81186
2088652000 -0.579057 0.814133
2100650000 -0.56637 0.817185
2112648000 -0.55401 0.822161
2124646000 -0.541342 0.83066
2136644000 -0.526781 0.836651
2148642000 -0.512792 0.847279
2160640000 -0.498476 0.855487
2172638000 -0.488052 0.866113
2184636000 -0.478481 0.878523
2196634000 -0.468749 0.889663
2208632000 -0.461903 0.901328
2220630000 -0.458134 0.908093
2232628000 -0.455081 0.915491
2244626000 -0.452884 0.920639
2256624000 -0.448629 0.924835
2268622000 -0.444429 0.926065
2280620000 -0.441224 0.927325
2292618000 -0.439167 0.930873
2304616000 -0.433704 0.930295
2316614000 -0.427076 0.929882
2328612000 -0.414883 0.929991
2340610000 -0.403173 0.929911
2352608000 -0.386488 0.929543
2364606000 -0.371057 0.931254
2376604000 -0.355548 0.931807
2388602000 -0.336996 0.932865
2400600000 -0.320311 0.936882
2412598000 -0.303889 0.942179
2424596000 -0.289111 0.948717
2436594000 -0.272803 0.95392
2448592000 -0.260318 0.958147
2460590000 -0.246634 0.966135
2472588000 -0.236184 0.974129
2484586000 -0.22799 0.980511
2496584000 -0.221153 0.987611
2508582000 -0.211373 0.993472
2520580000 -0.202811 0.998631
2532578000 -0.196368 1.00209
2544576000 -0.19008 1.00633
2556574000 -0.182272 1.00813
2568572000 -0.175448 1.01126
2580570000 -0.166116 1.00897
2592568000 -0.158968 1.00746
2604566000 -0.155135 1.00322
2616564000 -0.14102 0.999963
2628562000 -0.129962 0.998937
2640560000 -0.120818 0.992053
2652558000 -0.110333 0.992803
2664556000 -0.0980635 0.989366
2676554000 -0.0863881 0.98859
2688552000 -0.0729643 0.986751
2700550000 -0.0605007 0.986827
2712548000 -0.0480313 0.986525
2724546000 -0.0347424 0.987382
2736544000 -0.0246296 0.99197
2748542000 -0.0123141 0.993566
2760540000 -0.000872797 0.996497
2772538000 0.00972457 1.00039
2784536000 0.0195368 1.00394
2796534000 0.0298325 1.00493
2808532000 0.0372318 1.00855
2820530000 0.0465295 1.00698
2832528000 0.055015 1.008
2844526000 0.0637602 1.00865
2856524000 0.0717664 1.00516
2868522000 0.0785142 1.0023
2880520000 0.0860312 0.998928
2892518000 0.0944131 0.993793
2904516000 0.103222 0.992155
2916514000 0.111018 0.988054
2928512000 0.119659 0.984745
2940510000 0.123404 0.98329
2952508000 0.134529 0.977478
2964506000 0.145551 0.974121
2976504000 0.156226 0.97018
2988502000 0.167791 0.972744
3000500000 0.176753 0.970031
3012498000 0.192541 0.97036
3024496000 0.196878 0.970748
3036494000 0.210005 0.970228
3048492000 0.22145 0.969093
3060490000 0.230432 0.968441
3072488000 0.238139 0.967017
3084486000 0.246767 0.966081
3096484000 0.255094 0.963546
3108482000 0.261507 0.961188
3120480000 0.269434 0.958707
3132478000 0.273841 0.95543
3144476000 0.286122 0.950986
3156474000 0.293029 0.94956
3168472000 0.299385 0.945239
3180470000 0.307874 0.941246
3192468000 0.317031 0.936598
3204466000 0.326732 0.930859
3216464000 0.336473 0.926169
3228462000 0.347794 0.922623
3240460000 0.359309 0.916695
3252458000 0.371542 0.912607
3264456000 0.381582 0.908352
3276454000 0.390195 0.906561
3288452000 0.401637 0.90237
3300450000 0.40753 0.894682
3312448000 0.420849 0.890725
3324446000 0.42955 0.885473
3336444000 0.440392 0.8819
3348442000 0.449151 0.875477
3360440000 0.458487 0.87055
3372438000 0.467352 0.863741
3384436000 0.477798 0.860311
3396434000 0.485352 0.848743
3408432000 0.495165 0.845659
3420430000 0.50889 0.839403
3432428000 0.514614 0.831388
3444426000 0.528172 0.823785
3456424000 0.538156 0.817687
3468422000 0.546004 0.811147
3480420000 0.557576 0.804136
3492418000 0.568241 0.798376
3504416000 0.578482 0.793145
3516414000 0.588802 0.785191
3528412000 0.598909 0.77939
3540410000 0.603766 0.776235
3552408000 0.611313 0.769478
3564406000 0.618475 0.765712
3576404000 0.626728 0.758377
3588402000 0.634413 0.752365
3600400000 0.640015 0.7449
3612398000 0.646338 0.738383
3624396000 0.653523 0.729844
3636394000 0.661621 0.722948
3648392000 0.667955 0.716935
3660390000 0.674075 0.709294
3672388000 0.684161 0.701198
3684386000 0.691607 0.690623
3696384000 0.700155 0.683249
3708382000 0.70501 0.672889
3720380000 0.714824 0.666332
3732378000 0.721579 0.655792
3744376000 0.728084 0.645171
3756374000 0.736503 0.637792
3768372000 0.743366 0.629826
3780370000 0.751009 0.618708
3792368000 0.755968 0.614242
3804366000 0.763735 0.604392
3816364000 0.768308 0.597248
3828362000 0.77237 0.591541
3840360000 0.777525 0.58809
3852358000 0.78493 0.579087
3864356000 0.786198 0.57504
3876354000 0.788631 0.568042
3888352000 0.793497 0.561108
3900350000 0.797813 0.556087
3912348000 0.801569 0.549889
3924346000 0.807172 0.543925
3936344000 0.809217 0.538239
3948342000 0.813417 0.531982
3960340000 0.809334 0.527655
3972338000 0.815091 0.522056
3984336000 0.820917 0.50843
3996334000 0.826924 0.501548
4008332000 0.832032 0.494191
4020330000 0.837245 0.485578
4032328000 0.842636 0.476526
4044326000 0.846857 0.466258
4056324000 0.853235 0.45548
4068322000 0.855305 0.442911
4080320000 0.859837 0.429688
4092318000 0.86533 0.415511
4104316000 0.871458 0.397354
4116314000 0.875607 0.376572
4128312000 0.882903 0.361595
4140310000 0.889206 0.339525
4152308000 0.893929 0.323327
4164306000 0.901595 0.306165
4176304000 0.907545 0.294626
4188302000 0.912296 0.283659
4200300000 0.918028 0.275923
4212298000 0.915811 0.27027
4224296000 0.917181 0.269978
4236294000 0.92162 0.263135
4248292000 0.919929 0.264175
4260290000 0.926479 0.256787
4272288000 0.925074 0.255406
4284286000 0.927144 0.246874
4296284000 0.929255 0.240986
4308282000 0.927309 0.230975
4320280000 0.929922 0.216196
4332278000 0.932001 0.203172
4344276000 0.933311 0.187059
4356274000 0.931254 0.176423
4368272000 0.924535 0.162866
4380270000 0.92439 0.145817
4392268000 0.921102 0.124645
4404266000 0.920448 0.109214
4416264000 0.918878 0.0863072
4428262000 0.920011 0.06756
4440260000 0.921134 0.0468411
4452258000 0.925004 0.0316209
4464256000 0.927002 0.0140082
4476254000 0.927692 -0.000540852
4488252000 0.930058 -0.012634
4500250000 0.929546 -0.0213709
4512248000 0.929771 -0.0374284
4524246000 0.932052 -0.0465045
4536244000 0.933032 -0.0572202
4548242000 0.93007 -0.0645315
4560240000 0.929431 -0.0705262
4572238000 0.927539 -0.0802099
4584236000 0.926199 -0.0859003
4596234000 0.91887 -0.0938877
4608232000 0.91292 -0.103652
4620230000 0.904739 -0.118384
4632228000 0.898781 -0.133464
4644226000 0.889145 -0.150213
4656224000 0.879051 -0.168184
4668222000 0.869827 -0.183651
4680220000 0.85914 -0.203841
4692218000 0.856401 -0.223388
4704216000 0.843298 -0.242272
4716214000 0.833997 -0.25979
4728212000 0.821271 -0.275518
4740210000 0.810169 -0.293609
4752208000 0.797523 -0.312872
4764206000 0.788942 -0.329946
4776204000 0.777824 -0.345755
4788202000 0.7695 -0.360554
4800200000 0.755996 -0.377661
4812198000 0.749333 -0.393512
4824196000 0.740197 -0.405871
4836194000 0.723654 -0.415629
4848192000 0.712259 -0.429068
4860190000 0.700053 -0.434083
4872188000 0.681844 -0.444623
4884186000 0.660208 -0.452633
4896184000 0.640634 -0.461
4908182000 0.619198 -0.474233
4920180000 0.593268 -0.47963
4932178000 0.568672 -0.491564
4944176000 0.539263 -0.496381
4956174000 0.512162 -0.505703
4968172000 0.476757 -0.506161
4980170000 0.44408 -0.509711
4992168000 0.410207 -0.510999
5004166000 0.375954 -0.511268
5016164000 0.338874 -0.51376
5028162000 0.305141 -0.510902
5040160000 0.268629 -0.503482
5052158000 0.233404 -0.497955
5064156000 0.199078 -0.484444
5076154000 0.168111 -0.471061
5088152000 0.135977 -0.456022
5100150000 0.106268 -0.433271
5112148000 0.0845833 -0.41049
5124146000 0.0564019 -0.38375
5136144000 0.0332015 -0.350406
5148142000 0.0155517 -0.317815
5160140000 -0.000435563 -0.276385
5172138000 -0.00583631 -0.237949
5184136000 -0.0100144 -0.193403
5196134000 -0.0139719 -0.145569
5208132000 -0.0109176 -0.0951048
5220130000 -0.0102323 -0.049629
5232128000 -0.00639307 -0.00101146
5244126000 -0.00205133 0.0452018
5256124000 0.00848545 0.0867652
5268122000 0.017068 0.135914
5280120000 0.0379922 0.165902
5292118000 0.059756 0.197901
5304116000 0.0918294 0.224003
5316114000 0.12267 0.24306
5328112000 0.15978 0.260711
5340110000 0.200726 0.276961
5352108000 0.23286 0.287522
5364106000 0.270511 0.299817
5376104000 0.304539 0.305603
5388102000 0.335988 0.309979
5400100000 0.36862 0.311071
5412098000 0.398901 0.310226
5424096000 0.428875 0.305464
5436094000 0.458049 0.302355
5448092000 0.483616 0.295217
5460090000 0.511059 0.287756
5472088000 0.536943 0.27716
5484086000 0.56368 0.266478
5496084000 0.588578 0.253652
5508082000 0.613922 0.239356
5520080000 0.635243 0.22325
5532078000 0.656876 0.212104
5544076000 0.676876 0.196367
5556074000 0.695818 0.181548
5568072000 0.70912 0.172547
5580070000 0.726735 0.158561
5592068000 0.739702 0.144219
5604066000 0.754574 0.132199
5616064000 0.760997 0.118456
5628062000 0.771506 0.104916
5640060000 0.777164 0.093938
5652058000 0.783802 0.0776229
5664056000 0.790087 0.0625349
5676054000 0.794219 0.0496733
5688052000 0.798604 0.0308176
5700050000 0.803117 0.0143992
5712048000 0.80814 -0.00109335
5724046000 0.812739 -0.0179808
5736044000 0.819206 -0.034084
5748042000 0.821981 -0.0493782
5760040000 0.825297 -0.0662754
5772038000 0.829539 -0.0850348
5784036000 0.835187 -0.0986334
5796034000 0.837904 -0.114565
5808032000 0.843153 -0.126342
5820030000 0.845656 -0.147265
5832028000 0.852216 -0.160077
5844026000 0.854258 -0.174337
5856024000 0.858817 -0.191321
5868022000 0.854434 -0.213187
5880020000 0.85215 -0.219207
5892018000 0.853804 -0.23575
5904016000 0.852613 -0.254851
5916014000 0.852606 -0.274748
5928012000 0.844754 -0.289733
5940010000 0.84499 -0.306877
5952008000 0.835856 -0.319568
5964006000 0.824859 -0.332119
5976004000 0.823459 -0.346831
5988002000 0.817363 -0.361575
6000000000 0.806677 -0.374675
