# Hz S RI R 50
1000000 0.988325 -0.000856846
12998000 1.01532 -0.0586412
24996000 1.00984 -0.127727
36994000 0.996703 -0.19322
48992000 0.979291 -0.256533
60990000 0.958882 -0.316536
72988000 0.933697 -0.375058
84986000 0.905926 -0.43105
96984000 0.874807 -0.484768
108982000 0.841207 -0.536706
120980000 0.80564 -0.586057
132978000 0.768466 -0.632543
144976000 0.729683 -0.677158
156974000 0.688783 -0.719836
168972000 0.64655 -0.759407
180970000 0.604052 -0.796025
192968000 0.559782 -0.829204
204966000 0.514148 -0.860019
216964000 0.468243 -0.887063
228962000 0.421342 -0.911004
240960000 0.374887 -0.931314
252958000 0.328824 -0.947667
264956000 0.28244 -0.961404
276954000 0.23611 -0.972241
288952000 0.190829 -0.979841
300950000 0.145922 -0.984858
312948000 0.102637 -0.987323
324946000 0.0603389 -0.988107
336944000 0.0194586 -0.987087
348942000 -0.0204939 -0.985489
360940000 -0.0603885 -0.982057
372938000 -0.0989867 -0.97899
384936000 -0.136007 -0.97536
396934000 -0.173059 -0.970683
408932000 -0.209611 -0.966049
420930000 -0.244495 -0.960568
432928000 -0.280426 -0.953086
444926000 -0.313972 -0.944809
456924000 -0.346338 -0.936018
468922000 -0.378796 -0.926434
480920000 -0.408487 -0.91478
492918000 -0.436918 -0.901978
504916000 -0.464653 -0.887932
516914000 -0.492687 -0.873549
528912000 -0.517674 -0.857435
540910000 -0.542581 -0.840358
552908000 -0.565441 -0.822912
564906000 -0.587729 -0.80542
576904000 -0.607851 -0.788326
588902000 -0.628011 -0.771452
600900000 -0.64613 -0.753746
612898000 -0.663606 -0.737035
624896000 -0.681677 -0.720522
636894000 -0.699478 -0.703523
648892000 -0.716874 -0.687626
660890000 -0.733774 -0.671825
672888000 -0.751048 -0.655308
684886000 -0.767412 -0.638951
696884000 -0.783998 -0.620784
708882000 -0.800188 -0.604264
720880000 -0.816083 -0.586984
732878000 -0.829796 -0.567064
744876000 -0.843119 -0.548924
756874000 -0.855928 -0.529877
768872000 -0.86791 -0.509966
780870000 -0.879091 -0.489652
792868000 -0.888059 -0.470022
804866000 -0.896365 -0.450352
816864000 -0.905247 -0.430994
828862000 -0.913036 -0.413322
840860000 -0.918619 -0.394185
852858000 -0.924496 -0.377661
864856000 -0.931428 -0.359287
876854000 -0.937155 -0.341887
888852000 -0.943547 -0.325653
900850000 -0.948986 -0.308521
912848000 -0.954637 -0.292744
924846000 -0.960396 -0.276673
936844000 -0.965941 -0.261522
948842000 -0.972505 -0.247055
960840000 -0.978153 -0.232755
972838000 -0.984585 -0.21806
984836000 -0.989709 -0.202484
996834000 -0.993384 -0.186867
1008832000 -0.996326 -0.171921
1020830000 -1.00025 -0.155991
1032828000 -1.00286 -0.139111
1044826000 -1.00516 -0.123038
1056824000 -1.00705 -0.10661
1068822000 -1.00794 -0.0883822
1080820000 -1.00896 -0.0712482
1092818000 -1.00884 -0.0557039
1104816000 -1.00819 -0.0372848
1116814000 -1.00726 -0.0209882
1128812000 -1.0075 -0.00652807
1140810000 -1.00566 0.00993413
1152808000 -1.00615 0.0233295
1164806000 -1.00605 0.037891
1176804000 -1.00891 0.054047
1188802000 -1.00404 0.0690649
1200800000 -1.0031 0.0796059
1212798000 -1.00241 0.0917046
1224796000 -1.00125 0.103661
1236794000 -1.00197 0.116088
1248792000 -1.00104 0.127333
1260790000 -1.00027 0.138765
1272788000 -0.999299 0.150312
1284786000 -0.997692 0.160764
1296784000 -0.99269 0.172163
1308782000 -0.990089 0.185786
1320780000 -0.987236 0.199505
1332778000 -0.984468 0.213151
1344776000 -0.981625 0.227114
1356774000 -0.979097 0.242593
1368772000 -0.97638 0.254648
1380770000 -0.972306 0.269602
1392768000 -0.968685 0.2847
1404766000 -0.96346 0.300434
1416764000 -0.959626 0.315419
1428762000 -0.952636 0.329395
1440760000 -0.948386 0.344312
1452758000 -0.942781 0.356484
1464756000 -0.939139 0.369349
1476754000 -0.935119 0.381772
1488752000 -0.930575 0.392474
1500750000 -0.926465 0.403097
1512748000 -0.918371 0.412314
1524746000 -0.912517 0.421642
1536744000 -0.906316 0.431157
1548742000 -0.899198 0.441124
1560740000 -0.894572 0.450768
1572738000 -0.888941 0.460097
1584736000 -0.884078 0.470949
1596734000 -0.880879 0.481855
1608732000 -0.876513 0.493093
1620730000 -0.872153 0.503269
1632728000 -0.867381 0.515001
1644726000 -0.861303 0.526351
1656724000 -0.853809 0.537031
1668722000 -0.847222 0.547212
1680720000 -0.842788 0.559875
1692718000 -0.837371 0.567566
1704716000 -0.833512 0.576926
1716714000 -0.826186 0.584362
1728712000 -0.819608 0.596411
1740710000 -0.810285 0.606963
1752708000 -0.80114 0.617119
1764706000 -0.791584 0.624087
1776704000 -0.782154 0.632576
1788702000 -0.77326 0.639465
1800700000 -0.761644 0.648805
1812698000 -0.75019 0.655434
1824696000 -0.742012 0.664786
1836694000 -0.733892 0.672881
1848692000 -0.72547 0.683562
1860690000 -0.717647 0.692227
1872688000 -0.709175 0.701523
1884686000 -0.700193 0.711534
1896684000 -0.692939 0.720835
1908682000 -0.683573 0.732443
1920680000 -0.677815 0.742886
1932678000 -0.669768 0.753977
1944676000 -0.660768 0.762943
1956674000 -0.655631 0.770454
1968672000 -0.651831 0.779598
1980670000 -0.642211 0.788386
1992668000 -0.64003 0.790912
2004666000 -0.634396 0.795817
2016664000 -0.629939 0.799359
2028662000 -0.623518 0.801622
2040660000 -0.616693 0.804006
2052658000 -0.609271 0.805929
2064656000 -0.600849 0.807828
2076654000 -0.59036 0.811865
2088652000 -0.579012 0.813503
2100650000 -0.568852 0.818128
2112648000 -0.554048 0.822282
2124646000 -0.540249 0.829122
2136644000 -0.527007 0.838157
2148642000 -0.513431 0.847136
2160640000 -0.499017 0.85707
2172638000 -0.489286 0.867108
2184636000 -0.478343 0.878605
2196634000 -0.468622 0.889589
2208632000 -0.461991 0.901068
2220630000 -0.457944 0.908495
2232628000 -0.455662 0.915209
2244626000 -0.453836 0.919909
2256624000 -0.450362 0.92404
2268622000 -0.445283 0.926409
2280620000 -0.443402 0.927647
2292618000 -0.439892 0.93028
2304616000 -0.433865 0.929652
2316614000 -0.427554 0.930214
2328612000 -0.415457 0.929535
2340610000 -0.402992 0.929337
2352608000 -0.387593 0.930203
2364606000 -0.371058 0.930429
2376604000 -0.35507 0.931947
2388602000 -0.337565 0.934122
2400600000 -0.321823 0.937254
2412598000 -0.305795 0.942846
2424596000 -0.289549 0.947648
2436594000 -0.273372 0.954113
2448592000 -0.25983 0.958211
2460590000 -0.246777 0.966056
2472588000 -0.235952 0.974277
2484586000 -0.228759 0.980355
2496584000 -0.219356 0.988457
2508582000 -0.210718 0.992554
2520580000 -0.203427 1.0004
2532578000 -0.194777 1.00126
2544576000 -0.18973 1.00575
2556574000 -0.18223 1.00649
2568572000 -0.175337 1.01027
2580570000 -0.165644 1.00851
2592568000 -0.158342 1.00712
2604566000 -0.148302 1.00443
2616564000 -0.140957 1.00018
2628562000 -0.130124 0.999166
2640560000 -0.120167 0.993264
2652558000 -0.109424 0.990067
2664556000 -0.0981146 0.989218
2676554000 -0.0863273 0.989034
2688552000 -0.0719961 0.985653
2700550000 -0.0596256 0.986991
2712548000 -0.0478311 0.985421
2724546000 -0.0346464 0.986333
2736544000 -0.0247386 0.99188
2748542000 -0.0119765 0.993903
2760540000 -0.000992928 0.996693
2772538000 0.00994016 1.0002
2784536000 0.0188758 1.00414
2796534000 0.0299299 1.00518
2808532000 0.0374696 1.01033
2820530000 0.0456814 1.00735
2832528000 0.0555002 1.00774
2844526000 0.0642653 1.00699
2856524000 0.0719761 1.00447
2868522000 0.0782042 1.00204
2880520000 0.086162 0.998908
2892518000 0.0945463 0.993415
2904516000 0.102998 0.992035
2916514000 0.111092 0.98875
2928512000 0.118829 0.984607
2940510000 0.123052 0.983599
2952508000 0.133282 0.977835
2964506000 0.145023 0.974554
2976504000 0.157939 0.971984
2988502000 0.168962 0.97121
3000500000 0.17436 0.97158
3012498000 0.192664 0.970975
3024496000 0.196329 0.970982
3036494000 0.210839 0.970189
3048492000 0.221132 0.969535
3060490000 0.230127 0.968802
3072488000 0.238122 0.96641
3084486000 0.246569 0.965937
3096484000 0.254843 0.964474
3108482000 0.262378 0.961263
3120480000 0.27053 0.96015
3132478000 0.273014 0.955938
3144476000 0.285704 0.950232
3156474000 0.293204 0.948418
3168472000 0.298542 0.94614
3180470000 0.307372 0.941096
3192468000 0.31681 0.937022
3204466000 0.326338 0.931025
3216464000 0.336478 0.926326
3228462000 0.347477 0.920965
3240460000 0.35914 0.916943
3252458000 0.370738 0.914478
3264456000 0.38201 0.911568
3276454000 0.391384 0.907492
3288452000 0.403492 0.901427
3300450000 0.407585 0.896168
3312448000 0.42115 0.892176
3324446000 0.429532 0.885091
3336444000 0.440168 0.882171
3348442000 0.448617 0.875395
3360440000 0.457559 0.871771
3372438000 0.467386 0.863114
3384436000 0.476538 0.85997
3396434000 0.483007 0.851455
3408432000 0.496046 0.846054
3420430000 0.506333 0.840842
3432428000 0.516239 0.833404
3444426000 0.528554 0.82393
3456424000 0.53737 0.818135
3468422000 0.546077 0.811436
3480420000 0.557304 0.805048
3492418000 0.567521 0.798844
3504416000 0.578512 0.792318
3516414000 0.588163 0.78588
3528412000 0.595535 0.777285
3540410000 0.603588 0.772895
3552408000 0.612961 0.768338
3564406000 0.621079 0.76615
3576404000 0.627089 0.753469
3588402000 0.632752 0.753296
3600400000 0.639902 0.745017
3612398000 0.646403 0.737953
3624396000 0.653346 0.730001
3636394000 0.661729 0.722702
3648392000 0.668785 0.715866
3660390000 0.675047 0.709557
3672388000 0.683927 0.701776
3684386000 0.690279 0.689597
3696384000 0.699689 0.683756
3708382000 0.707227 0.675203
3720380000 0.714782 0.665893
3732378000 0.721365 0.655947
3744376000 0.727671 0.647862
3756374000 0.736744 0.636997
3768372000 0.743331 0.629313
3780370000 0.75099 0.619232
3792368000 0.75558 0.614267
3804366000 0.763073 0.605769
3816364000 0.767987 0.599282
3828362000 0.774055 0.592988
3840360000 0.779258 0.589562
3852358000 0.784538 0.580555
3864356000 0.78509 0.573759
3876354000 0.78781 0.568946
3888352000 0.792994 0.562241
3900350000 0.797765 0.556231
3912348000 0.801418 0.549814
3924346000 0.806539 0.544434
3936344000 0.80954 0.537886
3948342000 0.81186 0.531556
3960340000 0.811362 0.529059
3972338000 0.815065 0.520743
3984336000 0.820892 0.507057
3996334000 0.826004 0.50163
4008332000 0.831793 0.494685
4020330000 0.838916 0.485806
4032328000 0.843455 0.476405
4044326000 0.848183 0.467253
4056324000 0.853071 0.456271
4068322000 0.855079 0.443759
4080320000 0.85929 0.429603
4092318000 0.865931 0.41569
4104316000 0.870217 0.396213
4116314000 0.875289 0.376779
4128312000 0.883784 0.360545
4140310000 0.889152 0.342872
4152308000 0.894003 0.324669
4164306000 0.901914 0.307074
4176304000 0.906699 0.295269
4188302000 0.912679 0.28394
4200300000 0.916936 0.277142
4212298000 0.915639 0.270806
4224296000 0.917259 0.269906
4236294000 0.91988 0.26317
4248292000 0.91808 0.262624
4260290000 0.927961 0.25739
4272288000 0.923788 0.253784
4284286000 0.927679 0.247402
4296284000 0.926154 0.24184
4308282000 0.930527 0.226935
4320280000 0.927524 0.212639
4332278000 0.931921 0.20282
4344276000 0.929351 0.188928
4356274000 0.930841 0.176253
4368272000 0.925502 0.162008
4380270000 0.92479 0.145624
4392268000 0.921002 0.1246
4404266000 0.920854 0.108506
4416264000 0.919679 0.0863871
4428262000 0.920694 0.0678279
4440260000 0.920855 0.0487191
4452258000 0.925652 0.0320232
4464256000 0.928153 0.0146707
4476254000 0.928693 -0.00011007
4488252000 0.930201 -0.0123951
4500250000 0.929849 -0.0224797
4512248000 0.929522 -0.0379249
4524246000 0.932659 -0.0476883
4536244000 0.932156 -0.0559493
4548242000 0.930573 -0.0660447
4560240000 0.930926 -0.0700073
4572238000 0.926214 -0.0789888
4584236000 0.927983 -0.0864244
4596234000 0.918406 -0.0946179
4608232000 0.915454 -0.102905
4620230000 0.909091 -0.118713
4632228000 0.897235 -0.133678
4644226000 0.888635 -0.149155
4656224000 0.878382 -0.168382
4668222000 0.871126 -0.184523
4680220000 0.859191 -0.203755
4692218000 0.856074 -0.223704
4704216000 0.843206 -0.241758
4716214000 0.834725 -0.259395
4728212000 0.822509 -0.275354
4740210000 0.810975 -0.293076
4752208000 0.797766 -0.31202
4764206000 0.787176 -0.329517
4776204000 0.777436 -0.34629
4788202000 0.769616 -0.361185
4800200000 0.756272 -0.376716
4812198000 0.748298 -0.393545
4824196000 0.739266 -0.405755
4836194000 0.726028 -0.415059
4848192000 0.714163 -0.429772
4860190000 0.698988 -0.435554
4872188000 0.680881 -0.443045
4884186000 0.662655 -0.450532
4896184000 0.640591 -0.460376
4908182000 0.621389 -0.471801
4920180000 0.593843 -0.477655
4932178000 0.568667 -0.491529
4944176000 0.53936 -0.496352
4956174000 0.512279 -0.505053
4968172000 0.477488 -0.507342
4980170000 0.444093 -0.508569
4992168000 0.410347 -0.510398
5004166000 0.375039 -0.511695
5016164000 0.338696 -0.512505
5028162000 0.306029 -0.510432
5040160000 0.268389 -0.503682
5052158000 0.233167 -0.498142
5064156000 0.198917 -0.484616
5076154000 0.168206 -0.470829
5088152000 0.135657 -0.456458
5100150000 0.106452 -0.434048
5112148000 0.0837226 -0.409514
5124146000 0.0568732 -0.383765
5136144000 0.0331609 -0.350645
5148142000 0.0156896 -0.317838
5160140000 -0.000407488 -0.276367
5172138000 -0.00546994 -0.237961
5184136000 -0.0097014 -0.193591
5196134000 -0.0140998 -0.145207
5208132000 -0.0107076 -0.0948249
5220130000 -0.00992715 -0.0499164
5232128000 -0.00651329 -0.000827044
5244126000 -0.00207476 0.0452243
5256124000 0.00843139 0.0867573
5268122000 0.0203915 0.131267
5280120000 0.0381006 0.166018
5292118000 0.0593819 0.197948
5304116000 0.0918057 0.223198
5316114000 0.122099 0.242789
5328112000 0.158837 0.26171
5340110000 0.200511 0.278158
5352108000 0.229432 0.287076
5364106000 0.270132 0.299395
5376104000 0.304473 0.303268
5388102000 0.335848 0.309517
5400100000 0.367715 0.309912
5412098000 0.397986 0.310054
5424096000 0.428699 0.30554
5436094000 0.458291 0.302147
5448092000 0.48374 0.295341
5460090000 0.511242 0.28762
5472088000 0.537358 0.277132
5484086000 0.563373 0.266812
5496084000 0.589669 0.251264
5508082000 0.614238 0.237883
5520080000 0.634186 0.22354
5532078000 0.656968 0.211829
5544076000 0.676286 0.196355
5556074000 0.695598 0.181447
5568072000 0.710146 0.172008
5580070000 0.726233 0.158194
5592068000 0.739333 0.144078
5604066000 0.754417 0.130946
5616064000 0.761472 0.116355
5628062000 0.773695 0.102688
5640060000 0.777538 0.0947428
5652058000 0.78536 0.077189
5664056000 0.790378 0.0620512
5676054000 0.795961 0.0460643
5688052000 0.798955 0.0308912
5700050000 0.803084 0.0150907
5712048000 0.807844 -0.00113413
5724046000 0.81277 -0.0182875
5736044000 0.819071 -0.0343937
5748042000 0.822734 -0.051234
5760040000 0.823545 -0.0668944
5772038000 0.829236 -0.0834496
5784036000 0.832969 -0.0984361
5796034000 0.837141 -0.113965
5808032000 0.843108 -0.126796
5820030000 0.845267 -0.147005
5832028000 0.85218 -0.160481
5844026000 0.853278 -0.175167
5856024000 0.85714 -0.190251
5868022000 0.854411 -0.212181
5880020000 0.855494 -0.217696
5892018000 0.858031 -0.240243
5904016000 0.854558 -0.254857
5916014000 0.854561 -0.273958
5928012000 0.84427 -0.290885
5940010000 0.842229 -0.304675
5952008000 0.835283 -0.317511
5964006000 0.824713 -0.33182
5976004000 0.823682 -0.345533
5988002000 0.816095 -0.360805
6000000000 0.807332 -0.374853
