# Hz S RI R 50
1000000 0.989574 -0.00212617
12998000 1.01535 -0.0586082
24996000 1.00998 -0.127617
36994000 0.996527 -0.193585
48992000 0.979327 -0.256631
60990000 0.958895 -0.316239
72988000 0.933541 -0.375296
84986000 0.90567 -0.430938
96984000 0.874574 -0.484719
108982000 0.840939 -0.536714
120980000 0.805554 -0.586249
132978000 0.76861 -0.632657
144976000 0.729536 -0.67731
156974000 0.688839 -0.719961
168972000 0.646567 -0.759405
180970000 0.60378 -0.796119
192968000 0.559338 -0.829346
204966000 0.513661 -0.860524
216964000 0.467441 -0.887563
228962000 0.420747 -0.911185
240960000 0.374838 -0.931306
252958000 0.328563 -0.947833
264956000 0.281948 -0.961449
276954000 0.235711 -0.972208
288952000 0.19074 -0.979627
300950000 0.145729 -0.984709
312948000 0.101801 -0.987553
324946000 0.0601013 -0.988
336944000 0.0194576 -0.987036
348942000 -0.0207768 -0.985288
360940000 -0.0605335 -0.982087
372938000 -0.0994614 -0.978764
384936000 -0.136638 -0.975384
396934000 -0.173638 -0.970855
408932000 -0.210476 -0.965954
420930000 -0.245305 -0.96016
432928000 -0.281452 -0.952944
444926000 -0.314695 -0.944614
456924000 -0.347156 -0.935817
468922000 -0.379063 -0.926006
480920000 -0.408947 -0.914691
492918000 -0.437704 -0.901543
504916000 -0.464945 -0.887731
516914000 -0.492848 -0.873016
528912000 -0.518483 -0.85648
540910000 -0.542805 -0.840342
552908000 -0.565866 -0.822914
564906000 -0.587864 -0.805966
576904000 -0.608263 -0.788249
588902000 -0.628089 -0.771476
600900000 -0.64633 -0.753352
612898000 -0.663662 -0.737013
624896000 -0.68188 -0.720292
636894000 -0.699629 -0.703454
648892000 -0.716997 -0.687545
660890000 -0.734249 -0.671454
672888000 -0.751029 -0.655302
684886000 -0.76803 -0.639046
696884000 -0.784291 -0.620792
708882000 -0.800422 -0.603973
720880000 -0.816552 -0.587108
732878000 -0.829556 -0.567425
744876000 -0.842915 -0.549018
756874000 -0.855734 -0.530086
768872000 -0.867774 -0.509918
780870000 -0.878474 -0.489648
792868000 -0.887809 -0.470084
804866000 -0.896056 -0.450204
816864000 -0.905012 -0.431464
828862000 -0.912989 -0.412946
840860000 -0.919367 -0.394301
852858000 -0.925068 -0.37782
864856000 -0.931292 -0.359493
876854000 -0.937106 -0.341426
888852000 -0.944073 -0.325469
900850000 -0.94936 -0.308176
912848000 -0.954706 -0.292405
924846000 -0.960236 -0.276498
936844000 -0.965802 -0.261088
948842000 -0.971939 -0.24662
960840000 -0.978347 -0.233308
972838000 -0.984351 -0.218383
984836000 -0.98997 -0.202041
996834000 -0.993891 -0.186724
1008832000 -0.996465 -0.17148
1020830000 -1.00007 -0.155471
1032828000 -1.00282 -0.138948
1044826000 -1.00506 -0.122789
1056824000 -1.00708 -0.1063
1068822000 -1.0088 -0.0888164
1080820000 -1.00902 -0.0698348
1092818000 -1.00866 -0.0535711
1104816000 -1.00832 -0.037439
1116814000 -1.00743 -0.0204708
1128812000 -1.00748 -0.00593285
1140810000 -1.00555 0.00994155
1152808000 -1.00644 0.0244946
1164806000 -1.00606 0.0382911
1176804000 -1.00834 0.0544428
1188802000 -1.00395 0.0697061
1200800000 -1.00235 0.0806616
1212798000 -1.00255 0.0921313
1224796000 -1.00153 0.104739
1236794000 -1.00193 0.115728
1248792000 -1.00061 0.127817
1260790000 -1.00019 0.139418
1272788000 -0.999467 0.150018
1284786000 -0.996151 0.160986
1296784000 -0.992918 0.172943
1308782000 -0.989984 0.186041
1320780000 -0.987297 0.199579
1332778000 -0.984164 0.213379
1344776000 -0.98125 0.227501
1356774000 -0.978839 0.242653
1368772000 -0.975726 0.254969
1380770000 -0.971928 0.269389
1392768000 -0.968695 0.283818
1404766000 -0.963456 0.300361
1416764000 -0.959403 0.315445
1428762000 -0.953469 0.330231
1440760000 -0.94747 0.344168
1452758000 -0.942924 0.356939
1464756000 -0.939075 0.36949
1476754000 -0.93484 0.382437
1488752000 -0.930822 0.393035
1500750000 -0.92726 0.402575
1512748000 -0.918357 0.412805
1524746000 -0.912574 0.421981
1536744000 -0.906256 0.430176
1548742000 -0.899569 0.440925
1560740000 -0.894584 0.449997
1572738000 -0.888808 0.460859
1584736000 -0.884266 0.471165
1596734000 -0.880774 0.482075
1608732000 -0.876117 0.493687
1620730000 -0.871726 0.504191
1632728000 -0.866796 0.515173
1644726000 -0.860926 0.527048
1656724000 -0.85423 0.537665
1668722000 -0.847734 0.548802
1680720000 -0.841917 0.560539
1692718000 -0.836438 0.569124
1704716000 -0.831922 0.578006
1716714000 -0.82416 0.586449
1728712000 -0.819023 0.595644
1740710000 -0.809819 0.606644
1752708000 -0.800918 0.616849
1764706000 -0.791331 0.624339
1776704000 -0.78137 0.633079
1788702000 -0.772113 0.640177
1800700000 -0.762225 0.649466
1812698000 -0.750943 0.65614
1824696000 -0.741624 0.665972
1836694000 -0.7337 0.674835
1848692000 -0.725214 0.683526
1860690000 -0.716855 0.692624
1872688000 -0.708142 0.701625
1884686000 -0.700127 0.71181
1896684000 -0.692687 0.721491
1908682000 -0.683257 0.732918
1920680000 -0.676767 0.743694
1932678000 -0.669175 0.753438
1944676000 -0.661013 0.762721
1956674000 -0.654751 0.772416
1968672000 -0.650434 0.781071
1980670000 -0.642253 0.788369
1992668000 -0.638884 0.791031
2004666000 -0.635608 0.796152
2016664000 -0.629715 0.799507
2028662000 -0.623306 0.800577
2040660000 -0.615993 0.804867
2052658000 -0.608946 0.806029
2064656000 -0.600342 0.808215
2076654000 -0.590115 0.811463
2088652000 -0.579495 0.813195
2100650000 -0.567836 0.820018
2112648000 -0.554008 0.823188
2124646000 -0.540663 0.829767
2136644000 -0.525155 0.838438
2148642000 -0.513072 0.846669
2160640000 -0.498749 0.857169
2172638000 -0.489045 0.86666
2184636000 -0.478609 0.878556
2196634000 -0.468648 0.889731
2208632000 -0.462496 0.90104
2220630000 -0.458472 0.906985
2232628000 -0.454633 0.914676
2244626000 -0.453701 0.920001
2256624000 -0.450349 0.923342
2268622000 -0.445243 0.92578
2280620000 -0.442773 0.929238
2292618000 -0.440665 0.930125
2304616000 -0.434424 0.930688
2316614000 -0.427766 0.929984
2328612000 -0.415981 0.929544
2340610000 -0.403216 0.930534
2352608000 -0.387304 0.93031
2364606000 -0.37182 0.931023
2376604000 -0.354853 0.931739
2388602000 -0.33856 0.93659
2400600000 -0.319716 0.937734
2412598000 -0.304379 0.943198
2424596000 -0.290035 0.948207
2436594000 -0.273695 0.954275
2448592000 -0.261303 0.95826
2460590000 -0.246977 0.966609
2472588000 -0.236348 0.97425
2484586000 -0.228458 0.980621
2496584000 -0.22053 0.988558
2508582000 -0.211273 0.993723
2520580000 -0.202144 1.00089
2532578000 -0.196693 1.00176
2544576000 -0.191045 1.00753
2556574000 -0.182217 1.00779
2568572000 -0.176184 1.0104
2580570000 -0.165216 1.01022
2592568000 -0.158828 1.00737
2604566000 -0.147904 1.00414
2616564000 -0.140308 1.00069
2628562000 -0.131443 0.998781
2640560000 -0.119616 0.993585
2652558000 -0.108906 0.991392
2664556000 -0.099721 0.989723
2676554000 -0.0858162 0.988916
2688552000 -0.0736038 0.987164
2700550000 -0.0612085 0.985624
2712548000 -0.048254 0.984849
2724546000 -0.0350278 0.986494
2736544000 -0.0244889 0.991756
2748542000 -0.0120647 0.994219
2760540000 -0.00120856 0.996792
2772538000 0.00961447 1.00019
2784536000 0.0200153 1.00371
2796534000 0.0299665 1.00437
2808532000 0.0368194 1.00822
2820530000 0.0463916 1.00719
2832528000 0.0551218 1.00791
2844526000 0.0635993 1.00824
2856524000 0.0724032 1.00489
2868522000 0.0791371 1.00208
2880520000 0.0866612 0.999141
2892518000 0.0947883 0.993818
2904516000 0.102986 0.992243
2916514000 0.111051 0.988374
2928512000 0.119696 0.985208
2940510000 0.123669 0.983634
2952508000 0.133562 0.977577
2964506000 0.14763 0.973303
2976504000 0.155153 0.972153
2988502000 0.169367 0.971807
3000500000 0.177058 0.971357
3012498000 0.193103 0.972043
3024496000 0.197479 0.971611
3036494000 0.210552 0.970201
3048492000 0.221554 0.969241
3060490000 0.23069 0.96845
3072488000 0.238606 0.966418
3084486000 0.248184 0.965584
3096484000 0.255126 0.963853
3108482000 0.261985 0.962649
3120480000 0.270137 0.959329
3132478000 0.275049 0.953673
3144476000 0.286208 0.949533
3156474000 0.293418 0.950332
3168472000 0.299769 0.946157
3180470000 0.309443 0.940851
3192468000 0.317273 0.936694
3204466000 0.326796 0.930805
3216464000 0.336173 0.926363
3228462000 0.347051 0.921917
3240460000 0.359172 0.916127
3252458000 0.371554 0.913774
3264456000 0.380373 0.91176
3276454000 0.389811 0.907394
3288452000 0.40145 0.903167
3300450000 0.407702 0.896479
3312448000 0.421236 0.893006
3324446000 0.430184 0.885721
3336444000 0.440352 0.881795
3348442000 0.449281 0.875775
3360440000 0.457886 0.870951
3372438000 0.46862 0.864151
3384436000 0.476654 0.858456
3396434000 0.483473 0.849623
3408432000 0.494311 0.845674
3420430000 0.505804 0.839152
3432428000 0.513735 0.831741
3444426000 0.528823 0.823614
3456424000 0.538279 0.818525
3468422000 0.547342 0.811013
3480420000 0.558179 0.803971
3492418000 0.567982 0.798654
3504416000 0.579476 0.791733
3516414000 0.587664 0.784349
3528412000 0.596929 0.778637
3540410000 0.603649 0.775108
3552408000 0.610659 0.770494
3564406000 0.620756 0.763886
3576404000 0.628543 0.755278
3588402000 0.633977 0.75218
3600400000 0.640646 0.744565
3612398000 0.646361 0.738101
3624396000 0.653714 0.730002
3636394000 0.661984 0.722972
3648392000 0.668739 0.714943
3660390000 0.672297 0.709225
3672388000 0.68329 0.698078
3684386000 0.693226 0.688557
3696384000 0.699394 0.684883
3708382000 0.706625 0.674819
3720380000 0.714612 0.665922
3732378000 0.721934 0.655759
3744376000 0.7286 0.646561
3756374000 0.736732 0.637073
3768372000 0.743689 0.6289
3780370000 0.75143 0.61865
3792368000 0.756824 0.614754
3804366000 0.765054 0.606874
3816364000 0.76866 0.597695
3828362000 0.774336 0.593228
3840360000 0.777665 0.589525
3852358000 0.782292 0.579301
3864356000 0.785698 0.573754
3876354000 0.789457 0.568713
3888352000 0.79395 0.561242
3900350000 0.798222 0.555115
3912348000 0.801756 0.549323
3924346000 0.807159 0.544196
3936344000 0.809264 0.537669
3948342000 0.812321 0.53206
3960340000 0.812623 0.52849
3972338000 0.816674 0.521493
3984336000 0.820555 0.509655
3996334000 0.82731 0.501612
4008332000 0.83123 0.494322
4020330000 0.839244 0.485268
4032328000 0.844328 0.47611
4044326000 0.847256 0.46699
4056324000 0.853364 0.455338
4068322000 0.855376 0.442806
4080320000 0.85927 0.429237
4092318000 0.865138 0.415367
4104316000 0.870584 0.396764
4116314000 0.876923 0.376138
4128312000 0.883534 0.35919
4140310000 0.887519 0.341374
4152308000 0.894234 0.323716
4164306000 0.901119 0.306623
4176304000 0.907596 0.294979
4188302000 0.912695 0.281941
4200300000 0.916554 0.275956
4212298000 0.916324 0.270483
4224296000 0.916953 0.269176
4236294000 0.920079 0.262607
4248292000 0.923033 0.266605
4260290000 0.927489 0.256126
4272288000 0.925637 0.254733
4284286000 0.929815 0.246267
4296284000 0.928181 0.238511
4308282000 0.928825 0.226677
4320280000 0.927023 0.214261
4332278000 0.930348 0.200473
4344276000 0.924762 0.190412
4356274000 0.92929 0.175964
4368272000 0.925331 0.161713
4380270000 0.924736 0.144814
4392268000 0.921296 0.123855
4404266000 0.920469 0.107941
4416264000 0.919338 0.0862211
4428262000 0.919417 0.0674776
4440260000 0.921102 0.0485801
4452258000 0.92529 0.031419
4464256000 0.927035 0.0154453
4476254000 0.928812 -0.000462774
4488252000 0.929808 -0.0130053
4500250000 0.930017 -0.0223883
4512248000 0.929928 -0.0380881
4524246000 0.93169 -0.0472348
4536244000 0.932981 -0.057183
4548242000 0.929779 -0.0677914
4560240000 0.932375 -0.0702398
4572238000 0.927852 -0.0801703
4584236000 0.925575 -0.0891536
4596234000 0.921676 -0.0955071
4608232000 0.912597 -0.104571
4620230000 0.904815 -0.120007
4632228000 0.897779 -0.136433
4644226000 0.889831 -0.151085
4656224000 0.878391 -0.168544
4668222000 0.870972 -0.184964
4680220000 0.859354 -0.20441
4692218000 0.856354 -0.224077
4704216000 0.842925 -0.242328
4716214000 0.834089 -0.259083
4728212000 0.821701 -0.275147
4740210000 0.810995 -0.294496
4752208000 0.798715 -0.311577
4764206000 0.788116 -0.329785
4776204000 0.778117 -0.346239
4788202000 0.76974 -0.361335
4800200000 0.756314 -0.377337
4812198000 0.749249 -0.393311
4824196000 0.73929 -0.406464
4836194000 0.724942 -0.413604
4848192000 0.712114 -0.427867
4860190000 0.698724 -0.434373
4872188000 0.684178 -0.444567
4884186000 0.661611 -0.454116
4896184000 0.640263 -0.460428
4908182000 0.6226 -0.475032
4920180000 0.594437 -0.479556
4932178000 0.569549 -0.491667
4944176000 0.539547 -0.496676
4956174000 0.512334 -0.505487
4968172000 0.477875 -0.505928
4980170000 0.444165 -0.509899
4992168000 0.410095 -0.511349
5004166000 0.375711 -0.510923
5016164000 0.338428 -0.513731
5028162000 0.305316 -0.510348
5040160000 0.268342 -0.50308
5052158000 0.233442 -0.498055
5064156000 0.199336 -0.484142
5076154000 0.16844 -0.470696
5088152000 0.135868 -0.455399
5100150000 0.105963 -0.433496
5112148000 0.0837997 -0.409101
5124146000 0.0562022 -0.382956
5136144000 0.0335292 -0.350163
5148142000 0.01517 -0.317553
5160140000 -0.000625867 -0.276232
5172138000 -0.00617179 -0.23762
5184136000 -0.0101682 -0.193442
5196134000 -0.0144391 -0.145546
5208132000 -0.0115138 -0.0951032
5220130000 -0.00989172 -0.0498012
5232128000 -0.0063479 -0.000903285
5244126000 -0.00205218 0.0452867
5256124000 0.00847674 0.0867563
5268122000 0.0204871 0.131403
5280120000 0.038177 0.166289
5292118000 0.0597621 0.198054
5304116000 0.091764 0.223597
5316114000 0.123574 0.242837
5328112000 0.159555 0.261246
5340110000 0.200457 0.276937
5352108000 0.23094 0.287755
5364106000 0.270192 0.298977
5376104000 0.304866 0.304742
5388102000 0.337263 0.309573
5400100000 0.367622 0.310065
5412098000 0.398277 0.308923
5424096000 0.429155 0.305655
5436094000 0.458356 0.302345
5448092000 0.483991 0.295451
5460090000 0.51186 0.288083
5472088000 0.537924 0.276544
5484086000 0.564177 0.267407
5496084000 0.589694 0.252385
5508082000 0.613709 0.23973
5520080000 0.634747 0.224394
5532078000 0.657454 0.211769
5544076000 0.676411 0.196326
5556074000 0.695763 0.181319
5568072000 0.709708 0.172498
5580070000 0.72651 0.159261
5592068000 0.738086 0.144222
5604066000 0.755259 0.129226
5616064000 0.761347 0.121264
5628062000 0.774604 0.104088
5640060000 0.776597 0.0940109
5652058000 0.784696 0.0780672
5664056000 0.790626 0.0615802
5676054000 0.795912 0.0470762
5688052000 0.800032 0.0291951
5700050000 0.803024 0.0150387
5712048000 0.808182 -0.00121991
5724046000 0.812845 -0.0182212
5736044000 0.818994 -0.0345999
5748042000 0.822617 -0.049391
5760040000 0.824636 -0.067395
5772038000 0.829502 -0.0834188
5784036000 0.834071 -0.0984146
5796034000 0.83705 -0.114404
5808032000 0.842417 -0.126881
5820030000 0.845922 -0.14669
5832028000 0.852089 -0.160924
5844026000 0.854529 -0.175239
5856024000 0.856459 -0.19137
5868022000 0.855742 -0.211797
5880020000 0.852637 -0.218726
5892018000 0.858281 -0.235684
5904016000 0.851615 -0.256601
5916014000 0.852188 -0.271231
5928012000 0.847768 -0.289878
5940010000 0.842431 -0.304758
5952008000 0.833649 -0.319806
5964006000 0.830885 -0.331798
5976004000 0.824116 -0.348569
5988002000 0.816749 -0.361762
6000000000 0.807859 -0.37432
