# Hz S RI R 50
1000000 0.984911 1.11594e-05
12998000 1.01551 -0.0579771
24996000 1.01054 -0.127068
36994000 0.996979 -0.192903
48992000 0.979817 -0.256139
60990000 0.959407 -0.315925
72988000 0.934237 -0.374683
84986000 0.906374 -0.430675
96984000 0.875027 -0.484465
108982000 0.841316 -0.536512
120980000 0.805961 -0.585702
132978000 0.769009 -0.632266
144976000 0.730161 -0.677116
156974000 0.689158 -0.719786
168972000 0.647249 -0.759406
180970000 0.604467 -0.795816
192968000 0.559985 -0.829125
204966000 0.514501 -0.860251
216964000 0.468448 -0.887319
228962000 0.421148 -0.911208
240960000 0.375189 -0.931427
252958000 0.328674 -0.948057
264956000 0.28231 -0.961714
276954000 0.236251 -0.972594
288952000 0.190992 -0.979876
300950000 0.146036 -0.985108
312948000 0.102337 -0.987843
324946000 0.0605975 -0.988331
336944000 0.0195079 -0.987581
348942000 -0.0205404 -0.985535
360940000 -0.0606641 -0.98229
372938000 -0.099125 -0.979194
384936000 -0.136314 -0.975447
396934000 -0.173316 -0.970995
408932000 -0.209826 -0.966013
420930000 -0.244992 -0.9606
432928000 -0.280668 -0.952997
444926000 -0.314615 -0.944786
456924000 -0.346898 -0.935714
468922000 -0.378956 -0.926575
480920000 -0.408809 -0.915132
492918000 -0.437674 -0.901855
504916000 -0.46534 -0.887996
516914000 -0.493038 -0.873412
528912000 -0.518421 -0.857207
540910000 -0.542961 -0.840731
552908000 -0.565572 -0.823142
564906000 -0.587258 -0.805792
576904000 -0.608188 -0.788637
588902000 -0.627822 -0.771856
600900000 -0.646007 -0.753402
612898000 -0.664096 -0.737329
624896000 -0.681865 -0.720518
636894000 -0.699894 -0.703477
648892000 -0.717214 -0.687806
660890000 -0.734028 -0.671726
672888000 -0.75065 -0.655557
684886000 -0.76766 -0.639351
696884000 -0.783585 -0.621472
708882000 -0.799841 -0.604825
720880000 -0.815914 -0.587154
732878000 -0.829928 -0.56794
744876000 -0.842997 -0.549067
756874000 -0.856003 -0.530072
768872000 -0.868032 -0.509997
780870000 -0.879137 -0.48987
792868000 -0.88842 -0.470222
804866000 -0.896103 -0.450641
816864000 -0.905164 -0.432111
828862000 -0.913079 -0.413212
840860000 -0.918526 -0.395036
852858000 -0.924313 -0.377909
864856000 -0.931735 -0.359502
876854000 -0.93671 -0.342038
888852000 -0.943885 -0.325234
900850000 -0.949628 -0.30843
912848000 -0.954927 -0.292447
924846000 -0.960344 -0.276698
936844000 -0.965993 -0.261766
948842000 -0.972673 -0.247105
960840000 -0.97869 -0.232947
972838000 -0.984388 -0.218157
984836000 -0.989685 -0.202225
996834000 -0.993916 -0.187137
1008832000 -0.996952 -0.171789
1020830000 -1.00056 -0.155904
1032828000 -1.00313 -0.139263
1044826000 -1.00526 -0.123056
1056824000 -1.00734 -0.106308
1068822000 -1.00925 -0.0888578
1080820000 -1.00942 -0.0701736
1092818000 -1.0089 -0.05545
1104816000 -1.00837 -0.0369231
1116814000 -1.00758 -0.0214906
1128812000 -1.00759 -0.0060168
1140810000 -1.00662 0.00991673
1152808000 -1.00662 0.0236311
1164806000 -1.00647 0.0379989
1176804000 -1.00869 0.0542511
1188802000 -1.00417 0.0695134
1200800000 -1.00298 0.0799353
1212798000 -1.00256 0.0921933
1224796000 -1.00113 0.103699
1236794000 -1.002 0.116016
1248792000 -1.00059 0.127788
1260790000 -1.00083 0.139202
1272788000 -0.999938 0.150635
1284786000 -0.997932 0.160889
1296784000 -0.992814 0.172671
1308782000 -0.990259 0.186064
1320780000 -0.987514 0.199491
1332778000 -0.984709 0.213269
1344776000 -0.981808 0.2276
1356774000 -0.979603 0.242577
1368772000 -0.976582 0.254998
1380770000 -0.973121 0.269526
1392768000 -0.968777 0.28481
1404766000 -0.964091 0.300238
1416764000 -0.959437 0.316215
1428762000 -0.953311 0.329847
1440760000 -0.948347 0.344584
1452758000 -0.943262 0.357105
1464756000 -0.939318 0.369809
1476754000 -0.935246 0.382415
1488752000 -0.930529 0.393362
1500750000 -0.925721 0.403697
1512748000 -0.918516 0.413341
1524746000 -0.913036 0.421578
1536744000 -0.906735 0.430406
1548742000 -0.899491 0.440729
1560740000 -0.894217 0.449854
1572738000 -0.889545 0.460262
1584736000 -0.884798 0.470654
1596734000 -0.880897 0.482284
1608732000 -0.876538 0.493588
1620730000 -0.872137 0.503939
1632728000 -0.867647 0.515184
1644726000 -0.860613 0.526318
1656724000 -0.855077 0.538391
1668722000 -0.847711 0.549134
1680720000 -0.842141 0.559344
1692718000 -0.836825 0.569579
1704716000 -0.832775 0.577279
1716714000 -0.825764 0.586201
1728712000 -0.819421 0.595947
1740710000 -0.809996 0.606471
1752708000 -0.801613 0.61697
1764706000 -0.791803 0.624161
1776704000 -0.782524 0.632365
1788702000 -0.773301 0.639763
1800700000 -0.762055 0.648722
1812698000 -0.751001 0.655456
1824696000 -0.74181 0.664236
1836694000 -0.733826 0.673098
1848692000 -0.725716 0.683813
1860690000 -0.717391 0.692988
1872688000 -0.708091 0.702007
1884686000 -0.700014 0.71173
1896684000 -0.692904 0.721197
1908682000 -0.683672 0.732718
1920680000 -0.677532 0.743165
1932678000 -0.66868 0.753089
1944676000 -0.660625 0.763443
1956674000 -0.654725 0.772075
1968672000 -0.650245 0.779539
1980670000 -0.642873 0.785965
1992668000 -0.640769 0.792438
2004666000 -0.633059 0.797416
2016664000 -0.630025 0.799835
2028662000 -0.624036 0.80132
2040660000 -0.616871 0.804803
2052658000 -0.60926 0.806075
2064656000 -0.600792 0.808251
2076654000 -0.590888 0.811811
2088652000 -0.579509 0.813776
2100650000 -0.56902 0.816595
2112648000 -0.554523 0.821883
2124646000 -0.540964 0.830783
2136644000 -0.526658 0.837995
2148642000 -0.513381 0.846979
2160640000 -0.499446 0.856024
2172638000 -0.488969 0.867085
2184636000 -0.478718 0.878709
2196634000 -0.468728 0.889667
2208632000 -0.462594 0.901073
2220630000 -0.457086 0.908804
2232628000 -0.455058 0.914972
2244626000 -0.453785 0.920024
2256624000 -0.450868 0.923764
2268622000 -0.444367 0.926908
2280620000 -0.442121 0.928026
2292618000 -0.43951 0.931208
2304616000 -0.434627 0.93057
2316614000 -0.427406 0.930423
2328612000 -0.415959 0.929672
2340610000 -0.403469 0.930098
2352608000 -0.386858 0.930437
2364606000 -0.372596 0.931983
2376604000 -0.355236 0.932032
2388602000 -0.338888 0.935105
2400600000 -0.322057 0.937335
2412598000 -0.304564 0.942399
2424596000 -0.289268 0.948845
2436594000 -0.274013 0.954494
2448592000 -0.260306 0.959172
2460590000 -0.247054 0.966513
2472588000 -0.236533 0.974485
2484586000 -0.22907 0.981308
2496584000 -0.220393 0.988962
2508582000 -0.212253 0.99258
2520580000 -0.200984 0.997366
2532578000 -0.197072 1.00206
2544576000 -0.19009 1.00815
2556574000 -0.183775 1.00795
2568572000 -0.176124 1.01006
2580570000 -0.165382 1.00928
2592568000 -0.159152 1.00718
2604566000 -0.14838 1.00425
2616564000 -0.140939 1.00056
2628562000 -0.129988 0.998779
2640560000 -0.122631 0.995185
2652558000 -0.108596 0.99235
2664556000 -0.0991483 0.991176
2676554000 -0.0867411 0.989087
2688552000 -0.0749338 0.986902
2700550000 -0.0605091 0.987745
2712548000 -0.0498304 0.98565
2724546000 -0.0338498 0.98753
2736544000 -0.0247129 0.991681
2748542000 -0.0123027 0.994025
2760540000 -0.00103218 0.996984
2772538000 0.00976047 1.00071
2784536000 0.0198957 1.00444
2796534000 0.0290925 1.00512
2808532000 0.0364988 1.00781
2820530000 0.0457964 1.0078
2832528000 0.0548179 1.00759
2844526000 0.063934 1.00869
2856524000 0.0721094 1.00546
2868522000 0.0793696 1.00298
2880520000 0.0866389 0.999275
2892518000 0.0944092 0.99378
2904516000 0.102226 0.992549
2916514000 0.110182 0.988869
2928512000 0.11927 0.984902
2940510000 0.122202 0.983469
2952508000 0.133961 0.978552
2964506000 0.144852 0.973807
2976504000 0.156402 0.972002
2988502000 0.17005 0.972744
3000500000 0.178459 0.970056
3012498000 0.192679 0.97186
3024496000 0.196702 0.970671
3036494000 0.210473 0.970816
3048492000 0.220932 0.969734
3060490000 0.230627 0.968659
3072488000 0.239061 0.967836
3084486000 0.246256 0.965967
3096484000 0.254728 0.962339
3108482000 0.262051 0.961061
3120480000 0.27147 0.958798
3132478000 0.274188 0.954478
3144476000 0.285505 0.950836
3156474000 0.291524 0.948884
3168472000 0.298625 0.945656
3180470000 0.308443 0.94098
3192468000 0.317362 0.937146
3204466000 0.326593 0.931161
3216464000 0.336696 0.926596
3228462000 0.348537 0.922478
3240460000 0.359732 0.917407
3252458000 0.371214 0.913706
3264456000 0.380519 0.91059
3276454000 0.390267 0.907254
3288452000 0.400889 0.90344
3300450000 0.407684 0.897069
3312448000 0.421419 0.892669
3324446000 0.430202 0.886106
3336444000 0.440765 0.882178
3348442000 0.449407 0.876525
3360440000 0.459374 0.870964
3372438000 0.467896 0.864689
3384436000 0.475818 0.858113
3396434000 0.483415 0.849929
3408432000 0.496493 0.844163
3420430000 0.505844 0.841119
3432428000 0.516075 0.832426
3444426000 0.528167 0.824924
3456424000 0.539531 0.81809
3468422000 0.546922 0.812198
3480420000 0.557832 0.804837
3492418000 0.5682 0.799192
3504416000 0.577545 0.791717
3516414000 0.587342 0.785111
3528412000 0.597123 0.778993
3540410000 0.603708 0.77613
3552408000 0.611247 0.768955
3564406000 0.62231 0.766428
3576404000 0.62506 0.755232
3588402000 0.635074 0.754221
3600400000 0.640718 0.744367
3612398000 0.646344 0.738329
3624396000 0.653632 0.73017
3636394000 0.661058 0.72278
3648392000 0.667454 0.716442
3660390000 0.674964 0.708642
3672388000 0.68008 0.700367
3684386000 0.688927 0.691612
3696384000 0.697047 0.684524
3708382000 0.706074 0.674638
3720380000 0.71552 0.666015
3732378000 0.720771 0.657035
3744376000 0.72807 0.647049
3756374000 0.737771 0.637319
3768372000 0.743635 0.629098
3780370000 0.751508 0.619072
3792368000 0.75646 0.614706
3804366000 0.764171 0.605317
3816364000 0.768634 0.597965
3828362000 0.77499 0.59325
3840360000 0.779094 0.588337
3852358000 0.782718 0.578256
3864356000 0.786696 0.573241
3876354000 0.787932 0.568539
3888352000 0.794118 0.561369
3900350000 0.798011 0.555897
3912348000 0.801732 0.550032
3924346000 0.807017 0.54396
3936344000 0.809616 0.538425
3948342000 0.812444 0.532257
3960340000 0.8111 0.5277
3972338000 0.815996 0.521912
3984336000 0.820562 0.510529
3996334000 0.827449 0.502305
4008332000 0.832118 0.495025
4020330000 0.836085 0.485727
4032328000 0.844481 0.475478
4044326000 0.847442 0.466256
4056324000 0.853103 0.456366
4068322000 0.855783 0.443245
4080320000 0.859446 0.429452
4092318000 0.866217 0.415934
4104316000 0.872572 0.39591
4116314000 0.87652 0.377625
4128312000 0.883382 0.36085
4140310000 0.890019 0.341097
4152308000 0.895613 0.324436
4164306000 0.902293 0.308417
4176304000 0.908054 0.294033
4188302000 0.913215 0.2833
4200300000 0.917258 0.275733
4212298000 0.915962 0.27083
4224296000 0.917571 0.269724
4236294000 0.920173 0.262842
4248292000 0.918647 0.260711
4260290000 0.928469 0.256948
4272288000 0.926603 0.254146
4284286000 0.927396 0.247745
4296284000 0.930064 0.239899
4308282000 0.930571 0.2252
4320280000 0.931336 0.216525
4332278000 0.93064 0.202687
4344276000 0.930109 0.186544
4356274000 0.931015 0.17478
4368272000 0.924465 0.162118
4380270000 0.924805 0.145074
4392268000 0.92103 0.124334
4404266000 0.920929 0.107502
4416264000 0.920684 0.085635
4428262000 0.919903 0.0675686
4440260000 0.921659 0.0491955
4452258000 0.926832 0.0309641
4464256000 0.925776 0.0152482
4476254000 0.929786 -0.000965712
4488252000 0.93085 -0.0129899
4500250000 0.929872 -0.0225459
4512248000 0.929847 -0.037602
4524246000 0.932564 -0.0467262
4536244000 0.933584 -0.0571917
4548242000 0.930798 -0.065591
4560240000 0.930468 -0.0708605
4572238000 0.928033 -0.0772829
4584236000 0.924571 -0.088276
4596234000 0.919173 -0.0935812
4608232000 0.913355 -0.104251
4620230000 0.906893 -0.116442
4632228000 0.896779 -0.132719
4644226000 0.888913 -0.14946
4656224000 0.878659 -0.167464
4668222000 0.870906 -0.184144
4680220000 0.859524 -0.203897
4692218000 0.856486 -0.223648
4704216000 0.844022 -0.241378
4716214000 0.834149 -0.259162
4728212000 0.823757 -0.276483
4740210000 0.812299 -0.291922
4752208000 0.798491 -0.31272
4764206000 0.787899 -0.32953
4776204000 0.778087 -0.345473
4788202000 0.769866 -0.361021
4800200000 0.756871 -0.376951
4812198000 0.74908 -0.393294
4824196000 0.739645 -0.40542
4836194000 0.725021 -0.414423
4848192000 0.713199 -0.427232
4860190000 0.698465 -0.436248
4872188000 0.683949 -0.444655
4884186000 0.660279 -0.452253
4896184000 0.640836 -0.460344
4908182000 0.621229 -0.472846
4920180000 0.593914 -0.477668
4932178000 0.569755 -0.491212
4944176000 0.539916 -0.496334
4956174000 0.513558 -0.50501
4968172000 0.477548 -0.506285
4980170000 0.444231 -0.508592
4992168000 0.410284 -0.509218
5004166000 0.376816 -0.512669
5016164000 0.339248 -0.513372
5028162000 0.306103 -0.511106
5040160000 0.268873 -0.504225
5052158000 0.233578 -0.498232
5064156000 0.199557 -0.484669
5076154000 0.168848 -0.471261
5088152000 0.136226 -0.45674
5100150000 0.106468 -0.434073
5112148000 0.0824519 -0.409456
5124146000 0.0566379 -0.383644
5136144000 0.0337282 -0.351285
5148142000 0.0158482 -0.317751
5160140000 -0.000254359 -0.276439
5172138000 -0.00574471 -0.237564
5184136000 -0.00955134 -0.193545
5196134000 -0.0140391 -0.145139
5208132000 -0.0108548 -0.0953124
5220130000 -0.0100486 -0.0499981
5232128000 -0.00635697 -0.000944591
5244126000 -0.00205238 0.045192
5256124000 0.00843476 0.0867125
5268122000 0.0202755 0.131285
5280120000 0.0378438 0.166294
5292118000 0.059404 0.198364
5304116000 0.091208 0.223306
5316114000 0.123242 0.242385
5328112000 0.160099 0.260893
5340110000 0.19899 0.277817
5352108000 0.229136 0.286483
5364106000 0.269915 0.300083
5376104000 0.304854 0.304913
5388102000 0.335995 0.30959
5400100000 0.368054 0.310465
5412098000 0.398825 0.30968
5424096000 0.429072 0.305979
5436094000 0.458026 0.302329
5448092000 0.484028 0.295587
5460090000 0.511203 0.288011
5472088000 0.53794 0.277965
5484086000 0.563014 0.266486
5496084000 0.590419 0.2528
5508082000 0.615274 0.239242
5520080000 0.635122 0.224658
5532078000 0.657454 0.21189
5544076000 0.676927 0.196574
5556074000 0.695774 0.181912
5568072000 0.709529 0.172705
5580070000 0.725482 0.158789
5592068000 0.73821 0.143948
5604066000 0.754437 0.129001
5616064000 0.758178 0.118372
5628062000 0.771704 0.103596
5640060000 0.77365 0.0943354
5652058000 0.783472 0.077995
5664056000 0.790965 0.0614085
5676054000 0.797322 0.0434379
5688052000 0.798359 0.0317011
5700050000 0.804205 0.0160268
5712048000 0.808389 -0.000856581
5724046000 0.812952 -0.0179118
5736044000 0.819551 -0.0342
5748042000 0.822088 -0.0496529
5760040000 0.825789 -0.0661571
5772038000 0.829733 -0.0832242
5784036000 0.833103 -0.0970272
5796034000 0.838305 -0.114291
5808032000 0.843586 -0.125911
5820030000 0.8464 -0.146499
5832028000 0.852457 -0.16002
5844026000 0.854689 -0.174358
5856024000 0.85822 -0.190017
5868022000 0.855924 -0.212743
5880020000 0.852165 -0.217212
5892018000 0.857656 -0.23691
5904016000 0.854545 -0.255037
5916014000 0.85405 -0.2683
5928012000 0.843872 -0.290278
5940010000 0.843705 -0.303352
5952008000 0.836647 -0.311264
5964006000 0.829712 -0.331957
5976004000 0.823087 -0.345312
5988002000 0.817301 -0.361232
6000000000 0.807671 -0.373995
