# Hz S RI R 50
1000000 0.986588 -0.00251296
12998000 1.01535 -0.0584239
24996000 1.01019 -0.127434
36994000 0.996847 -0.193131
48992000 0.979551 -0.256428
60990000 0.959106 -0.316061
72988000 0.93394 -0.375013
84986000 0.90598 -0.430657
96984000 0.87481 -0.484642
108982000 0.841201 -0.53661
120980000 0.805938 -0.58582
132978000 0.768895 -0.632468
144976000 0.729849 -0.677406
156974000 0.689254 -0.719952
168972000 0.647002 -0.759403
180970000 0.603918 -0.796168
192968000 0.559696 -0.829502
204966000 0.513875 -0.86028
216964000 0.468145 -0.887548
228962000 0.420918 -0.911342
240960000 0.374962 -0.931572
252958000 0.32828 -0.948069
264956000 0.28194 -0.961776
276954000 0.235941 -0.972627
288952000 0.190763 -0.980041
300950000 0.145887 -0.985172
312948000 0.102296 -0.987801
324946000 0.0601542 -0.988507
336944000 0.0193475 -0.987316
348942000 -0.0203925 -0.985678
360940000 -0.0607508 -0.982256
372938000 -0.0994051 -0.979123
384936000 -0.136592 -0.975454
396934000 -0.173395 -0.971017
408932000 -0.209953 -0.966016
420930000 -0.244727 -0.960653
432928000 -0.280553 -0.953086
444926000 -0.31427 -0.944847
456924000 -0.346821 -0.936176
468922000 -0.3787 -0.92646
480920000 -0.408861 -0.915206
492918000 -0.437362 -0.902035
504916000 -0.465172 -0.887931
516914000 -0.492722 -0.873631
528912000 -0.518053 -0.857526
540910000 -0.543311 -0.840211
552908000 -0.565895 -0.82338
564906000 -0.587399 -0.80563
576904000 -0.608431 -0.788286
588902000 -0.628255 -0.771242
600900000 -0.646971 -0.753665
612898000 -0.66393 -0.736883
624896000 -0.682188 -0.720146
636894000 -0.699806 -0.703401
648892000 -0.717104 -0.687783
660890000 -0.734124 -0.67185
672888000 -0.750892 -0.654995
684886000 -0.767451 -0.639058
696884000 -0.784445 -0.621559
708882000 -0.800314 -0.604564
720880000 -0.816137 -0.586821
732878000 -0.83014 -0.5677
744876000 -0.843179 -0.549088
756874000 -0.856121 -0.530138
768872000 -0.868415 -0.509692
780870000 -0.878934 -0.489749
792868000 -0.888374 -0.470091
804866000 -0.896568 -0.450334
816864000 -0.905403 -0.431491
828862000 -0.912599 -0.41315
840860000 -0.919618 -0.394926
852858000 -0.924062 -0.37769
864856000 -0.931487 -0.359407
876854000 -0.937306 -0.341901
888852000 -0.943786 -0.325438
900850000 -0.949299 -0.308561
912848000 -0.954969 -0.292566
924846000 -0.960486 -0.276721
936844000 -0.966146 -0.26156
948842000 -0.972432 -0.247161
960840000 -0.978477 -0.233004
972838000 -0.984298 -0.218103
984836000 -0.98938 -0.201754
996834000 -0.993305 -0.186446
1008832000 -0.996512 -0.171648
1020830000 -1.00075 -0.155878
1032828000 -1.00299 -0.1392
1044826000 -1.00529 -0.122968
1056824000 -1.00725 -0.106457
1068822000 -1.00939 -0.0893586
1080820000 -1.00809 -0.0711073
1092818000 -1.00849 -0.0544946
1104816000 -1.00875 -0.0373626
1116814000 -1.0074 -0.0214
1128812000 -1.00863 -0.00643102
1140810000 -1.00631 0.00925735
1152808000 -1.00673 0.0230686
1164806000 -1.00632 0.0378423
1176804000 -1.00891 0.0545211
1188802000 -1.00417 0.0692816
1200800000 -1.00226 0.0804603
1212798000 -1.00267 0.0921332
1224796000 -1.00151 0.104504
1236794000 -1.00188 0.116243
1248792000 -1.00102 0.128082
1260790000 -1.00147 0.139047
1272788000 -0.99944 0.149939
1284786000 -0.997189 0.162254
1296784000 -0.992457 0.172603
1308782000 -0.990176 0.18579
1320780000 -0.987472 0.199403
1332778000 -0.984595 0.213196
1344776000 -0.981828 0.227499
1356774000 -0.979272 0.242674
1368772000 -0.976044 0.254823
1380770000 -0.972478 0.270411
1392768000 -0.967851 0.284286
1404766000 -0.963233 0.30077
1416764000 -0.95884 0.316476
1428762000 -0.953524 0.330652
1440760000 -0.948106 0.344808
1452758000 -0.943331 0.357039
1464756000 -0.939503 0.369439
1476754000 -0.935028 0.382459
1488752000 -0.930794 0.39315
1500750000 -0.926282 0.404944
1512748000 -0.917942 0.412845
1524746000 -0.912512 0.421756
1536744000 -0.906236 0.430224
1548742000 -0.900068 0.440756
1560740000 -0.894202 0.449172
1572738000 -0.889048 0.460763
1584736000 -0.884966 0.471494
1596734000 -0.881016 0.482129
1608732000 -0.8765 0.493578
1620730000 -0.872238 0.503619
1632728000 -0.867008 0.514579
1644726000 -0.862015 0.526985
1656724000 -0.855254 0.537596
1668722000 -0.848057 0.547949
1680720000 -0.842083 0.558309
1692718000 -0.837541 0.568632
1704716000 -0.832088 0.578631
1716714000 -0.825407 0.586579
1728712000 -0.818646 0.595572
1740710000 -0.809454 0.606457
1752708000 -0.801191 0.616683
1764706000 -0.791978 0.624082
1776704000 -0.782103 0.632643
1788702000 -0.772787 0.639814
1800700000 -0.76351 0.646765
1812698000 -0.750588 0.655483
1824696000 -0.742033 0.664827
1836694000 -0.734735 0.672826
1848692000 -0.726549 0.684136
1860690000 -0.716845 0.692465
1872688000 -0.708449 0.702456
1884686000 -0.700321 0.711684
1896684000 -0.692809 0.721288
1908682000 -0.683945 0.732579
1920680000 -0.677486 0.743444
1932678000 -0.669134 0.754412
1944676000 -0.659664 0.762776
1956674000 -0.655634 0.771769
1968672000 -0.6518 0.781094
1980670000 -0.644742 0.788672
1992668000 -0.639934 0.791421
2004666000 -0.634069 0.79659
2016664000 -0.62968 0.799438
2028662000 -0.624113 0.80099
2040660000 -0.617909 0.804399
2052658000 -0.609559 0.805904
2064656000 -0.601369 0.807737
2076654000 -0.591344 0.811359
2088652000 -0.579887 0.813926
2100650000 -0.568575 0.816831
2112648000 -0.554676 0.82317
2124646000 -0.541462 0.830738
2136644000 -0.526457 0.838443
2148642000 -0.513802 0.846367
2160640000 -0.499201 0.857713
2172638000 -0.489174 0.866606
2184636000 -0.478722 0.878668
2196634000 -0.46863 0.889852
2208632000 -0.462521 0.901606
2220630000 -0.457853 0.908534
2232628000 -0.455636 0.914475
2244626000 -0.452716 0.920259
2256624000 -0.450564 0.92527
2268622000 -0.446072 0.925647
2280620000 -0.442762 0.928569
2292618000 -0.439325 0.930497
2304616000 -0.434975 0.929814
2316614000 -0.428265 0.929699
2328612000 -0.4164 0.929702
2340610000 -0.403271 0.930302
2352608000 -0.387532 0.930593
2364606000 -0.371398 0.931059
2376604000 -0.356386 0.932375
2388602000 -0.338889 0.93494
2400600000 -0.321423 0.938646
2412598000 -0.30409 0.941966
2424596000 -0.290917 0.948173
2436594000 -0.2736 0.954612
2448592000 -0.260989 0.95946
2460590000 -0.246767 0.966598
2472588000 -0.236376 0.974468
2484586000 -0.228232 0.980946
2496584000 -0.21924 0.988342
2508582000 -0.20978 0.995081
2520580000 -0.202469 0.999167
2532578000 -0.19554 1.0017
2544576000 -0.190702 1.00783
2556574000 -0.18302 1.00772
2568572000 -0.175579 1.01066
2580570000 -0.165482 1.01002
2592568000 -0.158687 1.00804
2604566000 -0.14798 1.00481
2616564000 -0.141215 1.00087
2628562000 -0.130075 1.00085
2640560000 -0.121359 0.992947
2652558000 -0.110405 0.992174
2664556000 -0.098906 0.989547
2676554000 -0.0861299 0.988692
2688552000 -0.0729028 0.986691
2700550000 -0.0613706 0.985507
2712548000 -0.0473743 0.985727
2724546000 -0.0345107 0.986908
2736544000 -0.0248763 0.992162
2748542000 -0.0117412 0.994187
2760540000 -0.000853501 0.997251
2772538000 0.0100675 1.00064
2784536000 0.0201706 1.00396
2796534000 0.0295356 1.00533
2808532000 0.0344602 1.00682
2820530000 0.0464278 1.00861
2832528000 0.0547739 1.00858
2844526000 0.0636993 1.00846
2856524000 0.0725575 1.00479
2868522000 0.0791756 1.00277
2880520000 0.0864054 0.999455
2892518000 0.0952791 0.993806
2904516000 0.103082 0.992507
2916514000 0.111051 0.989025
2928512000 0.118836 0.984567
2940510000 0.123441 0.983395
2952508000 0.134732 0.978429
2964506000 0.145765 0.973132
2976504000 0.155471 0.971718
2988502000 0.168214 0.972968
3000500000 0.179707 0.966555
3012498000 0.192199 0.972286
3024496000 0.196471 0.971112
3036494000 0.210725 0.97047
3048492000 0.221255 0.969721
3060490000 0.231125 0.968915
3072488000 0.238459 0.967439
3084486000 0.247698 0.966931
3096484000 0.253864 0.964081
3108482000 0.261749 0.961519
3120480000 0.269134 0.958305
3132478000 0.274027 0.955171
3144476000 0.285101 0.950686
3156474000 0.293795 0.949697
3168472000 0.299855 0.946173
3180470000 0.30914 0.940811
3192468000 0.317649 0.937088
3204466000 0.326725 0.931131
3216464000 0.336306 0.926523
3228462000 0.348447 0.921411
3240460000 0.360009 0.916976
3252458000 0.371592 0.91321
3264456000 0.381264 0.910338
3276454000 0.389848 0.908652
3288452000 0.402047 0.90152
3300450000 0.408065 0.896123
3312448000 0.421688 0.891716
3324446000 0.429605 0.886106
3336444000 0.441187 0.882284
3348442000 0.449444 0.876161
3360440000 0.457793 0.872166
3372438000 0.467022 0.864802
3384436000 0.477975 0.859532
3396434000 0.485394 0.850919
3408432000 0.494837 0.845605
3420430000 0.507125 0.841089
3432428000 0.514438 0.832494
3444426000 0.528269 0.824434
3456424000 0.53913 0.818499
3468422000 0.546809 0.811879
3480420000 0.557655 0.804762
3492418000 0.567931 0.798893
3504416000 0.579358 0.79267
3516414000 0.587365 0.784988
3528412000 0.596602 0.780447
3540410000 0.604614 0.776027
3552408000 0.612571 0.771581
3564406000 0.621005 0.765836
3576404000 0.62795 0.755521
3588402000 0.634531 0.753007
3600400000 0.640247 0.746651
3612398000 0.646481 0.738637
3624396000 0.653516 0.730278
3636394000 0.661718 0.723459
3648392000 0.667988 0.717574
3660390000 0.674269 0.708708
3672388000 0.684271 0.700427
3684386000 0.691823 0.691301
3696384000 0.699203 0.68229
3708382000 0.707904 0.675523
3720380000 0.714858 0.665522
3732378000 0.721883 0.656987
3744376000 0.726017 0.64932
3756374000 0.736837 0.637861
3768372000 0.743966 0.629585
3780370000 0.75124 0.619333
3792368000 0.75718 0.614663
3804366000 0.764639 0.606898
3816364000 0.768599 0.598629
3828362000 0.774354 0.593291
3840360000 0.777654 0.589017
3852358000 0.783079 0.579835
3864356000 0.785992 0.575544
3876354000 0.788564 0.568047
3888352000 0.793591 0.561519
3900350000 0.798278 0.556936
3912348000 0.801672 0.550284
3924346000 0.806607 0.544072
3936344000 0.80829 0.538601
3948342000 0.812223 0.531729
3960340000 0.810729 0.527101
3972338000 0.815098 0.520843
3984336000 0.821086 0.508975
3996334000 0.826501 0.502106
4008332000 0.832565 0.493789
4020330000 0.836732 0.486679
4032328000 0.84324 0.477149
4044326000 0.84768 0.466998
4056324000 0.853261 0.455973
4068322000 0.855513 0.443493
4080320000 0.859121 0.429821
4092318000 0.866381 0.415501
4104316000 0.871015 0.39768
4116314000 0.876797 0.37624
4128312000 0.882621 0.35976
4140310000 0.889311 0.340606
4152308000 0.894962 0.325414
4164306000 0.902482 0.307966
4176304000 0.908466 0.294676
4188302000 0.9133 0.283242
4200300000 0.917621 0.276531
4212298000 0.916494 0.271054
4224296000 0.917287 0.269735
4236294000 0.920934 0.262834
4248292000 0.922179 0.262872
4260290000 0.926578 0.254595
4272288000 0.925763 0.254439
4284286000 0.928598 0.250052
4296284000 0.930555 0.238701
4308282000 0.92819 0.226111
4320280000 0.929042 0.216894
4332278000 0.932224 0.205419
4344276000 0.926816 0.188531
4356274000 0.93138 0.175268
4368272000 0.924113 0.163249
4380270000 0.924794 0.1453
4392268000 0.920985 0.124536
4404266000 0.92071 0.109
4416264000 0.920955 0.0855016
4428262000 0.919815 0.0672074
4440260000 0.919637 0.0492447
4452258000 0.925168 0.0309047
4464256000 0.927088 0.0149761
4476254000 0.928077 0.000951035
4488252000 0.93073 -0.0130224
4500250000 0.930301 -0.0218357
4512248000 0.930025 -0.0377211
4524246000 0.932065 -0.0475172
4536244000 0.934115 -0.0574219
4548242000 0.931869 -0.0685025
4560240000 0.931937 -0.0705088
4572238000 0.92795 -0.0779913
4584236000 0.927504 -0.0861609
4596234000 0.919948 -0.0962182
4608232000 0.914845 -0.1053
4620230000 0.908425 -0.115957
4632228000 0.899183 -0.136978
4644226000 0.889474 -0.150905
4656224000 0.879392 -0.169013
4668222000 0.871316 -0.183856
4680220000 0.859656 -0.203814
4692218000 0.856656 -0.223298
4704216000 0.843932 -0.241253
4716214000 0.83427 -0.26017
4728212000 0.821622 -0.274093
4740210000 0.812087 -0.293875
4752208000 0.799562 -0.312538
4764206000 0.788467 -0.330825
4776204000 0.778491 -0.345721
4788202000 0.770041 -0.360792
4800200000 0.756701 -0.377186
4812198000 0.749662 -0.393624
4824196000 0.739435 -0.405875
4836194000 0.724545 -0.416154
4848192000 0.714271 -0.427295
4860190000 0.698385 -0.435558
4872188000 0.682084 -0.445544
4884186000 0.662591 -0.453135
4896184000 0.641961 -0.463004
4908182000 0.62291 -0.473027
4920180000 0.594052 -0.479678
4932178000 0.569742 -0.491512
4944176000 0.540263 -0.496298
4956174000 0.513207 -0.505199
4968172000 0.477871 -0.505584
4980170000 0.444888 -0.509296
4992168000 0.411063 -0.510535
5004166000 0.376759 -0.511412
5016164000 0.339684 -0.513703
5028162000 0.306174 -0.510587
5040160000 0.2684 -0.503799
5052158000 0.233562 -0.498175
5064156000 0.19899 -0.484696
5076154000 0.169489 -0.471141
5088152000 0.135326 -0.456441
5100150000 0.105944 -0.433719
5112148000 0.0837104 -0.409502
5124146000 0.0566986 -0.384
5136144000 0.0336974 -0.350981
5148142000 0.0162889 -0.318189
5160140000 -0.00012584 -0.276544
5172138000 -0.0055131 -0.238089
5184136000 -0.00960084 -0.193594
5196134000 -0.0137022 -0.145859
5208132000 -0.0109436 -0.0950487
5220130000 -0.00955826 -0.0497152
5232128000 -0.00634039 -0.000901184
5244126000 -0.00197618 0.0455476
5256124000 0.00847349 0.087132
5268122000 0.0204142 0.131355
5280120000 0.0379293 0.166452
5292118000 0.0594949 0.198457
5304116000 0.0918053 0.223567
5316114000 0.122941 0.243466
5328112000 0.159303 0.261637
5340110000 0.200946 0.278494
5352108000 0.229585 0.287794
5364106000 0.269571 0.299273
5376104000 0.30476 0.303169
5388102000 0.336143 0.310853
5400100000 0.368168 0.308454
5412098000 0.398108 0.310454
5424096000 0.428814 0.305963
5436094000 0.457962 0.302635
5448092000 0.483703 0.295609
5460090000 0.511446 0.287971
5472088000 0.53772 0.277893
5484086000 0.564063 0.265748
5496084000 0.590344 0.25207
5508082000 0.613907 0.239737
5520080000 0.635 0.224059
5532078000 0.657298 0.212466
5544076000 0.676811 0.196699
5556074000 0.695905 0.181805
5568072000 0.709292 0.172762
5580070000 0.726091 0.159761
5592068000 0.738691 0.142265
5604066000 0.753847 0.13154
5616064000 0.759665 0.11685
5628062000 0.772097 0.103019
5640060000 0.77733 0.0954986
5652058000 0.783335 0.0782927
5664056000 0.790893 0.0623784
5676054000 0.794592 0.0478289
5688052000 0.798605 0.029902
5700050000 0.803529 0.0151244
5712048000 0.808304 -0.000870576
5724046000 0.813064 -0.0178182
5736044000 0.819652 -0.0345112
5748042000 0.823083 -0.0505326
5760040000 0.825019 -0.0671597
5772038000 0.830214 -0.0837445
5784036000 0.835516 -0.0993734
5796034000 0.83879 -0.114433
5808032000 0.843064 -0.126197
5820030000 0.846252 -0.146193
5832028000 0.853029 -0.159353
5844026000 0.854061 -0.174048
5856024000 0.858435 -0.189257
5868022000 0.856056 -0.209414
5880020000 0.854272 -0.221262
5892018000 0.858132 -0.239137
5904016000 0.85486 -0.256656
5916014000 0.853586 -0.272346
5928012000 0.849082 -0.288781
5940010000 0.844343 -0.301706
5952008000 0.836683 -0.313833
5964006000 0.824637 -0.332529
5976004000 0.824601 -0.344974
5988002000 0.817678 -0.35927
6000000000 0.808018 -0.374295
