# Hz S RI R 50
1000000 0.990446 -0.00522944
12998000 1.01566 -0.0581732
24996000 1.01039 -0.127334
36994000 0.997046 -0.193039
48992000 0.979586 -0.256398
60990000 0.958956 -0.316186
72988000 0.934062 -0.37506
84986000 0.906073 -0.43071
96984000 0.874944 -0.484552
108982000 0.841294 -0.536501
120980000 0.805842 -0.585984
132978000 0.768763 -0.632373
144976000 0.729936 -0.677036
156974000 0.689255 -0.71985
168972000 0.647293 -0.759196
180970000 0.604001 -0.796003
192968000 0.55982 -0.829257
204966000 0.514321 -0.860131
216964000 0.468534 -0.887566
228962000 0.421307 -0.911349
240960000 0.375027 -0.931628
252958000 0.328687 -0.948107
264956000 0.282031 -0.961653
276954000 0.236212 -0.972506
288952000 0.191219 -0.979852
300950000 0.146311 -0.985025
312948000 0.102552 -0.987755
324946000 0.0602667 -0.988319
336944000 0.0192938 -0.987561
348942000 -0.0203335 -0.985768
360940000 -0.0606616 -0.982389
372938000 -0.0992103 -0.9792
384936000 -0.13639 -0.975487
396934000 -0.173038 -0.970992
408932000 -0.209688 -0.965901
420930000 -0.244498 -0.960415
432928000 -0.280809 -0.953063
444926000 -0.314627 -0.944911
456924000 -0.346738 -0.936007
468922000 -0.379016 -0.926537
480920000 -0.408759 -0.915064
492918000 -0.437556 -0.90194
504916000 -0.465073 -0.88815
516914000 -0.493073 -0.873509
528912000 -0.518053 -0.857356
540910000 -0.543212 -0.840663
552908000 -0.565727 -0.822956
564906000 -0.587318 -0.805832
576904000 -0.607808 -0.788461
588902000 -0.628054 -0.771406
600900000 -0.646671 -0.753769
612898000 -0.664101 -0.736968
624896000 -0.682012 -0.720425
636894000 -0.699712 -0.703621
648892000 -0.717055 -0.687814
660890000 -0.734027 -0.672136
672888000 -0.751087 -0.655516
684886000 -0.767369 -0.639274
696884000 -0.784063 -0.621511
708882000 -0.799815 -0.604032
720880000 -0.81584 -0.587375
732878000 -0.82969 -0.567336
744876000 -0.84317 -0.549048
756874000 -0.856083 -0.530312
768872000 -0.867971 -0.510355
780870000 -0.878835 -0.490016
792868000 -0.888121 -0.470468
804866000 -0.896297 -0.450525
816864000 -0.905525 -0.431479
828862000 -0.913426 -0.412863
840860000 -0.919529 -0.395222
852858000 -0.924888 -0.377954
864856000 -0.931794 -0.359803
876854000 -0.937397 -0.342118
888852000 -0.9438 -0.325504
900850000 -0.949223 -0.308352
912848000 -0.954853 -0.292694
924846000 -0.960465 -0.277075
936844000 -0.966057 -0.261517
948842000 -0.97176 -0.247301
960840000 -0.978505 -0.233354
972838000 -0.984621 -0.218714
984836000 -0.989462 -0.202432
996834000 -0.993351 -0.186951
1008832000 -0.996583 -0.172082
1020830000 -1.00083 -0.155907
1032828000 -1.00305 -0.139238
1044826000 -1.00531 -0.123312
1056824000 -1.00718 -0.106957
1068822000 -1.00872 -0.0895402
1080820000 -1.00872 -0.0714119
1092818000 -1.00858 -0.0551665
1104816000 -1.00851 -0.0382426
1116814000 -1.00766 -0.0222795
1128812000 -1.00785 -0.00660934
1140810000 -1.00583 0.00941643
1152808000 -1.00588 0.0230443
1164806000 -1.00632 0.0375231
1176804000 -1.00887 0.0539506
1188802000 -1.00418 0.0690464
1200800000 -1.00341 0.0786866
1212798000 -1.00273 0.0907627
1224796000 -1.00221 0.103307
1236794000 -1.00191 0.115468
1248792000 -1.00074 0.126646
1260790000 -0.999766 0.138649
1272788000 -0.998987 0.149448
1284786000 -0.996504 0.161019
1296784000 -0.992609 0.172291
1308782000 -0.990285 0.185612
1320780000 -0.987474 0.199254
1332778000 -0.984776 0.212831
1344776000 -0.982029 0.227334
1356774000 -0.979489 0.242396
1368772000 -0.976376 0.254617
1380770000 -0.973258 0.269553
1392768000 -0.968633 0.284047
1404766000 -0.964469 0.299901
1416764000 -0.959653 0.314803
1428762000 -0.953866 0.329521
1440760000 -0.947308 0.344015
1452758000 -0.943247 0.357005
1464756000 -0.93976 0.369353
1476754000 -0.935393 0.381962
1488752000 -0.930888 0.392924
1500750000 -0.928233 0.402782
1512748000 -0.918317 0.412344
1524746000 -0.912823 0.42198
1536744000 -0.906319 0.429758
1548742000 -0.899908 0.440718
1560740000 -0.894535 0.45011
1572738000 -0.888806 0.460416
1584736000 -0.884235 0.470931
1596734000 -0.88072 0.482384
1608732000 -0.876207 0.493855
1620730000 -0.872139 0.503957
1632728000 -0.867552 0.514555
1644726000 -0.861552 0.526894
1656724000 -0.854445 0.537099
1668722000 -0.848667 0.548036
1680720000 -0.842827 0.559119
1692718000 -0.838499 0.568904
1704716000 -0.833429 0.577167
1716714000 -0.825622 0.584625
1728712000 -0.819645 0.595108
1740710000 -0.810253 0.607426
1752708000 -0.801352 0.616771
1764706000 -0.792034 0.623928
1776704000 -0.782682 0.63209
1788702000 -0.77307 0.638973
1800700000 -0.762702 0.647085
1812698000 -0.750365 0.655159
1824696000 -0.743389 0.66574
1836694000 -0.733616 0.673214
1848692000 -0.725531 0.683445
1860690000 -0.717536 0.692328
1872688000 -0.708632 0.701885
1884686000 -0.700284 0.7119
1896684000 -0.693015 0.721092
1908682000 -0.683836 0.732811
1920680000 -0.678124 0.743863
1932678000 -0.669759 0.753614
1944676000 -0.660773 0.762749
1956674000 -0.656184 0.771214
1968672000 -0.651106 0.780462
1980670000 -0.644513 0.788006
1992668000 -0.639672 0.791523
2004666000 -0.635818 0.795647
2016664000 -0.630042 0.799255
2028662000 -0.623773 0.801711
2040660000 -0.616841 0.804385
2052658000 -0.609768 0.806022
2064656000 -0.601288 0.807628
2076654000 -0.591356 0.811885
2088652000 -0.579897 0.814348
2100650000 -0.570099 0.817394
2112648000 -0.554514 0.821773
2124646000 -0.541438 0.828815
2136644000 -0.526767 0.837891
2148642000 -0.513088 0.847161
2160640000 -0.499098 0.856404
2172638000 -0.489565 0.866835
2184636000 -0.478997 0.878748
2196634000 -0.469085 0.88973
2208632000 -0.462338 0.90163
2220630000 -0.457942 0.90636
2232628000 -0.455548 0.914873
2244626000 -0.452941 0.920916
2256624000 -0.45097 0.925081
2268622000 -0.445474 0.927127
2280620000 -0.442366 0.929756
2292618000 -0.440485 0.930114
2304616000 -0.434559 0.930906
2316614000 -0.428648 0.930313
2328612000 -0.41703 0.929553
2340610000 -0.404096 0.929299
2352608000 -0.387581 0.930367
2364606000 -0.372959 0.929562
2376604000 -0.355933 0.93162
2388602000 -0.339767 0.933348
2400600000 -0.322569 0.938529
2412598000 -0.305713 0.942212
2424596000 -0.289703 0.948562
2436594000 -0.274089 0.954167
2448592000 -0.261267 0.958619
2460590000 -0.247457 0.966638
2472588000 -0.236815 0.974401
2484586000 -0.228841 0.981029
2496584000 -0.220655 0.988597
2508582000 -0.211796 0.993442
2520580000 -0.203257 1.00264
2532578000 -0.197029 1.00225
2544576000 -0.19204 1.00728
2556574000 -0.183811 1.00662
2568572000 -0.176836 1.01103
2580570000 -0.166274 1.01008
2592568000 -0.159819 1.00811
2604566000 -0.156362 1.00386
2616564000 -0.142523 1.00058
2628562000 -0.131077 0.998869
2640560000 -0.120554 0.994035
2652558000 -0.111551 0.9937
2664556000 -0.0998361 0.990117
2676554000 -0.0869142 0.989381
2688552000 -0.0753915 0.986296
2700550000 -0.0604407 0.987436
2712548000 -0.0501227 0.986848
2724546000 -0.0345934 0.98698
2736544000 -0.0253447 0.991864
2748542000 -0.012657 0.99414
2760540000 -0.00158038 0.997114
2772538000 0.0094225 1.00044
2784536000 0.0203702 1.0037
2796534000 0.029562 1.0057
2808532000 0.0381246 1.00757
2820530000 0.0445647 1.00745
2832528000 0.0535805 1.00847
2844526000 0.0634534 1.0089
2856524000 0.0713663 1.00531
2868522000 0.0781652 1.00291
2880520000 0.0861809 0.999247
2892518000 0.0942714 0.994295
2904516000 0.102291 0.992835
2916514000 0.110312 0.988814
2928512000 0.118588 0.98505
2940510000 0.121548 0.982663
2952508000 0.133634 0.979339
2964506000 0.1457 0.974169
2976504000 0.157049 0.973724
2988502000 0.16849 0.971704
3000500000 0.180968 0.970732
3012498000 0.190046 0.972832
3024496000 0.197042 0.971816
3036494000 0.209968 0.970613
3048492000 0.220877 0.969942
3060490000 0.230155 0.968813
3072488000 0.237847 0.96775
3084486000 0.247024 0.966306
3096484000 0.255411 0.96543
3108482000 0.260986 0.964398
3120480000 0.269952 0.958964
3132478000 0.275542 0.954119
3144476000 0.284215 0.950399
3156474000 0.293249 0.94883
3168472000 0.29833 0.946623
3180470000 0.307873 0.941288
3192468000 0.316739 0.937285
3204466000 0.326322 0.931292
3216464000 0.336529 0.926767
3228462000 0.348063 0.921376
3240460000 0.359787 0.917882
3252458000 0.37056 0.914972
3264456000 0.381497 0.911638
3276454000 0.388643 0.907512
3288452000 0.401622 0.902191
3300450000 0.407055 0.897645
3312448000 0.420911 0.892058
3324446000 0.428885 0.885665
3336444000 0.440201 0.882746
3348442000 0.448689 0.876224
3360440000 0.457353 0.87065
3372438000 0.466942 0.86451
3384436000 0.475828 0.859587
3396434000 0.482733 0.851297
3408432000 0.495532 0.845204
3420430000 0.506515 0.842287
3432428000 0.514333 0.833053
3444426000 0.527967 0.824566
3456424000 0.538915 0.818595
3468422000 0.546285 0.811829
3480420000 0.557253 0.805128
3492418000 0.567926 0.799282
3504416000 0.577883 0.794354
3516414000 0.586891 0.784521
3528412000 0.597696 0.782034
3540410000 0.605121 0.774267
3552408000 0.613029 0.770812
3564406000 0.619762 0.767222
3576404000 0.625449 0.757841
3588402000 0.632276 0.754291
3600400000 0.639436 0.745146
3612398000 0.645639 0.738904
3624396000 0.653262 0.730532
3636394000 0.660969 0.723884
3648392000 0.668466 0.716452
3660390000 0.673103 0.709019
3672388000 0.680409 0.704204
3684386000 0.691032 0.691445
3696384000 0.698884 0.684061
3708382000 0.70692 0.67451
3720380000 0.715721 0.666884
3732378000 0.721958 0.655571
3744376000 0.727208 0.647652
3756374000 0.736912 0.63719
3768372000 0.743304 0.629948
3780370000 0.751226 0.62017
3792368000 0.755917 0.615206
3804366000 0.76421 0.606438
3816364000 0.767412 0.597336
3828362000 0.772443 0.593391
3840360000 0.777349 0.588592
3852358000 0.784627 0.579952
3864356000 0.786899 0.574432
3876354000 0.787701 0.568244
3888352000 0.793088 0.562468
3900350000 0.79808 0.556317
3912348000 0.801477 0.55054
3924346000 0.806765 0.544601
3936344000 0.809032 0.538422
3948342000 0.811083 0.532987
3960340000 0.812636 0.528528
3972338000 0.817175 0.522157
3984336000 0.823488 0.510374
3996334000 0.826166 0.503251
4008332000 0.832222 0.494711
4020330000 0.839842 0.486841
4032328000 0.842614 0.476245
4044326000 0.847462 0.467302
4056324000 0.853397 0.456267
4068322000 0.855579 0.44385
4080320000 0.860008 0.430489
4092318000 0.865451 0.416318
4104316000 0.870128 0.397102
4116314000 0.875913 0.376255
4128312000 0.884271 0.360717
4140310000 0.888937 0.34321
4152308000 0.895272 0.325833
4164306000 0.902483 0.308582
4176304000 0.907575 0.294931
4188302000 0.913884 0.284142
4200300000 0.917237 0.275593
4212298000 0.915927 0.271192
4224296000 0.918066 0.269832
4236294000 0.920482 0.263269
4248292000 0.919702 0.263947
4260290000 0.928092 0.253728
4272288000 0.926312 0.25448
4284286000 0.92779 0.247263
4296284000 0.93065 0.24184
4308282000 0.93039 0.226883
4320280000 0.930877 0.214395
4332278000 0.93142 0.204181
4344276000 0.928567 0.187758
4356274000 0.932406 0.177802
4368272000 0.925642 0.16248
4380270000 0.924864 0.146036
4392268000 0.921246 0.125414
4404266000 0.920391 0.108966
4416264000 0.919984 0.086057
4428262000 0.919398 0.0678714
4440260000 0.921205 0.0488986
4452258000 0.925646 0.031034
4464256000 0.927545 0.0161243
4476254000 0.928815 -0.00043963
4488252000 0.930774 -0.0115197
4500250000 0.930281 -0.021958
4512248000 0.930249 -0.0370651
4524246000 0.932216 -0.0458653
4536244000 0.932949 -0.0565337
4548242000 0.93183 -0.0668363
4560240000 0.930035 -0.0719124
4572238000 0.930443 -0.0791076
4584236000 0.926089 -0.0851135
4596234000 0.92299 -0.0943756
4608232000 0.914636 -0.10243
4620230000 0.909069 -0.120174
4632228000 0.89816 -0.133874
4644226000 0.890536 -0.148618
4656224000 0.879159 -0.16717
4668222000 0.871492 -0.183285
4680220000 0.859807 -0.203232
4692218000 0.856663 -0.223601
4704216000 0.844047 -0.241428
4716214000 0.834037 -0.259052
4728212000 0.823537 -0.275868
4740210000 0.810657 -0.292336
4752208000 0.79801 -0.31278
4764206000 0.788701 -0.329134
4776204000 0.778603 -0.345898
4788202000 0.770076 -0.360846
4800200000 0.75664 -0.37732
4812198000 0.749621 -0.393294
4824196000 0.739817 -0.405102
4836194000 0.724841 -0.415639
4848192000 0.713549 -0.426624
4860190000 0.701342 -0.433511
4872188000 0.681881 -0.445726
4884186000 0.661523 -0.449412
4896184000 0.64151 -0.460664
4908182000 0.622122 -0.473085
4920180000 0.594684 -0.479269
4932178000 0.570125 -0.49104
4944176000 0.540292 -0.49604
4956174000 0.513203 -0.504583
4968172000 0.476939 -0.506056
4980170000 0.445512 -0.510838
4992168000 0.410678 -0.510812
5004166000 0.37659 -0.511464
5016164000 0.339611 -0.513453
5028162000 0.305693 -0.509678
5040160000 0.268952 -0.503807
5052158000 0.233861 -0.498127
5064156000 0.199532 -0.484754
5076154000 0.168755 -0.471013
5088152000 0.13619 -0.456395
5100150000 0.106135 -0.434407
5112148000 0.0850171 -0.410597
5124146000 0.0576143 -0.384058
5136144000 0.0342066 -0.350994
5148142000 0.0164049 -0.317985
5160140000 0.000143822 -0.276541
5172138000 -0.00544336 -0.238022
5184136000 -0.00971071 -0.193828
5196134000 -0.0135388 -0.145684
5208132000 -0.0107546 -0.0948375
5220130000 -0.00992395 -0.0497118
5232128000 -0.00595619 -0.000894291
5244126000 -0.00217 0.0452165
5256124000 0.00828583 0.0867924
5268122000 0.0166816 0.136103
5280120000 0.0378452 0.166281
5292118000 0.0593006 0.198205
5304116000 0.0916344 0.223804
5316114000 0.123231 0.243463
5328112000 0.159346 0.261353
5340110000 0.199688 0.278773
5352108000 0.230745 0.286963
5364106000 0.26859 0.299344
5376104000 0.304159 0.30404
5388102000 0.33681 0.310377
5400100000 0.36727 0.309229
5412098000 0.399049 0.310856
5424096000 0.428648 0.306451
5436094000 0.457985 0.302938
5448092000 0.483434 0.296002
5460090000 0.511632 0.288471
5472088000 0.537428 0.277504
5484086000 0.564079 0.267543
5496084000 0.590143 0.253217
5508082000 0.614047 0.23989
5520080000 0.635368 0.225691
5532078000 0.657256 0.213225
5544076000 0.676664 0.197546
5556074000 0.695871 0.182797
5568072000 0.708632 0.173596
5580070000 0.72663 0.159654
5592068000 0.738781 0.145993
5604066000 0.755853 0.130615
5616064000 0.760335 0.119406
5628062000 0.771762 0.106075
5640060000 0.775682 0.0955724
5652058000 0.784398 0.0773925
5664056000 0.789741 0.0627487
5676054000 0.798203 0.0492517
5688052000 0.797621 0.0321276
5700050000 0.803884 0.0153371
5712048000 0.808582 -0.000669465
5724046000 0.813019 -0.0174141
5736044000 0.819192 -0.033456
5748042000 0.822309 -0.0494037
5760040000 0.825783 -0.0656273
5772038000 0.829022 -0.0830608
5784036000 0.834044 -0.0986328
5796034000 0.838322 -0.113766
5808032000 0.843813 -0.126236
5820030000 0.846354 -0.146286
5832028000 0.852786 -0.159021
5844026000 0.8546 -0.174488
5856024000 0.858747 -0.1896
5868022000 0.856366 -0.21088
5880020000 0.849357 -0.219755
5892018000 0.860191 -0.235626
5904016000 0.853683 -0.253615
5916014000 0.851856 -0.27485
5928012000 0.846983 -0.287962
5940010000 0.843861 -0.300708
5952008000 0.837467 -0.319764
5964006000 0.827009 -0.330527
5976004000 0.825229 -0.344221
5988002000 0.817517 -0.360404
6000000000 0.807363 -0.373519
