# Hz S RI R 50
1000000 0.988217 -0.000378015
12998000 1.0156 -0.0580673
24996000 1.01041 -0.12708
36994000 0.996886 -0.193025
48992000 0.979635 -0.256106
60990000 0.959308 -0.316116
72988000 0.933969 -0.374913
84986000 0.906169 -0.430941
96984000 0.875139 -0.484442
108982000 0.841405 -0.536575
120980000 0.806082 -0.585875
132978000 0.7689 -0.632444
144976000 0.729925 -0.67717
156974000 0.688997 -0.719867
168972000 0.647354 -0.759069
180970000 0.604421 -0.796092
192968000 0.559658 -0.829344
204966000 0.514292 -0.860237
216964000 0.468524 -0.887537
228962000 0.421317 -0.911194
240960000 0.375318 -0.931456
252958000 0.328713 -0.948075
264956000 0.282665 -0.961736
276954000 0.236499 -0.972569
288952000 0.191254 -0.979998
300950000 0.146618 -0.985134
312948000 0.103082 -0.987735
324946000 0.0609877 -0.988578
336944000 0.0198135 -0.98738
348942000 -0.0200308 -0.985646
360940000 -0.06015 -0.982618
372938000 -0.0986899 -0.979286
384936000 -0.13575 -0.975546
396934000 -0.172694 -0.971309
408932000 -0.209415 -0.966319
420930000 -0.244484 -0.960877
432928000 -0.280088 -0.953494
444926000 -0.314296 -0.944992
456924000 -0.346785 -0.936478
468922000 -0.37861 -0.926974
480920000 -0.408152 -0.915695
492918000 -0.437135 -0.902329
504916000 -0.464596 -0.888588
516914000 -0.492371 -0.873926
528912000 -0.517905 -0.857637
540910000 -0.542608 -0.841068
552908000 -0.564954 -0.823847
564906000 -0.5875 -0.806656
576904000 -0.608062 -0.788736
588902000 -0.627565 -0.77193
600900000 -0.645728 -0.754244
612898000 -0.663879 -0.737263
624896000 -0.681562 -0.720545
636894000 -0.6995 -0.703688
648892000 -0.716892 -0.687878
660890000 -0.733683 -0.6721
672888000 -0.750688 -0.655628
684886000 -0.767765 -0.639282
696884000 -0.783941 -0.621384
708882000 -0.800375 -0.605167
720880000 -0.816069 -0.587735
732878000 -0.829882 -0.567847
744876000 -0.843128 -0.549766
756874000 -0.855745 -0.530646
768872000 -0.868019 -0.510579
780870000 -0.87846 -0.490491
792868000 -0.88773 -0.470562
804866000 -0.896284 -0.450841
816864000 -0.905358 -0.431931
828862000 -0.912458 -0.412995
840860000 -0.919772 -0.395959
852858000 -0.924722 -0.378714
864856000 -0.931554 -0.359616
876854000 -0.937123 -0.342365
888852000 -0.943821 -0.326144
900850000 -0.949142 -0.308828
912848000 -0.954846 -0.293103
924846000 -0.960358 -0.27723
936844000 -0.966096 -0.261616
948842000 -0.972088 -0.247674
960840000 -0.978337 -0.233604
972838000 -0.984256 -0.218888
984836000 -0.989159 -0.202727
996834000 -0.993753 -0.18746
1008832000 -0.99686 -0.172077
1020830000 -1.00071 -0.156097
1032828000 -1.00311 -0.13956
1044826000 -1.00543 -0.123184
1056824000 -1.00723 -0.10673
1068822000 -1.009 -0.0888805
1080820000 -1.00879 -0.0706585
1092818000 -1.00943 -0.0546613
1104816000 -1.00868 -0.0381092
1116814000 -1.0083 -0.0215753
1128812000 -1.00807 -0.00643853
1140810000 -1.00692 0.00852829
1152808000 -1.00644 0.0225576
1164806000 -1.00639 0.0373331
1176804000 -1.00941 0.0535161
1188802000 -1.00456 0.0684319
1200800000 -1.0028 0.0787418
1212798000 -1.00289 0.0915499
1224796000 -1.0019 0.103659
1236794000 -1.00166 0.115032
1248792000 -1.00113 0.126625
1260790000 -1.00021 0.138189
1272788000 -0.999735 0.149925
1284786000 -0.997458 0.160939
1296784000 -0.992931 0.171618
1308782000 -0.990554 0.185326
1320780000 -0.987798 0.198889
1332778000 -0.985 0.2127
1344776000 -0.982019 0.226931
1356774000 -0.979697 0.241656
1368772000 -0.977038 0.253732
1380770000 -0.973184 0.267704
1392768000 -0.969211 0.283624
1404766000 -0.964763 0.299367
1416764000 -0.959397 0.315365
1428762000 -0.953944 0.329464
1440760000 -0.948364 0.343549
1452758000 -0.943513 0.355763
1464756000 -0.93981 0.36878
1476754000 -0.935575 0.381508
1488752000 -0.931186 0.392329
1500750000 -0.924619 0.403899
1512748000 -0.919169 0.412604
1524746000 -0.913013 0.421294
1536744000 -0.905723 0.429889
1548742000 -0.899795 0.440684
1560740000 -0.894603 0.450768
1572738000 -0.889169 0.459928
1584736000 -0.884563 0.471048
1596734000 -0.880828 0.48218
1608732000 -0.8766 0.493506
1620730000 -0.872364 0.504081
1632728000 -0.867221 0.515556
1644726000 -0.861285 0.526656
1656724000 -0.854486 0.538159
1668722000 -0.84998 0.547667
1680720000 -0.842521 0.559985
1692718000 -0.837611 0.568453
1704716000 -0.832051 0.577049
1716714000 -0.825749 0.584209
1728712000 -0.82075 0.593989
1740710000 -0.810087 0.60619
1752708000 -0.801862 0.616488
1764706000 -0.791891 0.624251
1776704000 -0.782484 0.632467
1788702000 -0.77331 0.639213
1800700000 -0.763512 0.646271
1812698000 -0.75105 0.65556
1824696000 -0.742767 0.665608
1836694000 -0.734491 0.673864
1848692000 -0.725256 0.683995
1860690000 -0.716417 0.692415
1872688000 -0.708475 0.701932
1884686000 -0.700069 0.711584
1896684000 -0.692924 0.721178
1908682000 -0.683854 0.733121
1920680000 -0.677607 0.743659
1932678000 -0.669002 0.754068
1944676000 -0.661334 0.762266
1956674000 -0.656035 0.771698
1968672000 -0.650447 0.780702
1980670000 -0.643401 0.785921
1992668000 -0.639558 0.791581
2004666000 -0.634987 0.797937
2016664000 -0.630193 0.799546
2028662000 -0.624045 0.801226
2040660000 -0.616904 0.804994
2052658000 -0.609765 0.805904
2064656000 -0.601586 0.807386
2076654000 -0.591361 0.81147
2088652000 -0.580219 0.813034
2100650000 -0.569286 0.818739
2112648000 -0.555527 0.821739
2124646000 -0.542332 0.82979
2136644000 -0.528105 0.837968
2148642000 -0.513563 0.84597
2160640000 -0.499679 0.856101
2172638000 -0.489532 0.866943
2184636000 -0.478909 0.878862
2196634000 -0.468942 0.889663
2208632000 -0.463559 0.901632
2220630000 -0.457546 0.90779
2232628000 -0.455285 0.915205
2244626000 -0.453975 0.920114
2256624000 -0.450083 0.924238
2268622000 -0.444883 0.924926
2280620000 -0.442343 0.928925
2292618000 -0.441102 0.930653
2304616000 -0.434817 0.930591
2316614000 -0.427903 0.930596
2328612000 -0.416639 0.929918
2340610000 -0.404307 0.930488
2352608000 -0.387971 0.930708
2364606000 -0.373115 0.931697
2376604000 -0.355629 0.931455
2388602000 -0.339355 0.936533
2400600000 -0.322135 0.938827
2412598000 -0.305305 0.943902
2424596000 -0.290128 0.949378
2436594000 -0.273662 0.954364
2448592000 -0.260622 0.959589
2460590000 -0.247032 0.966386
2472588000 -0.236582 0.974514
2484586000 -0.228657 0.981083
2496584000 -0.220228 0.989257
2508582000 -0.211215 0.99424
2520580000 -0.203348 0.997896
2532578000 -0.19655 1.00178
2544576000 -0.190562 1.00687
2556574000 -0.182965 1.00695
2568572000 -0.177268 1.01051
2580570000 -0.166616 1.01015
2592568000 -0.159324 1.00757
2604566000 -0.148838 1.00446
2616564000 -0.141944 1.00099
2628562000 -0.132225 0.999201
2640560000 -0.121673 0.992269
2652558000 -0.110899 0.994461
2664556000 -0.0979924 0.990371
2676554000 -0.0867242 0.98893
2688552000 -0.074553 0.987239
2700550000 -0.0617862 0.987233
2712548000 -0.0482209 0.987606
2724546000 -0.0350379 0.988574
2736544000 -0.024275 0.992568
2748542000 -0.0125639 0.99417
2760540000 -0.00150655 0.997518
2772538000 0.00964016 1.00055
2784536000 0.0202442 1.0037
2796534000 0.0301636 1.00519
2808532000 0.0379432 1.00623
2820530000 0.0465955 1.00889
2832528000 0.0544279 1.00833
2844526000 0.0627862 1.00767
2856524000 0.0715053 1.00618
2868522000 0.0789455 1.00307
2880520000 0.0856174 0.999886
2892518000 0.094403 0.994256
2904516000 0.10296 0.992672
2916514000 0.110636 0.989241
2928512000 0.118854 0.98538
2940510000 0.121991 0.982691
2952508000 0.135243 0.979478
2964506000 0.144371 0.97477
2976504000 0.154854 0.971635
2988502000 0.16719 0.972874
3000500000 0.178448 0.972756
3012498000 0.192446 0.974132
3024496000 0.196232 0.972145
3036494000 0.209934 0.9705
3048492000 0.220894 0.969923
3060490000 0.230084 0.96878
3072488000 0.238988 0.967322
3084486000 0.247707 0.965488
3096484000 0.254935 0.964523
3108482000 0.262885 0.96058
3120480000 0.272186 0.959545
3132478000 0.273971 0.956424
3144476000 0.285853 0.951483
3156474000 0.292509 0.94861
3168472000 0.299299 0.946301
3180470000 0.307764 0.941424
3192468000 0.316865 0.937507
3204466000 0.326272 0.931483
3216464000 0.336132 0.926771
3228462000 0.347648 0.921828
3240460000 0.358715 0.918003
3252458000 0.370511 0.9142
3264456000 0.381198 0.911683
3276454000 0.389599 0.908958
3288452000 0.401217 0.902823
3300450000 0.408922 0.896595
3312448000 0.421349 0.89189
3324446000 0.429025 0.886128
3336444000 0.440298 0.882693
3348442000 0.448761 0.876493
3360440000 0.457577 0.871542
3372438000 0.467396 0.865044
3384436000 0.476473 0.861753
3396434000 0.485262 0.850548
3408432000 0.495781 0.845826
3420430000 0.506787 0.840423
3432428000 0.514627 0.832528
3444426000 0.527939 0.825232
3456424000 0.538656 0.819154
3468422000 0.547195 0.812382
3480420000 0.557097 0.805163
3492418000 0.568034 0.799908
3504416000 0.57804 0.793128
3516414000 0.587383 0.78421
3528412000 0.596394 0.777296
3540410000 0.604406 0.775917
3552408000 0.610879 0.769989
3564406000 0.621712 0.767515
3576404000 0.62731 0.756711
3588402000 0.634704 0.753082
3600400000 0.639948 0.74563
3612398000 0.646831 0.738482
3624396000 0.653108 0.730782
3636394000 0.661216 0.72406
3648392000 0.668601 0.716019
3660390000 0.673975 0.709606
3672388000 0.681998 0.701414
3684386000 0.689833 0.690535
3696384000 0.698321 0.685311
3708382000 0.705939 0.674252
3720380000 0.715416 0.66606
3732378000 0.721817 0.656326
3744376000 0.728528 0.647635
3756374000 0.736943 0.638377
3768372000 0.743915 0.630011
3780370000 0.751512 0.619693
3792368000 0.756541 0.613915
3804366000 0.764291 0.605009
3816364000 0.768712 0.596336
3828362000 0.776179 0.593263
3840360000 0.777976 0.59001
3852358000 0.782871 0.580603
3864356000 0.786895 0.573949
3876354000 0.788804 0.567759
3888352000 0.793388 0.56127
3900350000 0.798221 0.55671
3912348000 0.801817 0.550231
3924346000 0.80727 0.544812
3936344000 0.809298 0.538266
3948342000 0.812461 0.532142
3960340000 0.810914 0.527692
3972338000 0.816641 0.522832
3984336000 0.820026 0.511018
3996334000 0.826879 0.502083
4008332000 0.831454 0.494305
4020330000 0.838529 0.485912
4032328000 0.844411 0.476404
4044326000 0.848142 0.466509
4056324000 0.853055 0.456386
4068322000 0.855598 0.443764
4080320000 0.86011 0.429742
4092318000 0.866067 0.416109
4104316000 0.87143 0.398315
4116314000 0.875462 0.377885
4128312000 0.882376 0.361598
4140310000 0.891377 0.341484
4152308000 0.894454 0.325325
4164306000 0.902465 0.307897
4176304000 0.90842 0.295241
4188302000 0.913674 0.283514
4200300000 0.917912 0.276695
4212298000 0.916395 0.271002
4224296000 0.917693 0.27011
4236294000 0.920935 0.263434
4248292000 0.922804 0.262087
4260290000 0.925947 0.254998
4272288000 0.926907 0.253644
4284286000 0.92671 0.250121
4296284000 0.929171 0.239899
4308282000 0.930424 0.229188
4320280000 0.933885 0.218495
4332278000 0.933416 0.200001
4344276000 0.929375 0.190532
4356274000 0.930425 0.175644
4368272000 0.925521 0.163278
4380270000 0.925301 0.145295
4392268000 0.921469 0.124217
4404266000 0.9208 0.108295
4416264000 0.919024 0.0862262
4428262000 0.920073 0.0673416
4440260000 0.922622 0.0495894
4452258000 0.924875 0.0320916
4464256000 0.927878 0.0170522
4476254000 0.929553 -5.43558e-05
4488252000 0.930897 -0.0133913
4500250000 0.929606 -0.0222613
4512248000 0.930182 -0.037446
4524246000 0.933373 -0.0466703
4536244000 0.933714 -0.055952
4548242000 0.93041 -0.0664471
4560240000 0.92994 -0.0726586
4572238000 0.927837 -0.0796906
4584236000 0.928085 -0.0859249
4596234000 0.920826 -0.0967205
4608232000 0.912516 -0.103228
4620230000 0.90761 -0.11611
4632228000 0.897777 -0.133695
4644226000 0.89029 -0.14898
4656224000 0.878553 -0.167567
4668222000 0.871195 -0.183312
4680220000 0.859956 -0.203557
4692218000 0.857125 -0.223405
4704216000 0.843999 -0.241152
4716214000 0.835642 -0.258256
4728212000 0.821353 -0.276733
4740210000 0.80975 -0.2911
4752208000 0.798021 -0.312704
4764206000 0.788115 -0.329966
4776204000 0.778405 -0.345847
4788202000 0.770478 -0.360949
4800200000 0.756942 -0.376742
4812198000 0.749878 -0.393881
4824196000 0.740559 -0.407014
4836194000 0.725243 -0.416529
4848192000 0.715586 -0.428682
4860190000 0.697528 -0.435861
4872188000 0.68416 -0.443962
4884186000 0.661994 -0.452832
4896184000 0.642936 -0.459904
4908182000 0.621449 -0.473627
4920180000 0.593887 -0.47904
4932178000 0.57052 -0.491504
4944176000 0.540339 -0.496456
4956174000 0.513386 -0.505157
4968172000 0.47818 -0.505809
4980170000 0.444572 -0.509876
4992168000 0.410563 -0.511007
5004166000 0.375818 -0.512203
5016164000 0.340061 -0.513416
5028162000 0.305358 -0.511397
5040160000 0.269475 -0.503933
5052158000 0.234024 -0.49841
5064156000 0.199728 -0.484971
5076154000 0.168936 -0.471608
5088152000 0.135875 -0.456507
5100150000 0.106141 -0.434618
5112148000 0.0847028 -0.409064
5124146000 0.0570948 -0.383989
5136144000 0.0344307 -0.351737
5148142000 0.0166344 -0.318774
5160140000 0.000102471 -0.277105
5172138000 -0.00557189 -0.238488
5184136000 -0.00958061 -0.194108
5196134000 -0.0138255 -0.146316
5208132000 -0.0111228 -0.0952224
5220130000 -0.0100944 -0.0508822
5232128000 -0.00644152 -0.0013513
5244126000 -0.00224278 0.0449828
5256124000 0.00825809 0.0866652
5268122000 0.0199121 0.131288
5280120000 0.0373949 0.166234
5292118000 0.059057 0.198169
5304116000 0.0908169 0.223319
5316114000 0.12181 0.244006
5328112000 0.157827 0.261647
5340110000 0.199725 0.278497
5352108000 0.228614 0.287928
5364106000 0.270608 0.300195
5376104000 0.303451 0.303508
5388102000 0.337471 0.310184
5400100000 0.368441 0.309496
5412098000 0.397428 0.309453
5424096000 0.428321 0.306105
5436094000 0.45803 0.30238
5448092000 0.483798 0.295992
5460090000 0.511214 0.287766
5472088000 0.537488 0.278011
5484086000 0.563681 0.266214
5496084000 0.58963 0.251859
5508082000 0.613417 0.240957
5520080000 0.635969 0.225521
5532078000 0.657383 0.212628
5544076000 0.676543 0.197458
5556074000 0.695775 0.18313
5568072000 0.709427 0.173
5580070000 0.72614 0.160413
5592068000 0.73822 0.14524
5604066000 0.754606 0.131603
5616064000 0.759715 0.118292
5628062000 0.771873 0.104764
5640060000 0.776637 0.0927308
5652058000 0.782675 0.0790653
5664056000 0.791679 0.0622767
5676054000 0.794069 0.051614
5688052000 0.799439 0.0309993
5700050000 0.804133 0.0158944
5712048000 0.8081 -0.000392816
5724046000 0.813129 -0.0179137
5736044000 0.819497 -0.0341734
5748042000 0.821858 -0.0502693
5760040000 0.82702 -0.0668951
5772038000 0.830274 -0.0840658
5784036000 0.835816 -0.0985328
5796034000 0.839177 -0.113849
5808032000 0.843379 -0.12613
5820030000 0.846366 -0.146073
5832028000 0.852977 -0.158921
5844026000 0.855332 -0.17307
5856024000 0.85948 -0.189931
5868022000 0.855081 -0.212581
5880020000 0.855906 -0.217109
5892018000 0.859385 -0.234905
5904016000 0.853745 -0.252658
5916014000 0.850888 -0.270583
5928012000 0.846193 -0.289266
5940010000 0.841929 -0.305321
5952008000 0.83494 -0.318132
5964006000 0.830732 -0.331175
5976004000 0.823421 -0.34707
5988002000 0.816936 -0.359876
6000000000 0.807169 -0.37479
