# Hz S RI R 50
1000000 0.989125 0.00349422
12998000 1.01537 -0.0581968
24996000 1.01014 -0.12705
36994000 0.9969 -0.192918
48992000 0.979589 -0.256389
60990000 0.959001 -0.31602
72988000 0.93392 -0.375097
84986000 0.90597 -0.430966
96984000 0.87505 -0.48436
108982000 0.841199 -0.536565
120980000 0.80591 -0.585934
132978000 0.768762 -0.63252
144976000 0.729736 -0.677366
156974000 0.688893 -0.720248
168972000 0.646896 -0.759519
180970000 0.603846 -0.796143
192968000 0.559519 -0.829574
204966000 0.514001 -0.860484
216964000 0.467702 -0.88772
228962000 0.421074 -0.911391
240960000 0.37491 -0.931459
252958000 0.328529 -0.948146
264956000 0.282046 -0.961503
276954000 0.236084 -0.972638
288952000 0.190821 -0.979883
300950000 0.1459 -0.985023
312948000 0.102136 -0.987731
324946000 0.0601666 -0.988583
336944000 0.019559 -0.987422
348942000 -0.0204743 -0.985737
360940000 -0.0605885 -0.982195
372938000 -0.0992511 -0.979097
384936000 -0.136406 -0.975366
396934000 -0.173015 -0.970796
408932000 -0.210355 -0.966185
420930000 -0.244853 -0.960891
432928000 -0.280871 -0.953333
444926000 -0.314627 -0.944742
456924000 -0.347054 -0.935955
468922000 -0.379185 -0.926449
480920000 -0.40903 -0.915021
492918000 -0.437615 -0.901789
504916000 -0.465332 -0.887779
516914000 -0.493071 -0.873274
528912000 -0.518199 -0.857115
540910000 -0.543033 -0.840646
552908000 -0.565847 -0.822924
564906000 -0.587245 -0.806194
576904000 -0.607974 -0.788447
588902000 -0.628149 -0.771469
600900000 -0.646323 -0.754347
612898000 -0.664069 -0.737001
624896000 -0.682012 -0.720308
636894000 -0.699944 -0.703407
648892000 -0.717194 -0.687473
660890000 -0.733731 -0.671876
672888000 -0.750744 -0.655307
684886000 -0.767821 -0.638992
696884000 -0.784116 -0.621341
708882000 -0.799761 -0.604279
720880000 -0.816345 -0.587434
732878000 -0.829876 -0.56781
744876000 -0.843035 -0.549623
756874000 -0.855845 -0.530717
768872000 -0.868022 -0.510466
780870000 -0.879127 -0.489903
792868000 -0.888322 -0.469992
804866000 -0.895951 -0.451299
816864000 -0.90549 -0.431849
828862000 -0.912532 -0.414028
840860000 -0.919423 -0.395415
852858000 -0.924812 -0.377515
864856000 -0.931577 -0.359791
876854000 -0.936725 -0.341924
888852000 -0.944199 -0.325068
900850000 -0.949633 -0.308343
912848000 -0.954919 -0.292708
924846000 -0.960575 -0.276924
936844000 -0.965952 -0.261142
948842000 -0.972472 -0.246954
960840000 -0.978411 -0.23299
972838000 -0.984785 -0.217677
984836000 -0.990077 -0.202214
996834000 -0.993874 -0.187133
1008832000 -0.997247 -0.171786
1020830000 -1.00042 -0.156087
1032828000 -1.00296 -0.139371
1044826000 -1.00542 -0.123348
1056824000 -1.00714 -0.106574
1068822000 -1.00945 -0.088992
1080820000 -1.00757 -0.0716453
1092818000 -1.00906 -0.0541536
1104816000 -1.00842 -0.038065
1116814000 -1.00744 -0.0218942
1128812000 -1.00812 -0.00618145
1140810000 -1.00585 0.00902788
1152808000 -1.00627 0.023839
1164806000 -1.00616 0.0379439
1176804000 -1.0087 0.0536455
1188802000 -1.004 0.0692255
1200800000 -1.00246 0.0798576
1212798000 -1.00242 0.0915525
1224796000 -1.0016 0.103637
1236794000 -1.00171 0.115967
1248792000 -1.00089 0.126907
1260790000 -1.00037 0.138722
1272788000 -0.999676 0.150123
1284786000 -0.996738 0.160619
1296784000 -0.992959 0.172549
1308782000 -0.990303 0.185676
1320780000 -0.987457 0.199209
1332778000 -0.984703 0.212803
1344776000 -0.981756 0.22675
1356774000 -0.979196 0.242086
1368772000 -0.97646 0.254419
1380770000 -0.972931 0.269339
1392768000 -0.968978 0.283443
1404766000 -0.964345 0.299416
1416764000 -0.959867 0.316044
1428762000 -0.953693 0.329969
1440760000 -0.948398 0.343635
1452758000 -0.943251 0.356691
1464756000 -0.939879 0.36937
1476754000 -0.935493 0.381759
1488752000 -0.93069 0.39253
1500750000 -0.9251 0.404129
1512748000 -0.918307 0.412495
1524746000 -0.912543 0.421064
1536744000 -0.906263 0.430954
1548742000 -0.900217 0.440681
1560740000 -0.894867 0.450367
1572738000 -0.889062 0.460286
1584736000 -0.884426 0.470877
1596734000 -0.880984 0.482023
1608732000 -0.876568 0.493423
1620730000 -0.872246 0.503354
1632728000 -0.867571 0.514809
1644726000 -0.861841 0.526952
1656724000 -0.854845 0.536888
1668722000 -0.848078 0.548246
1680720000 -0.843472 0.559388
1692718000 -0.838299 0.56885
1704716000 -0.832622 0.577094
1716714000 -0.825389 0.585129
1728712000 -0.820395 0.594799
1740710000 -0.810726 0.605441
1752708000 -0.80169 0.6162
1764706000 -0.792446 0.623532
1776704000 -0.782722 0.631891
1788702000 -0.773096 0.639075
1800700000 -0.763103 0.647666
1812698000 -0.750225 0.655369
1824696000 -0.74294 0.665502
1836694000 -0.734476 0.673295
1848692000 -0.725608 0.682814
1860690000 -0.717144 0.691122
1872688000 -0.708471 0.701941
1884686000 -0.700293 0.711746
1896684000 -0.693196 0.721127
1908682000 -0.683763 0.732818
1920680000 -0.677738 0.743599
1932678000 -0.669929 0.753629
1944676000 -0.6607 0.761424
1956674000 -0.656044 0.772467
1968672000 -0.651503 0.780586
1980670000 -0.643747 0.786762
1992668000 -0.639956 0.791329
2004666000 -0.634722 0.795845
2016664000 -0.630509 0.799402
2028662000 -0.62476 0.802872
2040660000 -0.617054 0.804462
2052658000 -0.60974 0.805849
2064656000 -0.601612 0.807533
2076654000 -0.591395 0.811803
2088652000 -0.579981 0.813452
2100650000 -0.568843 0.817139
2112648000 -0.554003 0.823117
2124646000 -0.541076 0.829935
2136644000 -0.527001 0.836951
2148642000 -0.512693 0.84758
2160640000 -0.499996 0.856897
2172638000 -0.489656 0.867084
2184636000 -0.479147 0.878707
2196634000 -0.468921 0.890075
2208632000 -0.463166 0.901383
2220630000 -0.459141 0.907401
2232628000 -0.456816 0.914219
2244626000 -0.454275 0.921437
2256624000 -0.452005 0.923295
2268622000 -0.445803 0.926335
2280620000 -0.44324 0.927618
2292618000 -0.440841 0.930683
2304616000 -0.435337 0.930724
2316614000 -0.42883 0.930323
2328612000 -0.417002 0.929722
2340610000 -0.404274 0.929864
2352608000 -0.38912 0.929312
2364606000 -0.371611 0.931213
2376604000 -0.355535 0.932505
2388602000 -0.339425 0.934881
2400600000 -0.322147 0.939103
2412598000 -0.305485 0.942482
2424596000 -0.290246 0.948392
2436594000 -0.274909 0.955051
2448592000 -0.261206 0.958637
2460590000 -0.247142 0.966387
2472588000 -0.236642 0.974248
2484586000 -0.228894 0.980311
2496584000 -0.219717 0.987889
2508582000 -0.210321 0.994528
2520580000 -0.202196 0.998513
2532578000 -0.19773 1.00249
2544576000 -0.190366 1.00769
2556574000 -0.183738 1.00806
2568572000 -0.176659 1.00996
2580570000 -0.166548 1.00966
2592568000 -0.158918 1.00818
2604566000 -0.156112 1.00413
2616564000 -0.142271 1.00091
2628562000 -0.131248 0.998948
2640560000 -0.122216 0.993076
2652558000 -0.11133 0.992498
2664556000 -0.099852 0.991774
2676554000 -0.0861352 0.987834
2688552000 -0.0772539 0.986912
2700550000 -0.0610823 0.988045
2712548000 -0.0500681 0.986326
2724546000 -0.0364851 0.98807
2736544000 -0.0252561 0.992243
2748542000 -0.0132403 0.994529
2760540000 -0.0020216 0.997426
2772538000 0.00895462 1.00106
2784536000 0.0193596 1.0039
2796534000 0.028865 1.00634
2808532000 0.0378676 1.00826
2820530000 0.0458154 1.00824
2832528000 0.0542186 1.00909
2844526000 0.0635034 1.00825
2856524000 0.0710616 1.00496
2868522000 0.0795031 1.00268
2880520000 0.0863718 0.999434
2892518000 0.0945542 0.993927
2904516000 0.102268 0.992756
2916514000 0.110239 0.988843
2928512000 0.118792 0.985485
2940510000 0.122088 0.983302
2952508000 0.133149 0.979843
2964506000 0.144406 0.974373
2976504000 0.156132 0.972057
2988502000 0.166948 0.971642
3000500000 0.176484 0.97178
3012498000 0.191332 0.972056
3024496000 0.195553 0.971207
3036494000 0.209529 0.970727
3048492000 0.220315 0.970182
3060490000 0.229755 0.968946
3072488000 0.238338 0.967416
3084486000 0.245964 0.966248
3096484000 0.253517 0.964069
3108482000 0.260755 0.959784
3120480000 0.26917 0.959358
3132478000 0.273952 0.956207
3144476000 0.283984 0.95207
3156474000 0.29426 0.949586
3168472000 0.299733 0.945484
3180470000 0.30738 0.941306
3192468000 0.316519 0.937507
3204466000 0.326223 0.931448
3216464000 0.335792 0.927707
3228462000 0.346239 0.923209
3240460000 0.358951 0.918073
3252458000 0.368895 0.914437
3264456000 0.380713 0.910569
3276454000 0.39019 0.908981
3288452000 0.399878 0.901615
3300450000 0.407966 0.896676
3312448000 0.421855 0.893362
3324446000 0.428914 0.886283
3336444000 0.44036 0.882499
3348442000 0.448264 0.876317
3360440000 0.457446 0.872503
3372438000 0.46658 0.864753
3384436000 0.476879 0.860204
3396434000 0.485088 0.849361
3408432000 0.494856 0.844953
3420430000 0.50523 0.840458
3432428000 0.514598 0.830713
3444426000 0.52737 0.824971
3456424000 0.538156 0.818598
3468422000 0.545476 0.81272
3480420000 0.557168 0.805568
3492418000 0.568108 0.79947
3504416000 0.576813 0.792269
3516414000 0.586582 0.786014
3528412000 0.596546 0.781438
3540410000 0.602414 0.776069
3552408000 0.611645 0.769611
3564406000 0.617928 0.766494
3576404000 0.625529 0.757892
3588402000 0.632091 0.75349
3600400000 0.639512 0.746024
3612398000 0.645855 0.739323
3624396000 0.652864 0.731206
3636394000 0.660832 0.724241
3648392000 0.668266 0.716975
3660390000 0.672821 0.710896
3672388000 0.684364 0.704732
3684386000 0.69056 0.690532
3696384000 0.698656 0.686769
3708382000 0.704033 0.674609
3720380000 0.714491 0.665759
3732378000 0.721265 0.657247
3744376000 0.728519 0.648161
3756374000 0.735543 0.63811
3768372000 0.743638 0.6304
3780370000 0.751313 0.620586
3792368000 0.755676 0.614691
3804366000 0.765173 0.606369
3816364000 0.768306 0.598109
3828362000 0.774391 0.593391
3840360000 0.77941 0.588822
3852358000 0.781458 0.580112
3864356000 0.7859 0.574976
3876354000 0.789375 0.567145
3888352000 0.793693 0.56212
3900350000 0.797679 0.55699
3912348000 0.801589 0.550983
3924346000 0.806341 0.545343
3936344000 0.807951 0.538865
3948342000 0.811402 0.532521
3960340000 0.808991 0.528664
3972338000 0.815133 0.520185
3984336000 0.818763 0.51087
3996334000 0.825655 0.503395
4008332000 0.830913 0.495151
4020330000 0.837964 0.487297
4032328000 0.843807 0.476294
4044326000 0.847911 0.467528
4056324000 0.852996 0.456632
4068322000 0.8556 0.444107
4080320000 0.859472 0.430344
4092318000 0.865816 0.415313
4104316000 0.871586 0.398596
4116314000 0.876274 0.376919
4128312000 0.882805 0.362501
4140310000 0.888249 0.342094
4152308000 0.894736 0.325899
4164306000 0.902898 0.308369
4176304000 0.90824 0.296204
4188302000 0.913017 0.284298
4200300000 0.916425 0.276941
4212298000 0.916269 0.27142
4224296000 0.917532 0.27024
4236294000 0.920199 0.262864
4248292000 0.921098 0.265696
4260290000 0.927354 0.255916
4272288000 0.927259 0.254444
4284286000 0.929834 0.249805
4296284000 0.92825 0.241524
4308282000 0.929491 0.229483
4320280000 0.930955 0.216784
4332278000 0.929518 0.20439
4344276000 0.926519 0.190445
4356274000 0.932118 0.174998
4368272000 0.92407 0.162803
4380270000 0.925139 0.145487
4392268000 0.921274 0.124997
4404266000 0.921046 0.108777
4416264000 0.920411 0.0871807
4428262000 0.920877 0.0674578
4440260000 0.920822 0.0478535
4452258000 0.926012 0.0320599
4464256000 0.928723 0.0156012
4476254000 0.928617 -0.000562719
4488252000 0.930797 -0.0115181
4500250000 0.930486 -0.0212961
4512248000 0.930326 -0.0366219
4524246000 0.931777 -0.0459809
4536244000 0.93236 -0.0564195
4548242000 0.932169 -0.065266
4560240000 0.933303 -0.0710197
4572238000 0.92794 -0.0783179
4584236000 0.927539 -0.0879006
4596234000 0.919515 -0.0925785
4608232000 0.914249 -0.102535
4620230000 0.90771 -0.118508
4632228000 0.898542 -0.133489
4644226000 0.890231 -0.149757
4656224000 0.879626 -0.168288
4668222000 0.871309 -0.183411
4680220000 0.859851 -0.203497
4692218000 0.856866 -0.223029
4704216000 0.844248 -0.241129
4716214000 0.834301 -0.258632
4728212000 0.822026 -0.275978
4740210000 0.812156 -0.291042
4752208000 0.799549 -0.310228
4764206000 0.788671 -0.328503
4776204000 0.778201 -0.345955
4788202000 0.770533 -0.360503
4800200000 0.757119 -0.377356
4812198000 0.74961 -0.392742
4824196000 0.739432 -0.405114
4836194000 0.726932 -0.413543
4848192000 0.714011 -0.427434
4860190000 0.700221 -0.437283
4872188000 0.6849 -0.442235
4884186000 0.662381 -0.45029
4896184000 0.642398 -0.461007
4908182000 0.621197 -0.472101
4920180000 0.594896 -0.47707
4932178000 0.569828 -0.491348
4944176000 0.540762 -0.495757
4956174000 0.51341 -0.504538
4968172000 0.478618 -0.506318
4980170000 0.446064 -0.509529
4992168000 0.411009 -0.511168
5004166000 0.378011 -0.511845
5016164000 0.338714 -0.512705
5028162000 0.306445 -0.510443
5040160000 0.269098 -0.503839
5052158000 0.234099 -0.498225
5064156000 0.199844 -0.484371
5076154000 0.169543 -0.470561
5088152000 0.136471 -0.456392
5100150000 0.105282 -0.434492
5112148000 0.0855141 -0.410389
5124146000 0.0581869 -0.38414
5136144000 0.0349369 -0.351369
5148142000 0.0167774 -0.318176
5160140000 0.000190438 -0.276681
5172138000 -0.00553421 -0.238009
5184136000 -0.00980213 -0.193678
5196134000 -0.0143012 -0.145641
5208132000 -0.0110253 -0.0949694
5220130000 -0.0102962 -0.0498813
5232128000 -0.00619684 -0.000916129
5244126000 -0.0020369 0.0452576
5256124000 0.00842 0.0867889
5268122000 0.0166109 0.136258
5280120000 0.0378843 0.166231
5292118000 0.0594101 0.198485
5304116000 0.0918909 0.223518
5316114000 0.123659 0.243113
5328112000 0.159052 0.261263
5340110000 0.200156 0.276727
5352108000 0.230132 0.286752
5364106000 0.267939 0.300408
5376104000 0.305513 0.3043
5388102000 0.336075 0.30936
5400100000 0.368924 0.310513
5412098000 0.397659 0.310242
5424096000 0.428693 0.306087
5436094000 0.457878 0.302896
5448092000 0.483724 0.295794
5460090000 0.510617 0.288632
5472088000 0.536859 0.277601
5484086000 0.563964 0.267459
5496084000 0.589563 0.253477
5508082000 0.614402 0.23987
5520080000 0.634852 0.225248
5532078000 0.657024 0.213131
5544076000 0.676427 0.19748
5556074000 0.695557 0.182574
5568072000 0.710264 0.173632
5580070000 0.727065 0.160421
5592068000 0.738489 0.145639
5604066000 0.755103 0.130546
5616064000 0.759349 0.117981
5628062000 0.77155 0.102568
5640060000 0.775736 0.0967725
5652058000 0.786136 0.0802237
5664056000 0.789822 0.0632687
5676054000 0.797836 0.0458799
5688052000 0.798391 0.0314668
5700050000 0.804584 0.01733
5712048000 0.808142 -0.000245183
5724046000 0.813139 -0.0174559
5736044000 0.819778 -0.0339392
5748042000 0.822286 -0.0492698
5760040000 0.826412 -0.0663837
5772038000 0.829688 -0.0831954
5784036000 0.835491 -0.0982655
5796034000 0.838319 -0.113328
5808032000 0.84341 -0.124908
5820030000 0.846867 -0.145749
5832028000 0.852831 -0.159282
5844026000 0.854759 -0.173177
5856024000 0.858266 -0.189625
5868022000 0.855739 -0.208981
5880020000 0.853646 -0.2202
5892018000 0.855674 -0.236314
5904016000 0.856296 -0.253575
5916014000 0.856484 -0.267424
5928012000 0.847277 -0.288562
5940010000 0.845065 -0.302483
5952008000 0.83561 -0.315407
5964006000 0.827854 -0.327963
5976004000 0.824166 -0.345639
5988002000 0.817142 -0.358854
6000000000 0.808258 -0.374305
