# Hz S RI R 50
1000000 0.990035 0.00113794
12998000 1.01534 -0.0585964
24996000 1.01005 -0.127617
36994000 0.996699 -0.193317
48992000 0.979597 -0.256553
60990000 0.959015 -0.316269
72988000 0.933857 -0.374895
84986000 0.905874 -0.431011
96984000 0.87485 -0.48461
108982000 0.841405 -0.536546
120980000 0.805853 -0.585845
132978000 0.768717 -0.632421
144976000 0.729923 -0.677202
156974000 0.689194 -0.720068
168972000 0.647166 -0.759465
180970000 0.604203 -0.795826
192968000 0.559721 -0.829148
204966000 0.514012 -0.86046
216964000 0.46822 -0.887406
228962000 0.421034 -0.91127
240960000 0.375015 -0.931528
252958000 0.328732 -0.948026
264956000 0.282374 -0.961693
276954000 0.235803 -0.972565
288952000 0.190676 -0.979859
300950000 0.145849 -0.984873
312948000 0.102291 -0.987963
324946000 0.0605344 -0.988361
336944000 0.0193733 -0.987225
348942000 -0.0203998 -0.985762
360940000 -0.060718 -0.982312
372938000 -0.0990241 -0.979036
384936000 -0.136287 -0.975357
396934000 -0.173229 -0.971081
408932000 -0.209621 -0.96628
420930000 -0.244701 -0.960948
432928000 -0.280537 -0.953259
444926000 -0.314226 -0.944761
456924000 -0.346866 -0.935953
468922000 -0.378767 -0.926618
480920000 -0.408653 -0.915302
492918000 -0.437357 -0.902245
504916000 -0.464989 -0.888236
516914000 -0.492532 -0.87395
528912000 -0.517627 -0.857764
540910000 -0.54224 -0.840705
552908000 -0.565409 -0.82336
564906000 -0.587506 -0.806513
576904000 -0.607978 -0.788675
588902000 -0.627613 -0.771946
600900000 -0.646241 -0.753705
612898000 -0.663882 -0.737405
624896000 -0.68182 -0.720424
636894000 -0.699723 -0.703583
648892000 -0.716975 -0.687879
660890000 -0.734055 -0.671889
672888000 -0.750625 -0.655615
684886000 -0.767737 -0.639402
696884000 -0.78416 -0.62137
708882000 -0.799701 -0.605292
720880000 -0.816048 -0.587855
732878000 -0.830102 -0.568217
744876000 -0.84312 -0.549633
756874000 -0.856096 -0.530581
768872000 -0.868114 -0.510374
780870000 -0.878895 -0.49038
792868000 -0.888383 -0.470395
804866000 -0.896328 -0.450708
816864000 -0.905739 -0.431599
828862000 -0.913369 -0.413765
840860000 -0.918347 -0.395021
852858000 -0.924281 -0.377867
864856000 -0.931825 -0.360545
876854000 -0.937119 -0.341985
888852000 -0.943688 -0.325899
900850000 -0.949166 -0.308322
912848000 -0.954901 -0.292786
924846000 -0.960414 -0.27709
936844000 -0.966025 -0.261489
948842000 -0.972768 -0.247355
960840000 -0.978701 -0.233362
972838000 -0.98471 -0.218253
984836000 -0.98963 -0.202282
996834000 -0.993857 -0.186926
1008832000 -0.996749 -0.171925
1020830000 -1.00064 -0.156125
1032828000 -1.00313 -0.139316
1044826000 -1.00536 -0.123388
1056824000 -1.00748 -0.107189
1068822000 -1.00933 -0.0897144
1080820000 -1.00883 -0.0717054
1092818000 -1.00804 -0.0547418
1104816000 -1.0086 -0.0381928
1116814000 -1.0082 -0.0223376
1128812000 -1.00813 -0.00733902
1140810000 -1.00524 0.00810756
1152808000 -1.00589 0.0230031
1164806000 -1.00635 0.0368053
1176804000 -1.00881 0.0532624
1188802000 -1.00432 0.0687583
1200800000 -1.00329 0.0793962
1212798000 -1.00276 0.0918171
1224796000 -1.00161 0.104059
1236794000 -1.00178 0.11574
1248792000 -1.00072 0.127246
1260790000 -1.00046 0.139537
1272788000 -0.999363 0.150082
1284786000 -0.997342 0.161264
1296784000 -0.992948 0.172516
1308782000 -0.990211 0.185675
1320780000 -0.987753 0.199013
1332778000 -0.984866 0.212811
1344776000 -0.982185 0.226881
1356774000 -0.979831 0.241317
1368772000 -0.977248 0.25379
1380770000 -0.973333 0.269479
1392768000 -0.968859 0.283476
1404766000 -0.964365 0.2994
1416764000 -0.959475 0.315428
1428762000 -0.953633 0.328605
1440760000 -0.948119 0.343519
1452758000 -0.943861 0.356066
1464756000 -0.939645 0.369033
1476754000 -0.935401 0.381623
1488752000 -0.930844 0.392565
1500750000 -0.925028 0.403348
1512748000 -0.918263 0.412574
1524746000 -0.91258 0.421829
1536744000 -0.905752 0.43078
1548742000 -0.900378 0.439594
1560740000 -0.893638 0.449801
1572738000 -0.888961 0.460246
1584736000 -0.884649 0.470639
1596734000 -0.880996 0.481839
1608732000 -0.876578 0.493478
1620730000 -0.87246 0.503636
1632728000 -0.867447 0.514428
1644726000 -0.862412 0.526227
1656724000 -0.855331 0.536597
1668722000 -0.848053 0.548248
1680720000 -0.843842 0.55864
1692718000 -0.837615 0.568238
1704716000 -0.833029 0.577589
1716714000 -0.825039 0.584879
1728712000 -0.819294 0.595157
1740710000 -0.810738 0.605088
1752708000 -0.801774 0.616171
1764706000 -0.792218 0.623766
1776704000 -0.782857 0.632127
1788702000 -0.773069 0.639702
1800700000 -0.762237 0.648774
1812698000 -0.750842 0.655063
1824696000 -0.742325 0.665563
1836694000 -0.73379 0.673555
1848692000 -0.725677 0.683527
1860690000 -0.717067 0.692438
1872688000 -0.708953 0.70217
1884686000 -0.700178 0.711763
1896684000 -0.692983 0.721073
1908682000 -0.683677 0.732867
1920680000 -0.677371 0.743895
1932678000 -0.668876 0.754293
1944676000 -0.661042 0.76368
1956674000 -0.654679 0.772225
1968672000 -0.650595 0.779695
1980670000 -0.645 0.7873
1992668000 -0.639759 0.79188
2004666000 -0.636242 0.79487
2016664000 -0.63032 0.799395
2028662000 -0.623297 0.801335
2040660000 -0.618003 0.803897
2052658000 -0.609792 0.805737
2064656000 -0.602003 0.807136
2076654000 -0.591113 0.811566
2088652000 -0.579289 0.813319
2100650000 -0.568205 0.816526
2112648000 -0.553536 0.82238
2124646000 -0.542201 0.830051
2136644000 -0.528211 0.837344
2148642000 -0.5134 0.846177
2160640000 -0.499085 0.856717
2172638000 -0.489199 0.86711
2184636000 -0.47895 0.878647
2196634000 -0.468625 0.889785
2208632000 -0.462968 0.902259
2220630000 -0.457974 0.909194
2232628000 -0.455814 0.915945
2244626000 -0.452678 0.921997
2256624000 -0.451664 0.923728
2268622000 -0.445822 0.925721
2280620000 -0.442756 0.927452
2292618000 -0.439938 0.930467
2304616000 -0.435526 0.930584
2316614000 -0.429229 0.930274
2328612000 -0.417635 0.929517
2340610000 -0.404778 0.930343
2352608000 -0.388324 0.929649
2364606000 -0.372644 0.930522
2376604000 -0.35675 0.93107
2388602000 -0.338896 0.932374
2400600000 -0.322865 0.93932
2412598000 -0.306033 0.944255
2424596000 -0.290756 0.947974
2436594000 -0.274628 0.955346
2448592000 -0.261033 0.958958
2460590000 -0.247046 0.966446
2472588000 -0.236521 0.974542
2484586000 -0.228682 0.98088
2496584000 -0.220847 0.987537
2508582000 -0.211552 0.994487
2520580000 -0.202202 1.00037
2532578000 -0.196369 1.00209
2544576000 -0.190424 1.00734
2556574000 -0.182991 1.00783
2568572000 -0.176656 1.01063
2580570000 -0.166598 1.00996
2592568000 -0.159811 1.00806
2604566000 -0.149403 1.00449
2616564000 -0.141886 1.00068
2628562000 -0.131302 0.998971
2640560000 -0.122091 0.994501
2652558000 -0.110868 0.994161
2664556000 -0.0988099 0.988909
2676554000 -0.0878002 0.988314
2688552000 -0.0770538 0.987203
2700550000 -0.0595583 0.98741
2712548000 -0.0497002 0.987003
2724546000 -0.036636 0.987211
2736544000 -0.0256609 0.992482
2748542000 -0.0128765 0.994502
2760540000 -0.00164941 0.997221
2772538000 0.00926582 1.00119
2784536000 0.0195553 1.00415
2796534000 0.0288605 1.00556
2808532000 0.0365382 1.00757
2820530000 0.0463492 1.00914
2832528000 0.0544952 1.00859
2844526000 0.0640298 1.00856
2856524000 0.0703259 1.0062
2868522000 0.0781643 1.00324
2880520000 0.0859147 0.999655
2892518000 0.0943255 0.993931
2904516000 0.102212 0.992942
2916514000 0.110444 0.989809
2928512000 0.118096 0.985513
2940510000 0.122438 0.984303
2952508000 0.133489 0.978996
2964506000 0.143854 0.975071
2976504000 0.155049 0.973767
2988502000 0.168017 0.971874
3000500000 0.176763 0.968078
3012498000 0.192499 0.972227
3024496000 0.196465 0.971307
3036494000 0.209583 0.970877
3048492000 0.220711 0.970171
3060490000 0.22982 0.96895
3072488000 0.23705 0.968068
3084486000 0.246518 0.966807
3096484000 0.254857 0.96475
3108482000 0.261434 0.962856
3120480000 0.269618 0.959617
3132478000 0.274586 0.954165
3144476000 0.283132 0.950458
3156474000 0.292441 0.948756
3168472000 0.298571 0.94603
3180470000 0.307102 0.941384
3192468000 0.316798 0.937526
3204466000 0.325943 0.93147
3216464000 0.335416 0.927486
3228462000 0.346139 0.92357
3240460000 0.357663 0.917869
3252458000 0.370547 0.915219
3264456000 0.37998 0.910112
3276454000 0.389997 0.90697
3288452000 0.400094 0.901656
3300450000 0.407057 0.897824
3312448000 0.420182 0.894011
3324446000 0.428762 0.886576
3336444000 0.439698 0.883387
3348442000 0.448325 0.876832
3360440000 0.457872 0.872655
3372438000 0.466757 0.863709
3384436000 0.47501 0.85886
3396434000 0.484194 0.850788
3408432000 0.495432 0.845229
3420430000 0.506555 0.840011
3432428000 0.513942 0.831828
3444426000 0.527204 0.825607
3456424000 0.537989 0.819303
3468422000 0.545133 0.812428
3480420000 0.557201 0.805615
3492418000 0.5676 0.799356
3504416000 0.578166 0.793387
3516414000 0.586476 0.784641
3528412000 0.597552 0.782387
3540410000 0.604603 0.777708
3552408000 0.61365 0.768979
3564406000 0.618786 0.7677
3576404000 0.627413 0.7579
3588402000 0.632985 0.752852
3600400000 0.639452 0.74458
3612398000 0.645312 0.738679
3624396000 0.652945 0.73102
3636394000 0.661011 0.724127
3648392000 0.666699 0.717702
3660390000 0.675084 0.709591
3672388000 0.682768 0.701456
3684386000 0.690083 0.692985
3696384000 0.696727 0.68569
3708382000 0.705959 0.674794
3720380000 0.713904 0.666613
3732378000 0.721954 0.656335
3744376000 0.728283 0.649077
3756374000 0.736627 0.638746
3768372000 0.743631 0.630037
3780370000 0.751873 0.619825
3792368000 0.756531 0.614711
3804366000 0.762703 0.607062
3816364000 0.768824 0.599116
3828362000 0.77332 0.593769
3840360000 0.778184 0.589921
3852358000 0.78521 0.579736
3864356000 0.785636 0.574328
3876354000 0.789988 0.568927
3888352000 0.79402 0.562083
3900350000 0.797284 0.556643
3912348000 0.801687 0.550817
3924346000 0.806919 0.544769
3936344000 0.809687 0.539346
3948342000 0.812364 0.532243
3960340000 0.811302 0.52821
3972338000 0.814738 0.521376
3984336000 0.821987 0.509718
3996334000 0.826391 0.502853
4008332000 0.832026 0.495796
4020330000 0.837972 0.486918
4032328000 0.844375 0.477214
4044326000 0.84714 0.467905
4056324000 0.853553 0.456426
4068322000 0.855443 0.444025
4080320000 0.859511 0.430011
4092318000 0.865454 0.415381
4104316000 0.870499 0.396132
4116314000 0.876752 0.376813
4128312000 0.882349 0.362697
4140310000 0.889855 0.341954
4152308000 0.895012 0.323438
4164306000 0.901568 0.306566
4176304000 0.907635 0.29614
4188302000 0.913357 0.284106
4200300000 0.91721 0.277355
4212298000 0.916485 0.271241
4224296000 0.917766 0.270325
4236294000 0.920559 0.263811
4248292000 0.922387 0.263297
4260290000 0.928057 0.257224
4272288000 0.924195 0.253824
4284286000 0.925749 0.250121
4296284000 0.928573 0.241976
4308282000 0.930984 0.228063
4320280000 0.931695 0.215472
4332278000 0.932244 0.204479
4344276000 0.928128 0.187746
4356274000 0.930409 0.176811
4368272000 0.924892 0.162617
4380270000 0.924754 0.145427
4392268000 0.921484 0.124379
4404266000 0.921103 0.108337
4416264000 0.920966 0.0861161
4428262000 0.921391 0.0687872
4440260000 0.921452 0.0489307
4452258000 0.925803 0.0321141
4464256000 0.927501 0.0151567
4476254000 0.928592 -0.00131262
4488252000 0.930244 -0.0126237
4500250000 0.93049 -0.022529
4512248000 0.930543 -0.0376271
4524246000 0.933521 -0.0459514
4536244000 0.932835 -0.0566027
4548242000 0.93045 -0.0648985
4560240000 0.930795 -0.0722347
4572238000 0.927933 -0.0762919
4584236000 0.926796 -0.0852686
4596234000 0.922534 -0.0969573
4608232000 0.9117 -0.103991
4620230000 0.902161 -0.117914
4632228000 0.899473 -0.134161
4644226000 0.890547 -0.149327
4656224000 0.878882 -0.167199
4668222000 0.871268 -0.183955
4680220000 0.859937 -0.203616
4692218000 0.856692 -0.223457
4704216000 0.84413 -0.241762
4716214000 0.83382 -0.259493
4728212000 0.823092 -0.275694
4740210000 0.811251 -0.293955
4752208000 0.799494 -0.313078
4764206000 0.789329 -0.32927
4776204000 0.778674 -0.34547
4788202000 0.77062 -0.360721
4800200000 0.756929 -0.376904
4812198000 0.749454 -0.393035
4824196000 0.74078 -0.405331
4836194000 0.727413 -0.414153
4848192000 0.71481 -0.426246
4860190000 0.699668 -0.435923
4872188000 0.683027 -0.444502
4884186000 0.664148 -0.45072
4896184000 0.641396 -0.461068
4908182000 0.623732 -0.472504
4920180000 0.595855 -0.478256
4932178000 0.5707 -0.490599
4944176000 0.540556 -0.495868
4956174000 0.513751 -0.504456
4968172000 0.477569 -0.505618
4980170000 0.444223 -0.510474
4992168000 0.411594 -0.510054
5004166000 0.377024 -0.51074
5016164000 0.339831 -0.513651
5028162000 0.305731 -0.510781
5040160000 0.268866 -0.503521
5052158000 0.233807 -0.498483
5064156000 0.199692 -0.484968
5076154000 0.169645 -0.470887
5088152000 0.13556 -0.456814
5100150000 0.107303 -0.434661
5112148000 0.084284 -0.409939
5124146000 0.0577477 -0.384538
5136144000 0.0349322 -0.351608
5148142000 0.0169041 -0.318948
5160140000 0.000429083 -0.276928
5172138000 -0.005405 -0.238366
5184136000 -0.00935119 -0.193818
5196134000 -0.0143684 -0.145929
5208132000 -0.011218 -0.0950635
5220130000 -0.00941159 -0.0496124
5232128000 -0.00639832 -0.00108197
5244126000 -0.00223448 0.0454625
5256124000 0.00830824 0.0871153
5268122000 0.0201705 0.131663
5280120000 0.0376355 0.166401
5292118000 0.0591618 0.198331
5304116000 0.0908058 0.223712
5316114000 0.122282 0.243543
5328112000 0.159062 0.261661
5340110000 0.199792 0.278418
5352108000 0.229156 0.287173
5364106000 0.270411 0.300001
5376104000 0.304395 0.305237
5388102000 0.335951 0.310723
5400100000 0.36958 0.310511
5412098000 0.399006 0.310586
5424096000 0.428849 0.305829
5436094000 0.458075 0.302709
5448092000 0.483807 0.295753
5460090000 0.511386 0.287752
5472088000 0.537155 0.278518
5484086000 0.564279 0.267518
5496084000 0.590307 0.253152
5508082000 0.615301 0.239699
5520080000 0.635367 0.224822
5532078000 0.657694 0.212998
5544076000 0.676669 0.197379
5556074000 0.69578 0.182965
5568072000 0.709463 0.173547
5580070000 0.725933 0.16038
5592068000 0.73949 0.145338
5604066000 0.754963 0.130739
5616064000 0.759498 0.120962
5628062000 0.77206 0.105487
5640060000 0.777871 0.0935491
5652058000 0.785578 0.0789266
5664056000 0.791175 0.062073
5676054000 0.794963 0.0460415
5688052000 0.798158 0.0325983
5700050000 0.802955 0.0150558
5712048000 0.807792 -0.00114073
5724046000 0.813142 -0.0178452
5736044000 0.819462 -0.034464
5748042000 0.822245 -0.0495526
5760040000 0.826299 -0.0662467
5772038000 0.828801 -0.0825112
5784036000 0.834329 -0.0991587
5796034000 0.838522 -0.114805
5808032000 0.844038 -0.125532
5820030000 0.84671 -0.146409
5832028000 0.853196 -0.159287
5844026000 0.85486 -0.174137
5856024000 0.859355 -0.188915
5868022000 0.857204 -0.209669
5880020000 0.851826 -0.218894
5892018000 0.854445 -0.234813
5904016000 0.854198 -0.255411
5916014000 0.853119 -0.270113
5928012000 0.847757 -0.28959
5940010000 0.845346 -0.303732
5952008000 0.837072 -0.312966
5964006000 0.829924 -0.329094
5976004000 0.825665 -0.347447
5988002000 0.817965 -0.359398
6000000000 0.80782 -0.374409
