# Hz S RI R 50
1000000 0.988222 -0.00222724
12998000 1.01532 -0.0581021
24996000 1.00997 -0.127312
36994000 0.996796 -0.193006
48992000 0.97957 -0.256587
60990000 0.958828 -0.316179
72988000 0.933726 -0.375332
84986000 0.905855 -0.430884
96984000 0.87514 -0.484506
108982000 0.841225 -0.536665
120980000 0.805865 -0.585846
132978000 0.768656 -0.632515
144976000 0.729838 -0.677152
156974000 0.688983 -0.720068
168972000 0.646973 -0.759528
180970000 0.604258 -0.796104
192968000 0.559872 -0.829026
204966000 0.514324 -0.86019
216964000 0.468257 -0.887574
228962000 0.42141 -0.911156
240960000 0.375318 -0.931482
252958000 0.32892 -0.948029
264956000 0.282495 -0.961768
276954000 0.236084 -0.972663
288952000 0.191318 -0.979932
300950000 0.146472 -0.984754
312948000 0.10266 -0.987842
324946000 0.0608904 -0.988522
336944000 0.0200237 -0.9873
348942000 -0.0198715 -0.985846
360940000 -0.060031 -0.982402
372938000 -0.0988692 -0.979138
384936000 -0.136052 -0.975598
396934000 -0.172888 -0.970961
408932000 -0.20981 -0.966234
420930000 -0.24474 -0.960944
432928000 -0.279933 -0.953276
444926000 -0.314193 -0.944489
456924000 -0.346684 -0.935896
468922000 -0.378656 -0.926904
480920000 -0.408341 -0.915256
492918000 -0.436833 -0.902379
504916000 -0.464916 -0.888268
516914000 -0.492584 -0.874038
528912000 -0.517631 -0.8577
540910000 -0.542157 -0.840535
552908000 -0.565241 -0.823701
564906000 -0.586999 -0.806382
576904000 -0.607535 -0.789198
588902000 -0.627517 -0.772107
600900000 -0.646469 -0.75397
612898000 -0.663723 -0.737186
624896000 -0.681835 -0.720428
636894000 -0.699729 -0.703571
648892000 -0.717105 -0.687715
660890000 -0.73387 -0.671685
672888000 -0.750698 -0.655318
684886000 -0.767419 -0.639196
696884000 -0.784264 -0.621063
708882000 -0.799794 -0.604893
720880000 -0.816229 -0.587401
732878000 -0.829659 -0.568222
744876000 -0.84275 -0.549609
756874000 -0.855846 -0.53071
768872000 -0.868236 -0.5106
780870000 -0.878684 -0.490035
792868000 -0.887928 -0.470382
804866000 -0.896284 -0.450861
816864000 -0.905139 -0.431791
828862000 -0.913398 -0.413392
840860000 -0.918661 -0.394852
852858000 -0.924746 -0.378048
864856000 -0.931746 -0.359542
876854000 -0.936955 -0.342051
888852000 -0.943815 -0.325529
900850000 -0.94938 -0.308661
912848000 -0.954858 -0.292642
924846000 -0.960379 -0.276792
936844000 -0.965903 -0.261593
948842000 -0.97223 -0.247411
960840000 -0.978264 -0.233811
972838000 -0.984304 -0.2184
984836000 -0.989432 -0.202333
996834000 -0.993561 -0.187247
1008832000 -0.996838 -0.172031
1020830000 -1.00012 -0.15618
1032828000 -1.00296 -0.139462
1044826000 -1.00533 -0.12304
1056824000 -1.00737 -0.106858
1068822000 -1.00909 -0.0898609
1080820000 -1.00904 -0.0709172
1092818000 -1.00873 -0.0543628
1104816000 -1.00829 -0.0373931
1116814000 -1.00719 -0.0207708
1128812000 -1.00778 -0.00720279
1140810000 -1.00629 0.00927825
1152808000 -1.00679 0.0232472
1164806000 -1.00618 0.0377948
1176804000 -1.0085 0.0535823
1188802000 -1.00413 0.068988
1200800000 -1.00228 0.0796074
1212798000 -1.00254 0.0919292
1224796000 -1.00116 0.103414
1236794000 -1.00158 0.115909
1248792000 -1.0006 0.126596
1260790000 -0.999663 0.138235
1272788000 -0.999254 0.150584
1284786000 -0.996943 0.160699
1296784000 -0.992803 0.172465
1308782000 -0.990465 0.185619
1320780000 -0.987686 0.199192
1332778000 -0.984942 0.212592
1344776000 -0.982187 0.226642
1356774000 -0.979695 0.241999
1368772000 -0.976515 0.253662
1380770000 -0.974313 0.270194
1392768000 -0.968521 0.283747
1404766000 -0.964572 0.299243
1416764000 -0.958828 0.31499
1428762000 -0.95381 0.330097
1440760000 -0.948111 0.343952
1452758000 -0.943203 0.356462
1464756000 -0.939536 0.369239
1476754000 -0.935695 0.381537
1488752000 -0.931017 0.392585
1500750000 -0.927052 0.402205
1512748000 -0.918293 0.412424
1524746000 -0.913194 0.421189
1536744000 -0.90664 0.429775
1548742000 -0.900453 0.440529
1560740000 -0.893788 0.450038
1572738000 -0.889109 0.460204
1584736000 -0.885397 0.470809
1596734000 -0.881151 0.481867
1608732000 -0.876611 0.493468
1620730000 -0.872287 0.503364
1632728000 -0.867553 0.51463
1644726000 -0.862016 0.52627
1656724000 -0.855112 0.536891
1668722000 -0.848972 0.546675
1680720000 -0.843066 0.559226
1692718000 -0.838648 0.568368
1704716000 -0.833171 0.577568
1716714000 -0.826747 0.585432
1728712000 -0.820295 0.593917
1740710000 -0.810553 0.605856
1752708000 -0.802304 0.616115
1764706000 -0.79242 0.623515
1776704000 -0.783072 0.631708
1788702000 -0.77341 0.638733
1800700000 -0.762168 0.647522
1812698000 -0.751544 0.654941
1824696000 -0.742375 0.664062
1836694000 -0.73354 0.671979
1848692000 -0.725745 0.683164
1860690000 -0.717086 0.691931
1872688000 -0.708964 0.701321
1884686000 -0.700482 0.711311
1896684000 -0.693138 0.720859
1908682000 -0.684322 0.732771
1920680000 -0.678025 0.742527
1932678000 -0.669846 0.75393
1944676000 -0.660844 0.763327
1956674000 -0.655378 0.771591
1968672000 -0.651632 0.77888
1980670000 -0.644124 0.78905
1992668000 -0.640748 0.790988
2004666000 -0.637474 0.796102
2016664000 -0.630983 0.799138
2028662000 -0.624291 0.801169
2040660000 -0.618049 0.804898
2052658000 -0.610418 0.805828
2064656000 -0.601886 0.807532
2076654000 -0.591462 0.811245
2088652000 -0.580514 0.813637
2100650000 -0.568172 0.816294
2112648000 -0.555717 0.821965
2124646000 -0.542057 0.829845
2136644000 -0.528466 0.837405
2148642000 -0.513414 0.847142
2160640000 -0.499138 0.856997
2172638000 -0.489195 0.866464
2184636000 -0.479336 0.878533
2196634000 -0.469198 0.889814
2208632000 -0.463375 0.901389
2220630000 -0.457876 0.908516
2232628000 -0.455242 0.915204
2244626000 -0.454139 0.920686
2256624000 -0.45104 0.923908
2268622000 -0.446485 0.925675
2280620000 -0.441302 0.92812
2292618000 -0.440639 0.931013
2304616000 -0.435726 0.931329
2316614000 -0.428735 0.929973
2328612000 -0.417121 0.929925
2340610000 -0.405077 0.9302
2352608000 -0.389319 0.929716
2364606000 -0.372968 0.930965
2376604000 -0.357129 0.931771
2388602000 -0.338405 0.934972
2400600000 -0.321561 0.939609
2412598000 -0.306359 0.944257
2424596000 -0.290833 0.948092
2436594000 -0.274673 0.953848
2448592000 -0.261893 0.958242
2460590000 -0.247388 0.966724
2472588000 -0.237051 0.974523
2484586000 -0.229252 0.980967
2496584000 -0.220593 0.989378
2508582000 -0.211242 0.994114
2520580000 -0.201249 1.00084
2532578000 -0.196812 1.00221
2544576000 -0.191354 1.00853
2556574000 -0.184602 1.00771
2568572000 -0.177415 1.01053
2580570000 -0.166916 1.01035
2592568000 -0.160603 1.00769
2604566000 -0.149601 1.00495
2616564000 -0.142271 1.00155
2628562000 -0.132434 0.999339
2640560000 -0.122239 0.995212
2652558000 -0.109082 0.993402
2664556000 -0.0995682 0.991489
2676554000 -0.0864314 0.987632
2688552000 -0.0765484 0.988055
2700550000 -0.0609559 0.987183
2712548000 -0.0495703 0.985427
2724546000 -0.0353317 0.987184
2736544000 -0.025988 0.991992
2748542000 -0.0129657 0.994589
2760540000 -0.00177316 0.99757
2772538000 0.00893681 1.00106
2784536000 0.0192271 1.00457
2796534000 0.0293023 1.00581
2808532000 0.0359826 1.00832
2820530000 0.0460077 1.00813
2832528000 0.0542316 1.00926
2844526000 0.0618135 1.00776
2856524000 0.0709106 1.00536
2868522000 0.0789716 1.0029
2880520000 0.0863931 0.999858
2892518000 0.0943678 0.994336
2904516000 0.102551 0.992599
2916514000 0.110224 0.9895
2928512000 0.118017 0.985117
2940510000 0.122157 0.984111
2952508000 0.13317 0.97996
2964506000 0.144116 0.975291
2976504000 0.154832 0.972196
2988502000 0.167642 0.972996
3000500000 0.179961 0.973266
3012498000 0.192172 0.97259
3024496000 0.195353 0.971698
3036494000 0.209373 0.970756
3048492000 0.22018 0.970087
3060490000 0.229851 0.969519
3072488000 0.237668 0.968641
3084486000 0.247122 0.966649
3096484000 0.253362 0.964811
3108482000 0.261058 0.960781
3120480000 0.267584 0.960899
3132478000 0.274067 0.954192
3144476000 0.285407 0.951835
3156474000 0.292132 0.950909
3168472000 0.29978 0.945574
3180470000 0.307795 0.941768
3192468000 0.316959 0.9376
3204466000 0.326038 0.93189
3216464000 0.335499 0.92696
3228462000 0.347183 0.922214
3240460000 0.35833 0.918329
3252458000 0.370023 0.913685
3264456000 0.379377 0.910525
3276454000 0.390284 0.909008
3288452000 0.400291 0.902069
3300450000 0.408694 0.897408
3312448000 0.421043 0.892908
3324446000 0.429003 0.886394
3336444000 0.440211 0.882654
3348442000 0.448891 0.877133
3360440000 0.458219 0.872127
3372438000 0.466626 0.864377
3384436000 0.477329 0.860138
3396434000 0.485994 0.85121
3408432000 0.495688 0.845601
3420430000 0.507141 0.841322
3432428000 0.513714 0.832371
3444426000 0.527359 0.826549
3456424000 0.539033 0.819083
3468422000 0.546115 0.812088
3480420000 0.557611 0.805504
3492418000 0.567335 0.799641
3504416000 0.576866 0.79311
3516414000 0.587461 0.7862
3528412000 0.595878 0.78074
3540410000 0.602642 0.778012
3552408000 0.611738 0.770133
3564406000 0.619091 0.765492
3576404000 0.627132 0.756801
3588402000 0.63386 0.753533
3600400000 0.639242 0.746209
3612398000 0.646462 0.739022
3624396000 0.652977 0.731032
3636394000 0.661066 0.724593
3648392000 0.668929 0.716204
3660390000 0.675574 0.710015
3672388000 0.682444 0.702295
3684386000 0.691921 0.693418
3696384000 0.699872 0.683732
3708382000 0.705297 0.676885
3720380000 0.714524 0.667065
3732378000 0.722241 0.65641
3744376000 0.72705 0.64936
3756374000 0.736889 0.638565
3768372000 0.743765 0.630802
3780370000 0.751192 0.619875
3792368000 0.756693 0.614566
3804366000 0.765194 0.606056
3816364000 0.768699 0.598808
3828362000 0.775028 0.593886
3840360000 0.776921 0.590315
3852358000 0.782257 0.580192
3864356000 0.78702 0.575085
3876354000 0.788402 0.568757
3888352000 0.794195 0.561889
3900350000 0.79833 0.556449
3912348000 0.801529 0.55077
3924346000 0.806668 0.545235
3936344000 0.808336 0.538788
3948342000 0.811519 0.533115
3960340000 0.81109 0.52967
3972338000 0.816524 0.521496
3984336000 0.821559 0.510316
3996334000 0.82634 0.502397
4008332000 0.831104 0.49509
4020330000 0.83851 0.487061
4032328000 0.844204 0.477757
4044326000 0.847231 0.467526
4056324000 0.85289 0.456766
4068322000 0.85532 0.444174
4080320000 0.859729 0.430142
4092318000 0.866479 0.415584
4104316000 0.871451 0.396163
4116314000 0.877612 0.376431
4128312000 0.883432 0.360392
4140310000 0.889072 0.340627
4152308000 0.894511 0.325304
4164306000 0.901202 0.307837
4176304000 0.90777 0.296075
4188302000 0.913254 0.28418
4200300000 0.917838 0.277287
4212298000 0.916473 0.271526
4224296000 0.917427 0.270344
4236294000 0.920246 0.26421
4248292000 0.918785 0.264034
4260290000 0.9281 0.257186
4272288000 0.92447 0.254718
4284286000 0.927592 0.248641
4296284000 0.93006 0.24157
4308282000 0.929202 0.228672
4320280000 0.930852 0.21351
4332278000 0.93016 0.203015
4344276000 0.93004 0.188057
4356274000 0.92881 0.175632
4368272000 0.925181 0.163206
4380270000 0.925109 0.145469
4392268000 0.921253 0.125149
4404266000 0.921776 0.109259
4416264000 0.920983 0.0860712
4428262000 0.919872 0.0682727
4440260000 0.921591 0.0496439
4452258000 0.925384 0.0317609
4464256000 0.92871 0.0152829
4476254000 0.929347 0.000407847
4488252000 0.930745 -0.0119774
4500250000 0.930331 -0.0218996
4512248000 0.930385 -0.0372247
4524246000 0.93315 -0.0464438
4536244000 0.933151 -0.0568374
4548242000 0.931459 -0.0650456
4560240000 0.933442 -0.0692217
4572238000 0.930353 -0.0764558
4584236000 0.926113 -0.0872645
4596234000 0.921561 -0.0916531
4608232000 0.914945 -0.101835
4620230000 0.90542 -0.115413
4632228000 0.899003 -0.133174
4644226000 0.890514 -0.149368
4656224000 0.879908 -0.166647
4668222000 0.87191 -0.183258
4680220000 0.860108 -0.203144
4692218000 0.857116 -0.223394
4704216000 0.844314 -0.241231
4716214000 0.835707 -0.258064
4728212000 0.821923 -0.274774
4740210000 0.813149 -0.292147
4752208000 0.799637 -0.31194
4764206000 0.789038 -0.328616
4776204000 0.778367 -0.345186
4788202000 0.770631 -0.360675
4800200000 0.75744 -0.376595
4812198000 0.750289 -0.392425
4824196000 0.740606 -0.405419
4836194000 0.726042 -0.414612
4848192000 0.713052 -0.426345
4860190000 0.699267 -0.43304
4872188000 0.685044 -0.446345
4884186000 0.664766 -0.449316
4896184000 0.641561 -0.460431
4908182000 0.621826 -0.472859
4920180000 0.59616 -0.478055
4932178000 0.570823 -0.490865
4944176000 0.54102 -0.495908
4956174000 0.514492 -0.503989
4968172000 0.478717 -0.50478
4980170000 0.445704 -0.509258
4992168000 0.412499 -0.510689
5004166000 0.37733 -0.511517
5016164000 0.340663 -0.512428
5028162000 0.306336 -0.511801
5040160000 0.269608 -0.503864
5052158000 0.234483 -0.498752
5064156000 0.20041 -0.485057
5076154000 0.169345 -0.471085
5088152000 0.136701 -0.456881
5100150000 0.106979 -0.43474
5112148000 0.0844251 -0.411467
5124146000 0.0578044 -0.385456
5136144000 0.035412 -0.352267
5148142000 0.0168291 -0.319132
5160140000 0.000635418 -0.277566
5172138000 -0.00522015 -0.238958
5184136000 -0.00949983 -0.194176
5196134000 -0.014111 -0.146238
5208132000 -0.0112561 -0.0955851
5220130000 -0.0101326 -0.0506697
5232128000 -0.00676355 -0.00167115
5244126000 -0.00233041 0.0448335
5256124000 0.00804484 0.0864021
5268122000 0.019754 0.131012
5280120000 0.0373152 0.165977
5292118000 0.0585664 0.197986
5304116000 0.0910432 0.222857
5316114000 0.12162 0.244165
5328112000 0.159147 0.261854
5340110000 0.199107 0.276555
5352108000 0.230548 0.288799
5364106000 0.268755 0.298852
5376104000 0.303192 0.305561
5388102000 0.336858 0.309991
5400100000 0.367864 0.311159
5412098000 0.397156 0.310791
5424096000 0.428525 0.305996
5436094000 0.45792 0.303015
5448092000 0.483491 0.296089
5460090000 0.51125 0.288149
5472088000 0.537029 0.278309
5484086000 0.563504 0.26701
5496084000 0.590107 0.25375
5508082000 0.614244 0.238367
5520080000 0.63502 0.224951
5532078000 0.657076 0.212846
5544076000 0.676623 0.197502
5556074000 0.696098 0.183527
5568072000 0.708393 0.174362
5580070000 0.725872 0.160717
5592068000 0.738976 0.14577
5604066000 0.756004 0.131584
5616064000 0.759969 0.117402
5628062000 0.775275 0.107088
5640060000 0.777509 0.096202
5652058000 0.786495 0.0784704
5664056000 0.790774 0.0639694
5676054000 0.794897 0.0460373
5688052000 0.79882 0.0323829
5700050000 0.804168 0.0165317
5712048000 0.807655 -0.000441525
5724046000 0.813073 -0.017499
5736044000 0.819391 -0.0337866
5748042000 0.822718 -0.0492925
5760040000 0.826613 -0.0665333
5772038000 0.82947 -0.0820958
5784036000 0.83418 -0.0974701
5796034000 0.839256 -0.112502
5808032000 0.844256 -0.126074
5820030000 0.846526 -0.145744
5832028000 0.853169 -0.158221
5844026000 0.855314 -0.172775
5856024000 0.858368 -0.187387
5868022000 0.857215 -0.207874
5880020000 0.854499 -0.217096
5892018000 0.860242 -0.232683
5904016000 0.856741 -0.250657
5916014000 0.854389 -0.270405
5928012000 0.849773 -0.290166
5940010000 0.845097 -0.302282
5952008000 0.837833 -0.315768
5964006000 0.826293 -0.330743
5976004000 0.824026 -0.344607
5988002000 0.81808 -0.360128
6000000000 0.808576 -0.373863
