# Hz S RI R 50
1000000 0.993459 0.00233233
12998000 1.01529 -0.0583921
24996000 1.01013 -0.127331
36994000 0.996407 -0.193497
48992000 0.979238 -0.25657
60990000 0.958978 -0.316116
72988000 0.933714 -0.374867
84986000 0.906031 -0.430751
96984000 0.874741 -0.484679
108982000 0.841176 -0.536528
120980000 0.805758 -0.586097
132978000 0.768697 -0.632525
144976000 0.729722 -0.677069
156974000 0.689069 -0.719957
168972000 0.647033 -0.759354
180970000 0.604081 -0.795961
192968000 0.559533 -0.829281
204966000 0.513909 -0.860353
216964000 0.468127 -0.887453
228962000 0.421315 -0.911159
240960000 0.375254 -0.931296
252958000 0.328742 -0.947716
264956000 0.282837 -0.96166
276954000 0.236182 -0.972593
288952000 0.191212 -0.979874
300950000 0.146324 -0.984913
312948000 0.102602 -0.987766
324946000 0.0607785 -0.988276
336944000 0.0195828 -0.987535
348942000 -0.0202255 -0.98568
360940000 -0.0603327 -0.982381
372938000 -0.0989211 -0.979011
384936000 -0.135945 -0.975627
396934000 -0.172918 -0.971175
408932000 -0.209489 -0.966263
420930000 -0.244534 -0.960577
432928000 -0.280348 -0.953488
444926000 -0.313879 -0.945185
456924000 -0.346221 -0.936135
468922000 -0.378174 -0.926992
480920000 -0.408229 -0.91536
492918000 -0.436843 -0.902277
504916000 -0.464311 -0.888448
516914000 -0.492198 -0.873803
528912000 -0.517307 -0.857677
540910000 -0.542403 -0.841306
552908000 -0.564909 -0.823689
564906000 -0.587239 -0.806053
576904000 -0.608161 -0.788324
588902000 -0.627576 -0.771946
600900000 -0.64571 -0.753763
612898000 -0.663539 -0.737391
624896000 -0.681596 -0.720558
636894000 -0.699477 -0.703691
648892000 -0.71685 -0.687767
660890000 -0.733724 -0.671912
672888000 -0.7508 -0.655608
684886000 -0.767801 -0.639501
696884000 -0.783807 -0.621601
708882000 -0.800011 -0.604617
720880000 -0.815895 -0.587885
732878000 -0.829703 -0.568199
744876000 -0.842829 -0.549704
756874000 -0.855764 -0.530735
768872000 -0.867929 -0.510709
780870000 -0.878566 -0.490704
792868000 -0.887717 -0.470676
804866000 -0.896395 -0.450985
816864000 -0.90491 -0.431884
828862000 -0.913075 -0.41398
840860000 -0.918292 -0.396507
852858000 -0.924186 -0.378111
864856000 -0.931504 -0.359686
876854000 -0.937189 -0.342351
888852000 -0.943881 -0.325159
900850000 -0.949627 -0.308373
912848000 -0.954862 -0.292484
924846000 -0.960467 -0.276849
936844000 -0.966045 -0.261522
948842000 -0.972342 -0.246822
960840000 -0.978385 -0.233678
972838000 -0.984403 -0.218145
984836000 -0.989543 -0.202057
996834000 -0.993708 -0.186843
1008832000 -0.996942 -0.171961
1020830000 -1.00079 -0.155948
1032828000 -1.00293 -0.139451
1044826000 -1.00528 -0.1233
1056824000 -1.0072 -0.107086
1068822000 -1.00892 -0.0891788
1080820000 -1.00847 -0.0719234
1092818000 -1.00936 -0.0545235
1104816000 -1.00886 -0.0378952
1116814000 -1.00793 -0.0216019
1128812000 -1.00703 -0.00608193
1140810000 -1.00751 0.00908653
1152808000 -1.00653 0.0225939
1164806000 -1.00633 0.0373102
1176804000 -1.00888 0.05348
1188802000 -1.00447 0.0686758
1200800000 -1.00271 0.0791212
1212798000 -1.00287 0.0916763
1224796000 -1.00162 0.103799
1236794000 -1.00226 0.11562
1248792000 -1.00084 0.127362
1260790000 -1.00025 0.138819
1272788000 -1.00055 0.150582
1284786000 -0.997013 0.160881
1296784000 -0.992699 0.172498
1308782000 -0.990106 0.185689
1320780000 -0.987501 0.199225
1332778000 -0.984834 0.212767
1344776000 -0.98192 0.227171
1356774000 -0.979301 0.241292
1368772000 -0.976736 0.25481
1380770000 -0.973597 0.268762
1392768000 -0.968766 0.284067
1404766000 -0.964148 0.299627
1416764000 -0.959585 0.314963
1428762000 -0.954351 0.328549
1440760000 -0.948961 0.343891
1452758000 -0.943973 0.355957
1464756000 -0.939891 0.368599
1476754000 -0.935502 0.381571
1488752000 -0.931023 0.392466
1500750000 -0.927843 0.404159
1512748000 -0.918235 0.412547
1524746000 -0.912931 0.420996
1536744000 -0.906095 0.430078
1548742000 -0.900143 0.440967
1560740000 -0.893919 0.449659
1572738000 -0.889273 0.460028
1584736000 -0.884852 0.470807
1596734000 -0.881158 0.481669
1608732000 -0.876889 0.493188
1620730000 -0.872191 0.503738
1632728000 -0.867318 0.514638
1644726000 -0.861933 0.526299
1656724000 -0.855527 0.536785
1668722000 -0.848772 0.54621
1680720000 -0.843948 0.558999
1692718000 -0.838867 0.568265
1704716000 -0.83372 0.578361
1716714000 -0.82609 0.584607
1728712000 -0.820624 0.594036
1740710000 -0.811516 0.606326
1752708000 -0.801984 0.616255
1764706000 -0.79204 0.623616
1776704000 -0.782744 0.631971
1788702000 -0.773489 0.638759
1800700000 -0.763651 0.64724
1812698000 -0.751281 0.654964
1824696000 -0.742733 0.665499
1836694000 -0.73428 0.673064
1848692000 -0.725753 0.682977
1860690000 -0.717069 0.691833
1872688000 -0.709111 0.701634
1884686000 -0.700615 0.711411
1896684000 -0.693321 0.720787
1908682000 -0.684069 0.732404
1920680000 -0.677474 0.743316
1932678000 -0.670179 0.753789
1944676000 -0.660471 0.762767
1956674000 -0.655872 0.772542
1968672000 -0.65068 0.779026
1980670000 -0.642187 0.785431
1992668000 -0.641145 0.789931
2004666000 -0.636951 0.795395
2016664000 -0.631262 0.798898
2028662000 -0.62559 0.800992
2040660000 -0.61837 0.803465
2052658000 -0.610371 0.805507
2064656000 -0.602616 0.807004
2076654000 -0.592049 0.810967
2088652000 -0.581163 0.813281
2100650000 -0.569586 0.816599
2112648000 -0.555334 0.822957
2124646000 -0.541842 0.829934
2136644000 -0.527626 0.838045
2148642000 -0.513249 0.847447
2160640000 -0.499977 0.855264
2172638000 -0.489852 0.866539
2184636000 -0.479145 0.878574
2196634000 -0.46942 0.889508
2208632000 -0.463615 0.900994
2220630000 -0.457635 0.908432
2232628000 -0.456265 0.915278
2244626000 -0.454778 0.920064
2256624000 -0.451937 0.924938
2268622000 -0.446416 0.925995
2280620000 -0.444785 0.929026
2292618000 -0.441822 0.930077
2304616000 -0.436476 0.930542
2316614000 -0.429337 0.930059
2328612000 -0.418072 0.929726
2340610000 -0.405606 0.929448
2352608000 -0.38893 0.93017
2364606000 -0.374598 0.930991
2376604000 -0.356899 0.930785
2388602000 -0.339152 0.93468
2400600000 -0.321686 0.93886
2412598000 -0.307424 0.942863
2424596000 -0.290475 0.947168
2436594000 -0.275017 0.954351
2448592000 -0.262672 0.958071
2460590000 -0.247784 0.966447
2472588000 -0.237411 0.974343
2484586000 -0.229251 0.981185
2496584000 -0.221074 0.987922
2508582000 -0.211772 0.99413
2520580000 -0.20476 0.997354
2532578000 -0.198805 1.00259
2544576000 -0.191717 1.00774
2556574000 -0.185154 1.00799
2568572000 -0.176956 1.01102
2580570000 -0.168134 1.0103
2592568000 -0.160674 1.00822
2604566000 -0.149996 1.00486
2616564000 -0.142995 1.00099
2628562000 -0.132433 0.999675
2640560000 -0.124343 0.993104
2652558000 -0.112773 0.993584
2664556000 -0.0994021 0.990572
2676554000 -0.0866292 0.988916
2688552000 -0.0766432 0.985961
2700550000 -0.061424 0.987382
2712548000 -0.049647 0.986788
2724546000 -0.0361778 0.98874
2736544000 -0.0261646 0.992223
2748542000 -0.0138359 0.994748
2760540000 -0.00223023 0.997619
2772538000 0.00842883 1.00095
2784536000 0.0187544 1.00432
2796534000 0.0282214 1.00555
2808532000 0.0368654 1.00738
2820530000 0.0444044 1.00941
2832528000 0.0541279 1.00865
2844526000 0.0610248 1.00894
2856524000 0.0700317 1.00643
2868522000 0.0781916 1.00325
2880520000 0.0849156 0.999781
2892518000 0.0938554 0.994342
2904516000 0.10191 0.99289
2916514000 0.109855 0.989622
2928512000 0.117859 0.985242
2940510000 0.122261 0.984963
2952508000 0.13486 0.977756
2964506000 0.144101 0.975497
2976504000 0.155738 0.971918
2988502000 0.168514 0.97216
3000500000 0.177797 0.968641
3012498000 0.191736 0.973758
3024496000 0.195864 0.97217
3036494000 0.208608 0.970562
3048492000 0.220144 0.970064
3060490000 0.229437 0.969364
3072488000 0.237337 0.967577
3084486000 0.245747 0.9661
3096484000 0.254464 0.964113
3108482000 0.257929 0.962204
3120480000 0.270397 0.960883
3132478000 0.274 0.956325
3144476000 0.284839 0.950917
3156474000 0.292662 0.94867
3168472000 0.298492 0.946667
3180470000 0.307483 0.942232
3192468000 0.316254 0.937936
3204466000 0.32551 0.931949
3216464000 0.335598 0.927333
3228462000 0.348056 0.923192
3240460000 0.358117 0.917867
3252458000 0.369728 0.914088
3264456000 0.378623 0.912002
3276454000 0.389235 0.907898
3288452000 0.400023 0.902591
3300450000 0.405238 0.89821
3312448000 0.421041 0.89316
3324446000 0.428835 0.886667
3336444000 0.439634 0.883194
3348442000 0.448005 0.876881
3360440000 0.457753 0.871229
3372438000 0.466933 0.865876
3384436000 0.477341 0.860783
3396434000 0.482833 0.851126
3408432000 0.494898 0.845458
3420430000 0.504381 0.840442
3432428000 0.512444 0.833149
3444426000 0.526425 0.825695
3456424000 0.538397 0.82102
3468422000 0.545818 0.813189
3480420000 0.556627 0.80611
3492418000 0.567095 0.800094
3504416000 0.577388 0.793161
3516414000 0.588117 0.785942
3528412000 0.596798 0.782652
3540410000 0.604832 0.776621
3552408000 0.611652 0.76944
3564406000 0.619891 0.766175
3576404000 0.626663 0.758717
3588402000 0.631996 0.75574
3600400000 0.639568 0.746196
3612398000 0.645561 0.739295
3624396000 0.65275 0.731454
3636394000 0.660687 0.724439
3648392000 0.667696 0.716094
3660390000 0.675176 0.711056
3672388000 0.679298 0.702597
3684386000 0.690821 0.692743
3696384000 0.698455 0.684533
3708382000 0.705385 0.675502
3720380000 0.714103 0.666994
3732378000 0.720892 0.657422
3744376000 0.726944 0.649579
3756374000 0.736439 0.638807
3768372000 0.743143 0.630603
3780370000 0.751278 0.620623
3792368000 0.756067 0.615327
3804366000 0.76442 0.606566
3816364000 0.768061 0.600569
3828362000 0.774495 0.59259
3840360000 0.778113 0.590786
3852358000 0.78404 0.579427
3864356000 0.78648 0.575621
3876354000 0.788487 0.56937
3888352000 0.792673 0.562476
3900350000 0.798025 0.557487
3912348000 0.801264 0.551146
3924346000 0.806216 0.54594
3936344000 0.809427 0.539286
3948342000 0.812063 0.532642
3960340000 0.810132 0.530848
3972338000 0.816417 0.521981
3984336000 0.820326 0.514449
3996334000 0.82706 0.503914
4008332000 0.831443 0.496142
4020330000 0.839764 0.487012
4032328000 0.842804 0.477758
4044326000 0.848143 0.468777
4056324000 0.853208 0.457063
4068322000 0.855262 0.444366
4080320000 0.859538 0.430596
4092318000 0.866066 0.416258
4104316000 0.871348 0.396516
4116314000 0.875262 0.376598
4128312000 0.884117 0.361603
4140310000 0.890552 0.342488
4152308000 0.895156 0.323791
4164306000 0.902173 0.307709
4176304000 0.906498 0.296259
4188302000 0.91257 0.283963
4200300000 0.918202 0.276891
4212298000 0.916014 0.271621
4224296000 0.917696 0.271141
4236294000 0.920342 0.265074
4248292000 0.920835 0.263087
4260290000 0.927977 0.258385
4272288000 0.928214 0.254975
4284286000 0.926652 0.248274
4296284000 0.930136 0.240671
4308282000 0.930026 0.23016
4320280000 0.930843 0.2147
4332278000 0.928945 0.203422
4344276000 0.928399 0.187869
4356274000 0.930249 0.176973
4368272000 0.924243 0.163137
4380270000 0.924971 0.146191
4392268000 0.92143 0.125404
4404266000 0.920481 0.11018
4416264000 0.919608 0.087755
4428262000 0.920146 0.0679558
4440260000 0.920725 0.048787
4452258000 0.92448 0.0335386
4464256000 0.928315 0.0149672
4476254000 0.928365 0.00123583
4488252000 0.930423 -0.0118144
4500250000 0.929563 -0.0213699
4512248000 0.930294 -0.0365624
4524246000 0.932456 -0.0455955
4536244000 0.933393 -0.055014
4548242000 0.931241 -0.0649032
4560240000 0.931003 -0.0675962
4572238000 0.930498 -0.0782262
4584236000 0.92567 -0.0852441
4596234000 0.920897 -0.0947248
4608232000 0.912948 -0.1019
4620230000 0.907367 -0.116095
4632228000 0.896734 -0.13229
4644226000 0.891125 -0.149423
4656224000 0.879435 -0.167015
4668222000 0.872272 -0.182866
4680220000 0.860186 -0.203001
4692218000 0.857299 -0.222388
4704216000 0.844631 -0.240786
4716214000 0.834191 -0.2585
4728212000 0.824855 -0.27371
4740210000 0.811523 -0.291271
4752208000 0.799136 -0.311079
4764206000 0.789005 -0.329691
4776204000 0.778546 -0.344629
4788202000 0.770871 -0.360276
4800200000 0.757215 -0.376023
4812198000 0.750384 -0.392344
4824196000 0.739321 -0.405731
4836194000 0.726785 -0.413911
4848192000 0.715938 -0.427186
4860190000 0.699094 -0.431274
4872188000 0.685247 -0.443214
4884186000 0.662912 -0.452866
4896184000 0.642496 -0.459773
4908182000 0.624127 -0.473014
4920180000 0.596174 -0.478905
4932178000 0.570604 -0.48966
4944176000 0.541171 -0.49526
4956174000 0.513969 -0.504382
4968172000 0.479174 -0.505802
4980170000 0.446312 -0.508875
4992168000 0.41107 -0.509927
5004166000 0.378056 -0.511917
5016164000 0.340479 -0.512307
5028162000 0.307538 -0.510659
5040160000 0.26999 -0.503302
5052158000 0.234731 -0.498416
5064156000 0.200433 -0.484801
5076154000 0.169423 -0.471287
5088152000 0.137407 -0.45682
5100150000 0.106693 -0.434203
5112148000 0.0854463 -0.410054
5124146000 0.0583745 -0.38479
5136144000 0.0346124 -0.351196
5148142000 0.0172689 -0.31889
5160140000 0.000691789 -0.277214
5172138000 -0.00523412 -0.238716
5184136000 -0.00975307 -0.194055
5196134000 -0.0142961 -0.145911
5208132000 -0.0109434 -0.0957187
5220130000 -0.00978917 -0.0504628
5232128000 -0.00663636 -0.00162951
5244126000 -0.00235962 0.0450176
5256124000 0.008095 0.0866665
5268122000 0.0198024 0.131121
5280120000 0.0373677 0.16618
5292118000 0.0587099 0.198285
5304116000 0.0911077 0.223804
5316114000 0.121741 0.243049
5328112000 0.157679 0.26173
5340110000 0.199687 0.277239
5352108000 0.229896 0.287039
5364106000 0.269782 0.299662
5376104000 0.303799 0.304854
5388102000 0.335245 0.310138
5400100000 0.369361 0.309279
5412098000 0.398298 0.310145
5424096000 0.428362 0.305878
5436094000 0.457838 0.303211
5448092000 0.483567 0.296361
5460090000 0.511229 0.288547
5472088000 0.536674 0.277425
5484086000 0.563837 0.267562
5496084000 0.588336 0.253865
5508082000 0.614516 0.239675
5520080000 0.634791 0.225754
5532078000 0.657629 0.214434
5544076000 0.676343 0.198309
5556074000 0.695719 0.183833
5568072000 0.709124 0.174383
5580070000 0.727366 0.161638
5592068000 0.738246 0.145873
5604066000 0.754951 0.132822
5616064000 0.758198 0.115305
5628062000 0.771135 0.105662
5640060000 0.77728 0.0973557
5652058000 0.785841 0.0801065
5664056000 0.789032 0.0633313
5676054000 0.796708 0.0466999
5688052000 0.800151 0.0328761
5700050000 0.804364 0.0167663
5712048000 0.808125 -0.000385333
5724046000 0.813052 -0.0167843
5736044000 0.81948 -0.0333362
5748042000 0.820698 -0.0483377
5760040000 0.824812 -0.0643988
5772038000 0.830323 -0.0836263
5784036000 0.834357 -0.097201
5796034000 0.838846 -0.113077
5808032000 0.84314 -0.124368
5820030000 0.846488 -0.14462
5832028000 0.853158 -0.15796
5844026000 0.855723 -0.172472
5856024000 0.858962 -0.186864
5868022000 0.857962 -0.208761
5880020000 0.853354 -0.225345
5892018000 0.857346 -0.23839
5904016000 0.855696 -0.253254
5916014000 0.854936 -0.269894
5928012000 0.848661 -0.289143
5940010000 0.846277 -0.303113
5952008000 0.836185 -0.312965
5964006000 0.829984 -0.33097
5976004000 0.823855 -0.343991
5988002000 0.817634 -0.358457
6000000000 0.808129 -0.373313
