# Hz S RI R 50
1000000 0.99263 0.002334
12998000 1.01564 -0.0585599
24996000 1.01013 -0.127686
36994000 0.996482 -0.193558
48992000 0.979512 -0.256699
60990000 0.959055 -0.316253
72988000 0.933782 -0.375023
84986000 0.906074 -0.430947
96984000 0.874875 -0.484625
108982000 0.841423 -0.536704
120980000 0.805738 -0.586279
132978000 0.768596 -0.632782
144976000 0.729782 -0.677327
156974000 0.689082 -0.719978
168972000 0.647194 -0.759417
180970000 0.604314 -0.796111
192968000 0.559721 -0.829553
204966000 0.514361 -0.860257
216964000 0.468107 -0.887725
228962000 0.420957 -0.911542
240960000 0.374803 -0.9316
252958000 0.328158 -0.948206
264956000 0.282297 -0.961972
276954000 0.235887 -0.972743
288952000 0.190856 -0.979836
300950000 0.145869 -0.985184
312948000 0.102462 -0.987956
324946000 0.0606138 -0.988676
336944000 0.0197763 -0.98768
348942000 -0.0203058 -0.985835
360940000 -0.0605944 -0.982406
372938000 -0.0993629 -0.979128
384936000 -0.136726 -0.975433
396934000 -0.173384 -0.971081
408932000 -0.210118 -0.96626
420930000 -0.24514 -0.960847
432928000 -0.280781 -0.953228
444926000 -0.314475 -0.944762
456924000 -0.347174 -0.935963
468922000 -0.378852 -0.926693
480920000 -0.408581 -0.915294
492918000 -0.437307 -0.902332
504916000 -0.46512 -0.888059
516914000 -0.492906 -0.87395
528912000 -0.518217 -0.857069
540910000 -0.542834 -0.840775
552908000 -0.565675 -0.823484
564906000 -0.58759 -0.806031
576904000 -0.608539 -0.788632
588902000 -0.62809 -0.771925
600900000 -0.646398 -0.754368
612898000 -0.663964 -0.737418
624896000 -0.682002 -0.720555
636894000 -0.699799 -0.703515
648892000 -0.717173 -0.687684
660890000 -0.734312 -0.671903
672888000 -0.750995 -0.655215
684886000 -0.767727 -0.638906
696884000 -0.78438 -0.621261
708882000 -0.799753 -0.604978
720880000 -0.816178 -0.5875
732878000 -0.829907 -0.567935
744876000 -0.843195 -0.54962
756874000 -0.855747 -0.530823
768872000 -0.868013 -0.51066
780870000 -0.879037 -0.490981
792868000 -0.888211 -0.471081
804866000 -0.896715 -0.450665
816864000 -0.905665 -0.43167
828862000 -0.912423 -0.413868
840860000 -0.918416 -0.395416
852858000 -0.925315 -0.378082
864856000 -0.931372 -0.360419
876854000 -0.937189 -0.342171
888852000 -0.944319 -0.32536
900850000 -0.949731 -0.30863
912848000 -0.95511 -0.292672
924846000 -0.960684 -0.276936
936844000 -0.96623 -0.261629
948842000 -0.972342 -0.247015
960840000 -0.978752 -0.233593
972838000 -0.984799 -0.218319
984836000 -0.989523 -0.202155
996834000 -0.993569 -0.186746
1008832000 -0.996841 -0.171979
1020830000 -1.00083 -0.156256
1032828000 -1.00308 -0.139754
1044826000 -1.00553 -0.123361
1056824000 -1.00765 -0.106965
1068822000 -1.00928 -0.0893416
1080820000 -1.00831 -0.0711868
1092818000 -1.00919 -0.0542316
1104816000 -1.00859 -0.0380051
1116814000 -1.00809 -0.0218134
1128812000 -1.00789 -0.00678888
1140810000 -1.00683 0.00819296
1152808000 -1.00697 0.0229759
1164806000 -1.00656 0.037615
1176804000 -1.0092 0.0537297
1188802000 -1.00452 0.0690387
1200800000 -1.00261 0.0800684
1212798000 -1.00231 0.0919828
1224796000 -1.00189 0.103305
1236794000 -1.00184 0.115564
1248792000 -1.00091 0.127247
1260790000 -1.00066 0.138219
1272788000 -0.999639 0.149233
1284786000 -0.997618 0.160762
1296784000 -0.99285 0.171985
1308782000 -0.990233 0.185554
1320780000 -0.987621 0.199088
1332778000 -0.984962 0.212639
1344776000 -0.982216 0.226865
1356774000 -0.979183 0.242079
1368772000 -0.977288 0.253609
1380770000 -0.9728 0.268695
1392768000 -0.969496 0.283116
1404766000 -0.964628 0.29959
1416764000 -0.959593 0.315149
1428762000 -0.95418 0.329127
1440760000 -0.948581 0.343297
1452758000 -0.943359 0.356413
1464756000 -0.939993 0.369161
1476754000 -0.935346 0.381695
1488752000 -0.931078 0.39227
1500750000 -0.926949 0.402956
1512748000 -0.918469 0.412643
1524746000 -0.912643 0.421738
1536744000 -0.906576 0.430245
1548742000 -0.900244 0.440136
1560740000 -0.894225 0.449659
1572738000 -0.888714 0.460325
1584736000 -0.884568 0.470927
1596734000 -0.88102 0.482066
1608732000 -0.87675 0.493351
1620730000 -0.872365 0.503704
1632728000 -0.867843 0.514801
1644726000 -0.862387 0.526889
1656724000 -0.855756 0.537528
1668722000 -0.847889 0.547997
1680720000 -0.842826 0.55944
1692718000 -0.838087 0.568382
1704716000 -0.833673 0.576847
1716714000 -0.825886 0.585081
1728712000 -0.820441 0.59519
1740710000 -0.811002 0.607309
1752708000 -0.801679 0.616116
1764706000 -0.792063 0.623794
1776704000 -0.782811 0.631805
1788702000 -0.77317 0.63873
1800700000 -0.763812 0.648708
1812698000 -0.7509 0.6557
1824696000 -0.742563 0.66493
1836694000 -0.734066 0.673677
1848692000 -0.725394 0.683883
1860690000 -0.717241 0.691792
1872688000 -0.708662 0.70167
1884686000 -0.700613 0.711213
1896684000 -0.693424 0.720901
1908682000 -0.684559 0.732062
1920680000 -0.678083 0.743339
1932678000 -0.670065 0.752548
1944676000 -0.660687 0.762376
1956674000 -0.656823 0.771689
1968672000 -0.650674 0.780645
1980670000 -0.642973 0.787299
1992668000 -0.640785 0.790488
2004666000 -0.636147 0.795288
2016664000 -0.631111 0.798828
2028662000 -0.624183 0.800713
2040660000 -0.618505 0.803731
2052658000 -0.61037 0.805525
2064656000 -0.602208 0.807264
2076654000 -0.591705 0.811733
2088652000 -0.580599 0.812999
2100650000 -0.568843 0.818272
2112648000 -0.556006 0.820725
2124646000 -0.54173 0.829542
2136644000 -0.527117 0.837559
2148642000 -0.513044 0.846915
2160640000 -0.499391 0.855533
2172638000 -0.489875 0.867614
2184636000 -0.479348 0.878721
2196634000 -0.469409 0.889617
2208632000 -0.463126 0.901506
2220630000 -0.458333 0.908036
2232628000 -0.455355 0.915491
2244626000 -0.453936 0.92102
2256624000 -0.453118 0.925328
2268622000 -0.446825 0.92595
2280620000 -0.443397 0.926626
2292618000 -0.441622 0.930385
2304616000 -0.436071 0.930769
2316614000 -0.429156 0.93028
2328612000 -0.417541 0.930191
2340610000 -0.404904 0.929953
2352608000 -0.38828 0.930523
2364606000 -0.372541 0.93023
2376604000 -0.356927 0.93216
2388602000 -0.339614 0.932381
2400600000 -0.322851 0.937591
2412598000 -0.305278 0.94346
2424596000 -0.290036 0.948215
2436594000 -0.274989 0.954722
2448592000 -0.261551 0.959141
2460590000 -0.2473 0.966569
2472588000 -0.236752 0.974673
2484586000 -0.229226 0.981106
2496584000 -0.220845 0.988307
2508582000 -0.210452 0.993854
2520580000 -0.202934 1.00019
2532578000 -0.196364 1.00187
2544576000 -0.191226 1.00656
2556574000 -0.184189 1.00828
2568572000 -0.176662 1.0123
2580570000 -0.166838 1.01078
2592568000 -0.160341 1.00856
2604566000 -0.1493 1.0047
2616564000 -0.142294 1.00129
2628562000 -0.132247 1.00031
2640560000 -0.123406 0.99302
2652558000 -0.112105 0.992827
2664556000 -0.099243 0.991453
2676554000 -0.086024 0.989849
2688552000 -0.0745672 0.987112
2700550000 -0.0615176 0.98713
2712548000 -0.0498398 0.986697
2724546000 -0.0365007 0.987559
2736544000 -0.025458 0.993118
2748542000 -0.0135487 0.994895
2760540000 -0.00177296 0.997669
2772538000 0.00898404 1.00125
2784536000 0.0196597 1.00546
2796534000 0.0287971 1.00568
2808532000 0.0371629 1.00841
2820530000 0.0465425 1.0097
2832528000 0.0536722 1.00883
2844526000 0.0625461 1.00965
2856524000 0.0714586 1.00591
2868522000 0.079001 1.00355
2880520000 0.0851065 1.00014
2892518000 0.0934667 0.994717
2904516000 0.102085 0.993158
2916514000 0.109345 0.989674
2928512000 0.117655 0.985472
2940510000 0.121698 0.984364
2952508000 0.133291 0.978143
2964506000 0.143838 0.976117
2976504000 0.155381 0.972357
2988502000 0.167831 0.971634
3000500000 0.178242 0.97
3012498000 0.191776 0.972599
3024496000 0.195441 0.972049
3036494000 0.209729 0.971103
3048492000 0.220271 0.970545
3060490000 0.230022 0.969444
3072488000 0.237609 0.96803
3084486000 0.245203 0.966563
3096484000 0.255509 0.963861
3108482000 0.260895 0.962557
3120480000 0.267457 0.959266
3132478000 0.274543 0.954913
3144476000 0.284049 0.952179
3156474000 0.292708 0.95017
3168472000 0.298408 0.947413
3180470000 0.307467 0.94194
3192468000 0.316267 0.937679
3204466000 0.325783 0.931899
3216464000 0.335713 0.92743
3228462000 0.348052 0.921725
3240460000 0.358607 0.917924
3252458000 0.369836 0.914579
3264456000 0.379595 0.912344
3276454000 0.390075 0.908585
3288452000 0.400234 0.903884
3300450000 0.407589 0.898576
3312448000 0.420329 0.893274
3324446000 0.428687 0.886923
3336444000 0.439693 0.88314
3348442000 0.448538 0.876688
3360440000 0.45788 0.872128
3372438000 0.467753 0.865759
3384436000 0.477372 0.860866
3396434000 0.484598 0.851214
3408432000 0.494465 0.846076
3420430000 0.505563 0.840653
3432428000 0.512983 0.832287
3444426000 0.525256 0.826601
3456424000 0.538348 0.819088
3468422000 0.546973 0.81226
3480420000 0.557445 0.805422
3492418000 0.567682 0.79994
3504416000 0.577097 0.792713
3516414000 0.587492 0.784905
3528412000 0.597633 0.780491
3540410000 0.602892 0.775965
3552408000 0.611792 0.771365
3564406000 0.619624 0.767918
3576404000 0.623942 0.756337
3588402000 0.632957 0.754172
3600400000 0.639112 0.746209
3612398000 0.645898 0.739843
3624396000 0.652891 0.731561
3636394000 0.660715 0.724601
3648392000 0.666832 0.71841
3660390000 0.674248 0.710026
3672388000 0.682971 0.70244
3684386000 0.691532 0.692869
3696384000 0.698496 0.68556
3708382000 0.706022 0.676771
3720380000 0.713216 0.668695
3732378000 0.722528 0.656579
3744376000 0.727366 0.647401
3756374000 0.735914 0.63786
3768372000 0.743745 0.630242
3780370000 0.751259 0.61971
3792368000 0.756035 0.615943
3804366000 0.764241 0.606021
3816364000 0.768899 0.599506
3828362000 0.77398 0.592413
3840360000 0.777554 0.589042
3852358000 0.782947 0.580353
3864356000 0.786634 0.574399
3876354000 0.789034 0.568131
3888352000 0.793426 0.563515
3900350000 0.798226 0.556852
3912348000 0.801418 0.551235
3924346000 0.806778 0.545131
3936344000 0.809037 0.53945
3948342000 0.812047 0.532294
3960340000 0.811451 0.532275
3972338000 0.814209 0.521566
3984336000 0.822038 0.512272
3996334000 0.82568 0.504194
4008332000 0.831715 0.495756
4020330000 0.839084 0.484141
4032328000 0.843884 0.476879
4044326000 0.847553 0.468276
4056324000 0.853589 0.456811
4068322000 0.855499 0.44425
4080320000 0.859489 0.430838
4092318000 0.865564 0.41665
4104316000 0.870252 0.397292
4116314000 0.877236 0.376325
4128312000 0.885107 0.360944
4140310000 0.889144 0.343633
4152308000 0.895475 0.324226
4164306000 0.901946 0.307187
4176304000 0.906165 0.296211
4188302000 0.912959 0.284419
4200300000 0.918364 0.276384
4212298000 0.916322 0.271516
4224296000 0.917877 0.270544
4236294000 0.920207 0.263689
4248292000 0.919215 0.261312
4260290000 0.926293 0.257916
4272288000 0.927912 0.255477
4284286000 0.929613 0.250023
4296284000 0.929878 0.240326
4308282000 0.930934 0.226236
4320280000 0.930843 0.215347
4332278000 0.9328 0.203917
4344276000 0.931563 0.188258
4356274000 0.932712 0.175503
4368272000 0.925948 0.162403
4380270000 0.925516 0.14574
4392268000 0.921401 0.125127
4404266000 0.921299 0.10914
4416264000 0.920052 0.0868621
4428262000 0.92003 0.0671444
4440260000 0.920624 0.049544
4452258000 0.926627 0.0315326
4464256000 0.928039 0.0154745
4476254000 0.928728 -0.000174134
4488252000 0.931042 -0.0125573
4500250000 0.930026 -0.0217507
4512248000 0.930582 -0.0371696
4524246000 0.932894 -0.0464464
4536244000 0.933546 -0.0564862
4548242000 0.93032 -0.0669663
4560240000 0.930667 -0.0719587
4572238000 0.928834 -0.0787153
4584236000 0.924454 -0.0878029
4596234000 0.921581 -0.0927887
4608232000 0.915565 -0.105194
4620230000 0.904942 -0.115282
4632228000 0.898669 -0.132308
4644226000 0.889048 -0.149032
4656224000 0.87998 -0.167432
4668222000 0.871726 -0.183498
4680220000 0.860102 -0.203289
4692218000 0.857149 -0.223162
4704216000 0.844177 -0.241877
4716214000 0.835699 -0.257733
4728212000 0.824719 -0.275192
4740210000 0.81088 -0.293311
4752208000 0.799969 -0.312259
4764206000 0.789155 -0.329173
4776204000 0.778921 -0.345292
4788202000 0.770703 -0.360471
4800200000 0.757754 -0.376064
4812198000 0.750462 -0.392861
4824196000 0.74189 -0.406121
4836194000 0.72753 -0.413986
4848192000 0.714163 -0.427353
4860190000 0.70186 -0.434055
4872188000 0.684783 -0.440677
4884186000 0.660541 -0.453318
4896184000 0.641264 -0.460702
4908182000 0.623664 -0.47272
4920180000 0.594021 -0.478012
4932178000 0.570807 -0.490604
4944176000 0.541307 -0.495334
4956174000 0.514278 -0.504501
4968172000 0.479526 -0.505532
4980170000 0.444934 -0.509705
4992168000 0.412358 -0.509939
5004166000 0.378359 -0.511862
5016164000 0.340024 -0.512871
5028162000 0.306032 -0.510902
5040160000 0.269863 -0.503941
5052158000 0.234411 -0.498368
5064156000 0.199916 -0.484823
5076154000 0.169516 -0.471609
5088152000 0.136522 -0.457142
5100150000 0.107976 -0.432954
5112148000 0.0850695 -0.409387
5124146000 0.0577935 -0.384991
5136144000 0.0350318 -0.351454
5148142000 0.017144 -0.318796
5160140000 0.000720122 -0.277153
5172138000 -0.00558574 -0.238263
5184136000 -0.00940999 -0.193681
5196134000 -0.0143593 -0.146018
5208132000 -0.0110115 -0.0951584
5220130000 -0.0104084 -0.0499564
5232128000 -0.00636261 -0.00118377
5244126000 -0.00221455 0.0452746
5256124000 0.00815661 0.08679
5268122000 0.0199829 0.131469
5280120000 0.037486 0.166417
5292118000 0.058741 0.198623
5304116000 0.0911505 0.223662
5316114000 0.122348 0.242922
5328112000 0.158469 0.26176
5340110000 0.199814 0.276699
5352108000 0.229163 0.287304
5364106000 0.2685 0.300641
5376104000 0.305007 0.304154
5388102000 0.335583 0.309742
5400100000 0.367092 0.309642
5412098000 0.398683 0.311397
5424096000 0.428926 0.306521
5436094000 0.457969 0.302948
5448092000 0.483723 0.295861
5460090000 0.511401 0.288557
5472088000 0.537915 0.278449
5484086000 0.564173 0.267736
5496084000 0.589671 0.253855
5508082000 0.6139 0.239858
5520080000 0.635942 0.225324
5532078000 0.657945 0.213913
5544076000 0.676342 0.198155
5556074000 0.695974 0.183744
5568072000 0.710032 0.173962
5580070000 0.72689 0.161147
5592068000 0.738304 0.145348
5604066000 0.75596 0.133401
5616064000 0.75786 0.118886
5628062000 0.772458 0.107888
5640060000 0.774737 0.0977674
5652058000 0.784318 0.0805246
5664056000 0.790903 0.0623265
5676054000 0.796339 0.0492815
5688052000 0.799056 0.0310631
5700050000 0.804429 0.0152509
5712048000 0.80786 -9.54527e-05
5724046000 0.813127 -0.0170829
5736044000 0.819844 -0.0337228
5748042000 0.822826 -0.0491264
5760040000 0.824615 -0.0672755
5772038000 0.829811 -0.0839143
5784036000 0.835111 -0.0971901
5796034000 0.83881 -0.112479
5808032000 0.844219 -0.124901
5820030000 0.846848 -0.144831
5832028000 0.853739 -0.158424
5844026000 0.855526 -0.171609
5856024000 0.858304 -0.187588
5868022000 0.856597 -0.207781
5880020000 0.856441 -0.216018
5892018000 0.859333 -0.234077
5904016000 0.856449 -0.248978
5916014000 0.852602 -0.269935
5928012000 0.845772 -0.289504
5940010000 0.845408 -0.301851
5952008000 0.834799 -0.312506
5964006000 0.827975 -0.329292
5976004000 0.823079 -0.344481
5988002000 0.818012 -0.359644
6000000000 0.807743 -0.373765
