# Hz S RI R 50
1000000 0.989976 7.22469e-05
12998000 1.01507 -0.0585789
24996000 1.00997 -0.127857
36994000 0.99642 -0.193263
48992000 0.979363 -0.256372
60990000 0.958718 -0.316299
72988000 0.933554 -0.374887
84986000 0.905763 -0.431099
96984000 0.874707 -0.484675
108982000 0.841104 -0.536742
120980000 0.805833 -0.586013
132978000 0.768581 -0.632447
144976000 0.729782 -0.677148
156974000 0.689095 -0.719918
168972000 0.646972 -0.759176
180970000 0.604166 -0.795535
192968000 0.559802 -0.829132
204966000 0.514278 -0.860255
216964000 0.468502 -0.886937
228962000 0.421343 -0.910897
240960000 0.375464 -0.931183
252958000 0.328828 -0.947933
264956000 0.282314 -0.96135
276954000 0.235997 -0.97252
288952000 0.190965 -0.979764
300950000 0.146426 -0.985106
312948000 0.102429 -0.987677
324946000 0.0605743 -0.988371
336944000 0.0195511 -0.987209
348942000 -0.0203126 -0.985828
360940000 -0.0604772 -0.982317
372938000 -0.0991897 -0.979078
384936000 -0.136292 -0.975371
396934000 -0.173357 -0.970901
408932000 -0.209676 -0.966007
420930000 -0.244532 -0.960559
432928000 -0.280987 -0.952676
444926000 -0.314452 -0.944819
456924000 -0.346815 -0.93618
468922000 -0.378474 -0.926425
480920000 -0.408435 -0.915212
492918000 -0.437287 -0.901998
504916000 -0.465048 -0.888005
516914000 -0.49283 -0.873604
528912000 -0.517938 -0.857618
540910000 -0.542438 -0.840671
552908000 -0.565148 -0.82354
564906000 -0.587194 -0.805849
576904000 -0.60783 -0.78874
588902000 -0.627755 -0.771414
600900000 -0.646291 -0.753521
612898000 -0.66397 -0.737182
624896000 -0.681801 -0.720414
636894000 -0.699577 -0.703459
648892000 -0.716947 -0.687578
660890000 -0.733985 -0.671865
672888000 -0.750701 -0.65515
684886000 -0.767648 -0.639191
696884000 -0.783963 -0.621498
708882000 -0.799838 -0.604319
720880000 -0.815989 -0.587289
732878000 -0.829852 -0.56809
744876000 -0.843093 -0.549587
756874000 -0.855884 -0.530539
768872000 -0.867887 -0.510638
780870000 -0.878621 -0.490412
792868000 -0.888082 -0.470899
804866000 -0.896549 -0.451011
816864000 -0.905215 -0.432034
828862000 -0.913688 -0.414142
840860000 -0.919169 -0.395148
852858000 -0.92387 -0.378635
864856000 -0.931377 -0.359665
876854000 -0.936907 -0.342092
888852000 -0.943908 -0.325503
900850000 -0.949439 -0.308625
912848000 -0.954779 -0.292791
924846000 -0.960313 -0.276992
936844000 -0.965969 -0.261693
948842000 -0.972198 -0.247589
960840000 -0.978009 -0.233508
972838000 -0.98415 -0.218208
984836000 -0.989589 -0.201995
996834000 -0.993455 -0.186892
1008832000 -0.99685 -0.17205
1020830000 -1.00036 -0.156477
1032828000 -1.00302 -0.139479
1044826000 -1.00528 -0.123186
1056824000 -1.0072 -0.106932
1068822000 -1.00851 -0.0899738
1080820000 -1.00733 -0.071637
1092818000 -1.0086 -0.0546874
1104816000 -1.00827 -0.0374972
1116814000 -1.00722 -0.0220455
1128812000 -1.00795 -0.00664354
1140810000 -1.00602 0.00915788
1152808000 -1.00636 0.0222225
1164806000 -1.0063 0.0370096
1176804000 -1.00907 0.054031
1188802000 -1.00415 0.0689962
1200800000 -1.00278 0.0799027
1212798000 -1.00269 0.0915234
1224796000 -1.00203 0.103506
1236794000 -1.00148 0.116221
1248792000 -1.00041 0.126819
1260790000 -0.99994 0.138147
1272788000 -0.999315 0.148695
1284786000 -0.997325 0.160656
1296784000 -0.993095 0.171582
1308782000 -0.99036 0.185536
1320780000 -0.987473 0.198751
1332778000 -0.985183 0.212374
1344776000 -0.981904 0.226301
1356774000 -0.980085 0.241357
1368772000 -0.977137 0.253697
1380770000 -0.973246 0.268392
1392768000 -0.969392 0.283043
1404766000 -0.964461 0.299429
1416764000 -0.960045 0.314678
1428762000 -0.954296 0.329459
1440760000 -0.94807 0.343478
1452758000 -0.943387 0.356089
1464756000 -0.939704 0.368875
1476754000 -0.935515 0.38163
1488752000 -0.931086 0.392176
1500750000 -0.925165 0.404599
1512748000 -0.918656 0.412213
1524746000 -0.912551 0.42117
1536744000 -0.906553 0.43013
1548742000 -0.899732 0.4403
1560740000 -0.894695 0.449579
1572738000 -0.889201 0.460131
1584736000 -0.884823 0.470558
1596734000 -0.881133 0.48185
1608732000 -0.87665 0.493318
1620730000 -0.872365 0.503515
1632728000 -0.86751 0.514712
1644726000 -0.861654 0.526839
1656724000 -0.855519 0.536618
1668722000 -0.848381 0.547607
1680720000 -0.843206 0.559049
1692718000 -0.838823 0.568782
1704716000 -0.832553 0.577634
1716714000 -0.826629 0.584548
1728712000 -0.819579 0.594909
1740710000 -0.810826 0.605518
1752708000 -0.80193 0.616179
1764706000 -0.792346 0.623409
1776704000 -0.782581 0.631753
1788702000 -0.773147 0.638968
1800700000 -0.763586 0.646011
1812698000 -0.750927 0.655171
1824696000 -0.742748 0.663674
1836694000 -0.734851 0.67375
1848692000 -0.725235 0.683203
1860690000 -0.717657 0.692764
1872688000 -0.709087 0.70188
1884686000 -0.700715 0.71158
1896684000 -0.693659 0.720714
1908682000 -0.684294 0.732251
1920680000 -0.67804 0.742994
1932678000 -0.67025 0.753166
1944676000 -0.661782 0.762573
1956674000 -0.656529 0.772755
1968672000 -0.6512 0.779715
1980670000 -0.64621 0.786171
1992668000 -0.640494 0.790308
2004666000 -0.635103 0.794127
2016664000 -0.631111 0.798953
2028662000 -0.624565 0.800838
2040660000 -0.617633 0.80388
2052658000 -0.610323 0.805321
2064656000 -0.60224 0.806843
2076654000 -0.59189 0.811022
2088652000 -0.580613 0.813236
2100650000 -0.569891 0.816108
2112648000 -0.555073 0.822297
2124646000 -0.543216 0.830326
2136644000 -0.526918 0.83809
2148642000 -0.513985 0.846499
2160640000 -0.499727 0.855756
2172638000 -0.489385 0.866889
2184636000 -0.479609 0.878516
2196634000 -0.469628 0.889854
2208632000 -0.463887 0.901036
2220630000 -0.458732 0.90813
2232628000 -0.457112 0.916472
2244626000 -0.454533 0.920136
2256624000 -0.452906 0.923971
2268622000 -0.447327 0.926423
2280620000 -0.443561 0.927244
2292618000 -0.44268 0.92998
2304616000 -0.436684 0.930583
2316614000 -0.429449 0.92952
2328612000 -0.417826 0.929848
2340610000 -0.405481 0.929546
2352608000 -0.38937 0.930113
2364606000 -0.375012 0.930794
2376604000 -0.358096 0.931188
2388602000 -0.33874 0.933189
2400600000 -0.323103 0.938919
2412598000 -0.3064 0.94465
2424596000 -0.290811 0.948381
2436594000 -0.275268 0.953853
2448592000 -0.261434 0.959039
2460590000 -0.247933 0.966592
2472588000 -0.237176 0.974565
2484586000 -0.229284 0.980906
2496584000 -0.220593 0.988697
2508582000 -0.211908 0.99517
2520580000 -0.203424 0.998664
2532578000 -0.197513 1.00149
2544576000 -0.191163 1.00797
2556574000 -0.184046 1.01001
2568572000 -0.177229 1.01089
2580570000 -0.166875 1.01029
2592568000 -0.16066 1.00766
2604566000 -0.157231 1.00433
2616564000 -0.143204 1.00054
2628562000 -0.133735 0.999237
2640560000 -0.124022 0.993652
2652558000 -0.112364 0.991554
2664556000 -0.0989488 0.989021
2676554000 -0.088579 0.989129
2688552000 -0.0754708 0.986869
2700550000 -0.0630554 0.98697
2712548000 -0.0497698 0.985718
2724546000 -0.0369402 0.987346
2736544000 -0.026204 0.992153
2748542000 -0.0139936 0.994101
2760540000 -0.00244625 0.997493
2772538000 0.00870764 1.00073
2784536000 0.0189554 1.00426
2796534000 0.0288602 1.0063
2808532000 0.0372787 1.00796
2820530000 0.0465305 1.00829
2832528000 0.0533864 1.00881
2844526000 0.0633455 1.00975
2856524000 0.070312 1.00551
2868522000 0.078531 1.00335
2880520000 0.084768 0.999823
2892518000 0.093093 0.994246
2904516000 0.101912 0.992995
2916514000 0.109343 0.989571
2928512000 0.11732 0.985713
2940510000 0.121865 0.984156
2952508000 0.13147 0.978824
2964506000 0.144841 0.974677
2976504000 0.154218 0.973872
2988502000 0.166042 0.971994
3000500000 0.178845 0.971104
3012498000 0.190882 0.973199
3024496000 0.195387 0.971303
3036494000 0.208439 0.971548
3048492000 0.21972 0.970121
3060490000 0.229325 0.96959
3072488000 0.237251 0.967645
3084486000 0.246019 0.965987
3096484000 0.253829 0.96383
3108482000 0.26062 0.961871
3120480000 0.268597 0.961002
3132478000 0.27422 0.955074
3144476000 0.284636 0.950339
3156474000 0.292533 0.948576
3168472000 0.299354 0.945841
3180470000 0.306638 0.942157
3192468000 0.31588 0.937943
3204466000 0.325124 0.931938
3216464000 0.334996 0.927167
3228462000 0.346502 0.921154
3240460000 0.356907 0.917578
3252458000 0.369058 0.915109
3264456000 0.379615 0.912646
3276454000 0.388736 0.908957
3288452000 0.40016 0.902907
3300450000 0.406761 0.89692
3312448000 0.418999 0.89307
3324446000 0.427896 0.886679
3336444000 0.439493 0.883419
3348442000 0.447691 0.877572
3360440000 0.456647 0.87229
3372438000 0.465668 0.865375
3384436000 0.475082 0.860658
3396434000 0.484686 0.852555
3408432000 0.493004 0.84636
3420430000 0.504643 0.841279
3432428000 0.514559 0.835475
3444426000 0.526428 0.825978
3456424000 0.537588 0.818971
3468422000 0.545871 0.812736
3480420000 0.556641 0.806011
3492418000 0.567389 0.800388
3504416000 0.57558 0.793262
3516414000 0.586035 0.785882
3528412000 0.596756 0.782052
3540410000 0.603491 0.775994
3552408000 0.611202 0.771598
3564406000 0.619499 0.765945
3576404000 0.625152 0.759556
3588402000 0.63299 0.75582
3600400000 0.639831 0.746134
3612398000 0.645801 0.739622
3624396000 0.652439 0.731665
3636394000 0.660451 0.724439
3648392000 0.668565 0.717863
3660390000 0.675283 0.711263
3672388000 0.680543 0.702576
3684386000 0.690736 0.692256
3696384000 0.69748 0.684765
3708382000 0.707584 0.67867
3720380000 0.71483 0.667618
3732378000 0.720196 0.655685
3744376000 0.726983 0.649565
3756374000 0.73635 0.638696
3768372000 0.742929 0.631095
3780370000 0.751123 0.620906
3792368000 0.756262 0.616127
3804366000 0.764959 0.60736
3816364000 0.767621 0.599128
3828362000 0.773242 0.593701
3840360000 0.777326 0.591626
3852358000 0.781752 0.581504
3864356000 0.786333 0.573732
3876354000 0.787911 0.568402
3888352000 0.79303 0.563083
3900350000 0.797309 0.556772
3912348000 0.800925 0.551551
3924346000 0.805931 0.545523
3936344000 0.808587 0.539899
3948342000 0.81103 0.533584
3960340000 0.809408 0.530811
3972338000 0.814612 0.522833
3984336000 0.820995 0.510385
3996334000 0.827262 0.504319
4008332000 0.831593 0.496704
4020330000 0.839172 0.487867
4032328000 0.842779 0.478132
4044326000 0.847727 0.468068
4056324000 0.852866 0.45732
4068322000 0.855344 0.444738
4080320000 0.859611 0.43093
4092318000 0.865772 0.415746
4104316000 0.872452 0.397232
4116314000 0.876609 0.378122
4128312000 0.883141 0.361855
4140310000 0.889862 0.342414
4152308000 0.895738 0.325274
4164306000 0.903394 0.30794
4176304000 0.907717 0.295052
4188302000 0.913241 0.284531
4200300000 0.916464 0.277039
4212298000 0.916316 0.2717
4224296000 0.917212 0.270684
4236294000 0.91985 0.265119
4248292000 0.92334 0.264489
4260290000 0.930238 0.258162
4272288000 0.926296 0.255532
4284286000 0.927968 0.249315
4296284000 0.930549 0.240317
4308282000 0.932009 0.228617
4320280000 0.930476 0.216536
4332278000 0.931101 0.202533
4344276000 0.928916 0.19055
4356274000 0.930421 0.176821
4368272000 0.924762 0.162999
4380270000 0.925048 0.145806
4392268000 0.921522 0.125405
4404266000 0.921791 0.109414
4416264000 0.921627 0.0871722
4428262000 0.920068 0.0683301
4440260000 0.92176 0.0484876
4452258000 0.926257 0.0329628
4464256000 0.927664 0.0160123
4476254000 0.929956 0.00033057
4488252000 0.931105 -0.0116101
4500250000 0.92998 -0.021467
4512248000 0.930468 -0.0367292
4524246000 0.933112 -0.046063
4536244000 0.933665 -0.0558755
4548242000 0.932163 -0.0651203
4560240000 0.932265 -0.0703802
4572238000 0.927918 -0.0787587
4584236000 0.926118 -0.0878441
4596234000 0.920885 -0.0923229
4608232000 0.914693 -0.10356
4620230000 0.906246 -0.115411
4632228000 0.899823 -0.134215
4644226000 0.890689 -0.147512
4656224000 0.879992 -0.165704
4668222000 0.87217 -0.182519
4680220000 0.860115 -0.202402
4692218000 0.857754 -0.222404
4704216000 0.844246 -0.240901
4716214000 0.835475 -0.258013
4728212000 0.823981 -0.274591
4740210000 0.812554 -0.291637
4752208000 0.798468 -0.311254
4764206000 0.78887 -0.329323
4776204000 0.779037 -0.345076
4788202000 0.770834 -0.360051
4800200000 0.75807 -0.376138
4812198000 0.751334 -0.392537
4824196000 0.740181 -0.404419
4836194000 0.725162 -0.413945
4848192000 0.713954 -0.425374
4860190000 0.700009 -0.434715
4872188000 0.682575 -0.442212
4884186000 0.663364 -0.452245
4896184000 0.642051 -0.459071
4908182000 0.624415 -0.472668
4920180000 0.596765 -0.476949
4932178000 0.571669 -0.490104
4944176000 0.541725 -0.49516
4956174000 0.51493 -0.503847
4968172000 0.479626 -0.505031
4980170000 0.445634 -0.509962
4992168000 0.412236 -0.510324
5004166000 0.37676 -0.511462
5016164000 0.341016 -0.513071
5028162000 0.307255 -0.51072
5040160000 0.270494 -0.50351
5052158000 0.234846 -0.498432
5064156000 0.200316 -0.484895
5076154000 0.169575 -0.471772
5088152000 0.136308 -0.456611
5100150000 0.1073 -0.434655
5112148000 0.0862618 -0.410998
5124146000 0.0592663 -0.384055
5136144000 0.0350251 -0.352084
5148142000 0.0174235 -0.319277
5160140000 0.00102914 -0.277391
5172138000 -0.00508309 -0.238779
5184136000 -0.00937307 -0.194285
5196134000 -0.0135528 -0.145905
5208132000 -0.0115636 -0.0957236
5220130000 -0.0100655 -0.0503941
5232128000 -0.0064919 -0.00131206
5244126000 -0.0023518 0.0449891
5256124000 0.00788495 0.0866746
5268122000 0.0161836 0.135849
5280120000 0.0372124 0.166146
5292118000 0.0586249 0.198015
5304116000 0.0908421 0.222797
5316114000 0.121086 0.243792
5328112000 0.158613 0.262888
5340110000 0.197896 0.278459
5352108000 0.228934 0.288825
5364106000 0.268658 0.299945
5376104000 0.302994 0.304219
5388102000 0.336398 0.309905
5400100000 0.368851 0.309893
5412098000 0.396859 0.310212
5424096000 0.427942 0.306442
5436094000 0.457633 0.303206
5448092000 0.483419 0.296218
5460090000 0.511303 0.288285
5472088000 0.536877 0.278571
5484086000 0.563954 0.26769
5496084000 0.590127 0.253323
5508082000 0.615281 0.241008
5520080000 0.635368 0.226125
5532078000 0.657205 0.213349
5544076000 0.676693 0.198738
5556074000 0.695508 0.184328
5568072000 0.709046 0.175355
5580070000 0.726755 0.161699
5592068000 0.739821 0.146561
5604066000 0.754742 0.132903
5616064000 0.758195 0.121976
5628062000 0.773041 0.103615
5640060000 0.777714 0.0957957
5652058000 0.783506 0.0799016
5664056000 0.789054 0.0629002
5676054000 0.795429 0.0494078
5688052000 0.799098 0.0310848
5700050000 0.805279 0.016373
5712048000 0.808182 8.61631e-05
5724046000 0.813183 -0.0166835
5736044000 0.819765 -0.0329806
5748042000 0.82293 -0.049141
5760040000 0.825869 -0.065752
5772038000 0.829086 -0.08198
5784036000 0.834424 -0.0975164
5796034000 0.83936 -0.112477
5808032000 0.844512 -0.124017
5820030000 0.846268 -0.143778
5832028000 0.85365 -0.157216
5844026000 0.855446 -0.170876
5856024000 0.859545 -0.187148
5868022000 0.857225 -0.206863
5880020000 0.854496 -0.220353
5892018000 0.86035 -0.235404
5904016000 0.855228 -0.251696
5916014000 0.853462 -0.270409
5928012000 0.846298 -0.285308
5940010000 0.846514 -0.299139
5952008000 0.840533 -0.31216
5964006000 0.827204 -0.329986
5976004000 0.824623 -0.346222
5988002000 0.818159 -0.358863
6000000000 0.808731 -0.3734
