# Hz S RI R 50
1000000 0.991688 0.00355092
12998000 1.01492 -0.0589772
24996000 1.00951 -0.127783
36994000 0.996306 -0.193445
48992000 0.979106 -0.256554
60990000 0.958766 -0.316244
72988000 0.9334 -0.375174
84986000 0.905646 -0.431022
96984000 0.8746 -0.484658
108982000 0.84093 -0.536692
120980000 0.805651 -0.585916
132978000 0.768495 -0.632559
144976000 0.729625 -0.677112
156974000 0.689027 -0.720087
168972000 0.646926 -0.759299
180970000 0.603823 -0.79563
192968000 0.559451 -0.829127
204966000 0.514223 -0.860289
216964000 0.468109 -0.887064
228962000 0.421466 -0.910989
240960000 0.375108 -0.931249
252958000 0.328687 -0.947761
264956000 0.282524 -0.961522
276954000 0.236421 -0.972395
288952000 0.191225 -0.979808
300950000 0.145974 -0.984814
312948000 0.102222 -0.987715
324946000 0.0602696 -0.988335
336944000 0.0196254 -0.987373
348942000 -0.0206291 -0.985559
360940000 -0.0605508 -0.982253
372938000 -0.0990654 -0.97897
384936000 -0.136018 -0.975441
396934000 -0.172894 -0.970895
408932000 -0.209698 -0.966092
420930000 -0.244745 -0.960557
432928000 -0.280213 -0.953243
444926000 -0.313705 -0.944845
456924000 -0.346422 -0.936182
468922000 -0.378443 -0.92681
480920000 -0.408079 -0.91539
492918000 -0.437178 -0.901995
504916000 -0.465137 -0.888301
516914000 -0.492486 -0.873517
528912000 -0.517458 -0.857589
540910000 -0.542631 -0.840746
552908000 -0.565184 -0.823522
564906000 -0.586928 -0.806274
576904000 -0.607685 -0.789284
588902000 -0.627276 -0.771482
600900000 -0.64615 -0.753744
612898000 -0.663612 -0.737432
624896000 -0.681728 -0.720525
636894000 -0.699508 -0.703534
648892000 -0.716758 -0.68775
660890000 -0.733587 -0.671982
672888000 -0.750964 -0.65549
684886000 -0.767459 -0.639242
696884000 -0.784411 -0.621089
708882000 -0.799803 -0.604772
720880000 -0.815636 -0.587115
732878000 -0.829625 -0.567864
744876000 -0.843166 -0.549516
756874000 -0.85561 -0.530609
768872000 -0.868009 -0.5105
780870000 -0.878332 -0.490547
792868000 -0.887686 -0.470696
804866000 -0.895607 -0.451222
816864000 -0.904718 -0.431809
828862000 -0.912914 -0.41425
840860000 -0.919057 -0.395768
852858000 -0.924635 -0.377783
864856000 -0.930976 -0.360305
876854000 -0.936661 -0.342504
888852000 -0.94383 -0.325616
900850000 -0.949073 -0.308936
912848000 -0.954835 -0.292616
924846000 -0.960277 -0.277019
936844000 -0.965954 -0.261289
948842000 -0.972417 -0.246865
960840000 -0.977885 -0.233402
972838000 -0.983998 -0.218327
984836000 -0.98932 -0.201974
996834000 -0.993222 -0.186966
1008832000 -0.996512 -0.172012
1020830000 -1.00015 -0.156086
1032828000 -1.00291 -0.139606
1044826000 -1.00525 -0.123271
1056824000 -1.00718 -0.106789
1068822000 -1.00883 -0.0893635
1080820000 -1.00979 -0.0727932
1092818000 -1.00845 -0.0554621
1104816000 -1.00804 -0.038324
1116814000 -1.00801 -0.0224392
1128812000 -1.00817 -0.00694334
1140810000 -1.00658 0.00833453
1152808000 -1.00637 0.0230089
1164806000 -1.00638 0.0371313
1176804000 -1.00887 0.0536556
1188802000 -1.00404 0.0689281
1200800000 -1.00325 0.078752
1212798000 -1.00248 0.0916473
1224796000 -1.00189 0.103852
1236794000 -1.00204 0.115418
1248792000 -1.00084 0.12705
1260790000 -1.00011 0.13841
1272788000 -0.999309 0.149594
1284786000 -0.997062 0.161352
1296784000 -0.992686 0.172127
1308782000 -0.990155 0.185481
1320780000 -0.987424 0.198838
1332778000 -0.984913 0.212598
1344776000 -0.982268 0.226861
1356774000 -0.979785 0.241711
1368772000 -0.976466 0.253652
1380770000 -0.972888 0.268694
1392768000 -0.968606 0.283351
1404766000 -0.963732 0.298787
1416764000 -0.959332 0.314442
1428762000 -0.954521 0.328891
1440760000 -0.948869 0.342967
1452758000 -0.943433 0.355506
1464756000 -0.939684 0.368965
1476754000 -0.935581 0.381504
1488752000 -0.930549 0.392464
1500750000 -0.925193 0.404772
1512748000 -0.918256 0.412091
1524746000 -0.913286 0.420926
1536744000 -0.905659 0.430728
1548742000 -0.90023 0.440949
1560740000 -0.894147 0.449369
1572738000 -0.88894 0.460521
1584736000 -0.884995 0.470505
1596734000 -0.881122 0.481556
1608732000 -0.876761 0.492991
1620730000 -0.872374 0.503345
1632728000 -0.868358 0.513939
1644726000 -0.862596 0.525864
1656724000 -0.855662 0.536313
1668722000 -0.849728 0.546372
1680720000 -0.843343 0.558973
1692718000 -0.838441 0.568063
1704716000 -0.832784 0.576967
1716714000 -0.826181 0.584332
1728712000 -0.82012 0.594742
1740710000 -0.811109 0.605639
1752708000 -0.802032 0.615758
1764706000 -0.792217 0.623135
1776704000 -0.783028 0.631468
1788702000 -0.773253 0.638678
1800700000 -0.763263 0.647798
1812698000 -0.750582 0.654851
1824696000 -0.742469 0.664608
1836694000 -0.734667 0.673186
1848692000 -0.725898 0.682143
1860690000 -0.717523 0.691373
1872688000 -0.709302 0.70153
1884686000 -0.700523 0.711034
1896684000 -0.693439 0.720722
1908682000 -0.684198 0.732345
1920680000 -0.677866 0.743445
1932678000 -0.670135 0.752767
1944676000 -0.66147 0.760923
1956674000 -0.656043 0.77133
1968672000 -0.651715 0.779589
1980670000 -0.644567 0.786892
1992668000 -0.641265 0.788809
2004666000 -0.635993 0.796919
2016664000 -0.630997 0.798508
2028662000 -0.624613 0.800521
2040660000 -0.618644 0.803511
2052658000 -0.611104 0.805253
2064656000 -0.602653 0.806555
2076654000 -0.591841 0.811038
2088652000 -0.580579 0.813248
2100650000 -0.569884 0.814859
2112648000 -0.555808 0.821691
2124646000 -0.541573 0.829723
2136644000 -0.526995 0.838586
2148642000 -0.513667 0.846722
2160640000 -0.500632 0.856956
2172638000 -0.49002 0.867284
2184636000 -0.47959 0.878541
2196634000 -0.46998 0.889438
2208632000 -0.46349 0.901065
2220630000 -0.458903 0.907962
2232628000 -0.455089 0.915267
2244626000 -0.455156 0.920492
2256624000 -0.450646 0.923836
2268622000 -0.446859 0.925418
2280620000 -0.445182 0.927649
2292618000 -0.441887 0.930606
2304616000 -0.436801 0.92999
2316614000 -0.429649 0.930006
2328612000 -0.418369 0.92958
2340610000 -0.40591 0.929137
2352608000 -0.390088 0.929704
2364606000 -0.373963 0.93071
2376604000 -0.357294 0.930743
2388602000 -0.340795 0.932927
2400600000 -0.322346 0.938344
2412598000 -0.30668 0.942155
2424596000 -0.290011 0.948772
2436594000 -0.27511 0.954764
2448592000 -0.261648 0.958483
2460590000 -0.247988 0.966388
2472588000 -0.237554 0.974589
2484586000 -0.229695 0.980745
2496584000 -0.221807 0.98818
2508582000 -0.211153 0.994425
2520580000 -0.206495 0.999235
2532578000 -0.197069 1.00149
2544576000 -0.192056 1.00549
2556574000 -0.184587 1.00764
2568572000 -0.176825 1.0105
2580570000 -0.167643 1.00949
2592568000 -0.160716 1.00815
2604566000 -0.150027 1.00484
2616564000 -0.142213 1.00075
2628562000 -0.131463 0.999276
2640560000 -0.121775 0.99349
2652558000 -0.111613 0.992994
2664556000 -0.0989981 0.991703
2676554000 -0.0880733 0.988095
2688552000 -0.0758345 0.988713
2700550000 -0.063584 0.986264
2712548000 -0.0498868 0.985882
2724546000 -0.0354154 0.988096
2736544000 -0.0259937 0.992508
2748542000 -0.0137852 0.995212
2760540000 -0.00243553 0.997416
2772538000 0.00865702 1.00082
2784536000 0.0194524 1.00463
2796534000 0.0296774 1.00542
2808532000 0.0358311 1.00788
2820530000 0.0444998 1.00855
2832528000 0.0535603 1.0102
2844526000 0.0638919 1.00959
2856524000 0.0699503 1.00604
2868522000 0.0775163 1.00304
2880520000 0.0864258 0.999629
2892518000 0.0938458 0.994287
2904516000 0.102132 0.992846
2916514000 0.109354 0.98916
2928512000 0.118074 0.985145
2940510000 0.120997 0.983642
2952508000 0.132991 0.977528
2964506000 0.144048 0.975669
2976504000 0.153003 0.971983
2988502000 0.166872 0.973653
3000500000 0.176041 0.970537
3012498000 0.190282 0.971939
3024496000 0.196559 0.972159
3036494000 0.20964 0.970504
3048492000 0.219956 0.970293
3060490000 0.229688 0.969527
3072488000 0.23617 0.967936
3084486000 0.246226 0.966913
3096484000 0.253553 0.965061
3108482000 0.25907 0.962681
3120480000 0.268329 0.96085
3132478000 0.273723 0.954554
3144476000 0.284775 0.951602
3156474000 0.290903 0.950237
3168472000 0.297678 0.945818
3180470000 0.306748 0.941901
3192468000 0.315896 0.93782
3204466000 0.325312 0.931835
3216464000 0.334788 0.927461
3228462000 0.346216 0.92275
3240460000 0.357071 0.91817
3252458000 0.370439 0.914503
3264456000 0.380663 0.911431
3276454000 0.388993 0.908553
3288452000 0.400679 0.903256
3300450000 0.406513 0.898253
3312448000 0.419406 0.893034
3324446000 0.428311 0.886236
3336444000 0.439233 0.882999
3348442000 0.447505 0.87696
3360440000 0.457118 0.872825
3372438000 0.466846 0.864915
3384436000 0.47606 0.861921
3396434000 0.483647 0.852314
3408432000 0.495541 0.845313
3420430000 0.505628 0.841232
3432428000 0.51483 0.833853
3444426000 0.528714 0.82508
3456424000 0.536893 0.82063
3468422000 0.546027 0.813307
3480420000 0.55636 0.805774
3492418000 0.566929 0.799842
3504416000 0.578013 0.793529
3516414000 0.585842 0.785584
3528412000 0.596258 0.781938
3540410000 0.602657 0.775848
3552408000 0.610088 0.772364
3564406000 0.623 0.767976
3576404000 0.625268 0.758576
3588402000 0.63206 0.753915
3600400000 0.638475 0.74699
3612398000 0.645607 0.739402
3624396000 0.652621 0.731605
3636394000 0.660316 0.724954
3648392000 0.666664 0.717989
3660390000 0.673081 0.711141
3672388000 0.680638 0.704578
3684386000 0.689681 0.69343
3696384000 0.697817 0.686412
3708382000 0.704693 0.67469
3720380000 0.713911 0.667189
3732378000 0.720683 0.657264
3744376000 0.727624 0.64956
3756374000 0.736503 0.640389
3768372000 0.743298 0.630742
3780370000 0.751041 0.620121
3792368000 0.75603 0.615023
3804366000 0.764677 0.607893
3816364000 0.767929 0.598482
3828362000 0.773119 0.592562
3840360000 0.778625 0.59167
3852358000 0.782912 0.580841
3864356000 0.787114 0.575617
3876354000 0.788715 0.569732
3888352000 0.793534 0.562969
3900350000 0.79695 0.557495
3912348000 0.801252 0.551264
3924346000 0.806509 0.545316
3936344000 0.809336 0.538915
3948342000 0.811974 0.533232
3960340000 0.809884 0.530092
3972338000 0.815901 0.523856
3984336000 0.820779 0.509992
3996334000 0.82631 0.504064
4008332000 0.830823 0.495369
4020330000 0.838506 0.48553
4032328000 0.843562 0.476426
4044326000 0.84827 0.467681
4056324000 0.852736 0.45664
4068322000 0.855302 0.444309
4080320000 0.859515 0.430419
4092318000 0.865222 0.415533
4104316000 0.872236 0.396663
4116314000 0.87608 0.377374
4128312000 0.881578 0.36108
4140310000 0.890537 0.341386
4152308000 0.894245 0.325432
4164306000 0.901999 0.308892
4176304000 0.907203 0.295775
4188302000 0.91357 0.284364
4200300000 0.91755 0.278629
4212298000 0.91647 0.271778
4224296000 0.917204 0.271131
4236294000 0.920709 0.26403
4248292000 0.92202 0.266559
4260290000 0.927761 0.25719
4272288000 0.926563 0.255391
4284286000 0.9281 0.246139
4296284000 0.930357 0.242352
4308282000 0.928977 0.230939
4320280000 0.932839 0.2169
4332278000 0.932856 0.201981
4344276000 0.927946 0.188784
4356274000 0.929703 0.175576
4368272000 0.924888 0.162974
4380270000 0.925025 0.146034
4392268000 0.920901 0.125179
4404266000 0.920985 0.109658
4416264000 0.919815 0.0868854
4428262000 0.919875 0.0680854
4440260000 0.920954 0.0502034
4452258000 0.926346 0.0326516
4464256000 0.927875 0.0166207
4476254000 0.928672 0.000842376
4488252000 0.931708 -0.0118245
4500250000 0.930546 -0.0212469
4512248000 0.930527 -0.0366886
4524246000 0.931961 -0.0458973
4536244000 0.932463 -0.0560853
4548242000 0.930324 -0.0673879
4560240000 0.932463 -0.0691116
4572238000 0.927896 -0.0773463
4584236000 0.923842 -0.0869404
4596234000 0.918616 -0.0955434
4608232000 0.914681 -0.103649
4620230000 0.907086 -0.11423
4632228000 0.899866 -0.132366
4644226000 0.890578 -0.148878
4656224000 0.87864 -0.167017
4668222000 0.871687 -0.182885
4680220000 0.860238 -0.202591
4692218000 0.857091 -0.221955
4704216000 0.843648 -0.240772
4716214000 0.834664 -0.258484
4728212000 0.821401 -0.274611
4740210000 0.812534 -0.29106
4752208000 0.799969 -0.311913
4764206000 0.789749 -0.328895
4776204000 0.779169 -0.344754
4788202000 0.770838 -0.359936
4800200000 0.757764 -0.375701
4812198000 0.75073 -0.391519
4824196000 0.739326 -0.405337
4836194000 0.728123 -0.413936
4848192000 0.714499 -0.42667
4860190000 0.699542 -0.433314
4872188000 0.685673 -0.441942
4884186000 0.662115 -0.452326
4896184000 0.643474 -0.45895
4908182000 0.623116 -0.471608
4920180000 0.596411 -0.477432
4932178000 0.570918 -0.490598
4944176000 0.541544 -0.495389
4956174000 0.514508 -0.503747
4968172000 0.478102 -0.504942
4980170000 0.445783 -0.508221
4992168000 0.412829 -0.511134
5004166000 0.377656 -0.512053
5016164000 0.341273 -0.511875
5028162000 0.30688 -0.510749
5040160000 0.26995 -0.50362
5052158000 0.235159 -0.498365
5064156000 0.200618 -0.484795
5076154000 0.170408 -0.472022
5088152000 0.136629 -0.456678
5100150000 0.107231 -0.434126
5112148000 0.0857184 -0.410874
5124146000 0.0587761 -0.384669
5136144000 0.0357122 -0.351528
5148142000 0.0175284 -0.318915
5160140000 0.0010024 -0.277255
5172138000 -0.00513255 -0.238844
5184136000 -0.00959933 -0.19431
5196134000 -0.0140617 -0.145873
5208132000 -0.0112644 -0.0956898
5220130000 -0.00995825 -0.0505356
5232128000 -0.00655046 -0.00145244
5244126000 -0.00252518 0.0448777
5256124000 0.0078599 0.086556
5268122000 0.0195543 0.131123
5280120000 0.0369242 0.166094
5292118000 0.0582994 0.198163
5304116000 0.0903456 0.22337
5316114000 0.120974 0.243246
5328112000 0.157976 0.260813
5340110000 0.199289 0.277316
5352108000 0.228397 0.289067
5364106000 0.267675 0.300541
5376104000 0.302353 0.305946
5388102000 0.335865 0.310449
5400100000 0.367996 0.310562
5412098000 0.39765 0.310933
5424096000 0.427573 0.307017
5436094000 0.45727 0.303488
5448092000 0.483193 0.296564
5460090000 0.511076 0.289563
5472088000 0.537456 0.279148
5484086000 0.563032 0.268194
5496084000 0.589552 0.255031
5508082000 0.613426 0.241949
5520080000 0.63495 0.225402
5532078000 0.657529 0.214551
5544076000 0.676131 0.19879
5556074000 0.695457 0.184171
5568072000 0.709047 0.175644
5580070000 0.725135 0.161897
5592068000 0.739354 0.147356
5604066000 0.754613 0.134755
5616064000 0.759364 0.118986
5628062000 0.774063 0.106749
5640060000 0.777879 0.0945359
5652058000 0.783696 0.0812408
5664056000 0.788512 0.066371
5676054000 0.798842 0.0502665
5688052000 0.796695 0.032025
5700050000 0.804265 0.0171327
5712048000 0.808144 0.000821394
5724046000 0.813234 -0.016517
5736044000 0.819073 -0.0331676
5748042000 0.823636 -0.0483243
5760040000 0.825071 -0.0664713
5772038000 0.828448 -0.0818529
5784036000 0.835339 -0.0977125
5796034000 0.838387 -0.113041
5808032000 0.844189 -0.1242
5820030000 0.846938 -0.144007
5832028000 0.853663 -0.157047
5844026000 0.85571 -0.170473
5856024000 0.858145 -0.187535
5868022000 0.858054 -0.207928
5880020000 0.852463 -0.214402
5892018000 0.859305 -0.229769
5904016000 0.856336 -0.249903
5916014000 0.854772 -0.265396
5928012000 0.845923 -0.285724
5940010000 0.84491 -0.300311
5952008000 0.839437 -0.314283
5964006000 0.830046 -0.326492
5976004000 0.826509 -0.343448
5988002000 0.818477 -0.359735
6000000000 0.808394 -0.372836
