# Hz S RI R 50
1000000 0.990085 0.00238158
12998000 1.0154 -0.0586048
24996000 1.01022 -0.127549
36994000 0.996656 -0.193342
48992000 0.979333 -0.256649
60990000 0.958882 -0.316252
72988000 0.933877 -0.375019
84986000 0.905944 -0.430813
96984000 0.87484 -0.48464
108982000 0.841212 -0.536572
120980000 0.805952 -0.585824
132978000 0.768961 -0.632221
144976000 0.730017 -0.677066
156974000 0.689012 -0.719996
168972000 0.647161 -0.759441
180970000 0.604291 -0.796062
192968000 0.560019 -0.829063
204966000 0.514706 -0.860102
216964000 0.468354 -0.887334
228962000 0.421612 -0.911357
240960000 0.37533 -0.931522
252958000 0.32901 -0.94818
264956000 0.282658 -0.961799
276954000 0.236389 -0.972708
288952000 0.191498 -0.980011
300950000 0.146344 -0.985165
312948000 0.102641 -0.987853
324946000 0.060752 -0.988599
336944000 0.0198131 -0.987584
348942000 -0.0200955 -0.985906
360940000 -0.0603427 -0.982382
372938000 -0.0990248 -0.979075
384936000 -0.136288 -0.975379
396934000 -0.172833 -0.970999
408932000 -0.209551 -0.9664
420930000 -0.244704 -0.96082
432928000 -0.280624 -0.953415
444926000 -0.313968 -0.945026
456924000 -0.346636 -0.936285
468922000 -0.37872 -0.92677
480920000 -0.408412 -0.915344
492918000 -0.437126 -0.902414
504916000 -0.464684 -0.888359
516914000 -0.492459 -0.874172
528912000 -0.517345 -0.857738
540910000 -0.542523 -0.840989
552908000 -0.565128 -0.823654
564906000 -0.58764 -0.806743
576904000 -0.608584 -0.788967
588902000 -0.627619 -0.771783
600900000 -0.646328 -0.754683
612898000 -0.663688 -0.737284
624896000 -0.681877 -0.720526
636894000 -0.699761 -0.703702
648892000 -0.716948 -0.687978
660890000 -0.734041 -0.671874
672888000 -0.750646 -0.655586
684886000 -0.767509 -0.639561
696884000 -0.783672 -0.621818
708882000 -0.800142 -0.605431
720880000 -0.816059 -0.587274
732878000 -0.82957 -0.568296
744876000 -0.843033 -0.550015
756874000 -0.85593 -0.531006
768872000 -0.868165 -0.510708
780870000 -0.878493 -0.491019
792868000 -0.887955 -0.471376
804866000 -0.8963 -0.45163
816864000 -0.905398 -0.432191
828862000 -0.912863 -0.413943
840860000 -0.919133 -0.396008
852858000 -0.924302 -0.37876
864856000 -0.931156 -0.360406
876854000 -0.937207 -0.342581
888852000 -0.944065 -0.326279
900850000 -0.949419 -0.308828
912848000 -0.954867 -0.293056
924846000 -0.96063 -0.277371
936844000 -0.966097 -0.261298
948842000 -0.972694 -0.247505
960840000 -0.978341 -0.233682
972838000 -0.984627 -0.219035
984836000 -0.989769 -0.202431
996834000 -0.993906 -0.187309
1008832000 -0.996708 -0.171978
1020830000 -1.00051 -0.156418
1032828000 -1.00301 -0.140069
1044826000 -1.00555 -0.123775
1056824000 -1.00731 -0.107275
1068822000 -1.00912 -0.0896758
1080820000 -1.00933 -0.0733387
1092818000 -1.00926 -0.0553535
1104816000 -1.00854 -0.0386501
1116814000 -1.00785 -0.0226532
1128812000 -1.00752 -0.00734939
1140810000 -1.00645 0.00866351
1152808000 -1.00684 0.0225891
1164806000 -1.00662 0.037033
1176804000 -1.00928 0.0533666
1188802000 -1.00432 0.0686554
1200800000 -1.0034 0.0788072
1212798000 -1.00277 0.0916974
1224796000 -1.00242 0.10377
1236794000 -1.00164 0.115351
1248792000 -1.00106 0.126952
1260790000 -1.00093 0.137964
1272788000 -0.999392 0.149906
1284786000 -0.996724 0.160536
1296784000 -0.99257 0.17274
1308782000 -0.990313 0.185327
1320780000 -0.987729 0.198874
1332778000 -0.985109 0.212576
1344776000 -0.982197 0.22646
1356774000 -0.979678 0.242017
1368772000 -0.977044 0.253776
1380770000 -0.973852 0.269109
1392768000 -0.969049 0.283993
1404766000 -0.964716 0.299332
1416764000 -0.960013 0.315167
1428762000 -0.953718 0.329251
1440760000 -0.948907 0.342973
1452758000 -0.94406 0.356086
1464756000 -0.940128 0.368435
1476754000 -0.935682 0.38158
1488752000 -0.930962 0.39254
1500750000 -0.925568 0.402927
1512748000 -0.918691 0.412033
1524746000 -0.912572 0.420947
1536744000 -0.907194 0.430838
1548742000 -0.900313 0.440053
1560740000 -0.894716 0.449485
1572738000 -0.889151 0.460016
1584736000 -0.884841 0.470443
1596734000 -0.881134 0.481509
1608732000 -0.877008 0.492976
1620730000 -0.872627 0.50315
1632728000 -0.868211 0.514219
1644726000 -0.862227 0.525714
1656724000 -0.855743 0.535897
1668722000 -0.849944 0.546988
1680720000 -0.844226 0.558559
1692718000 -0.839705 0.567306
1704716000 -0.833801 0.576176
1716714000 -0.826115 0.583938
1728712000 -0.822066 0.594994
1740710000 -0.812266 0.605028
1752708000 -0.802615 0.615429
1764706000 -0.792807 0.623159
1776704000 -0.783474 0.631511
1788702000 -0.773883 0.638377
1800700000 -0.763231 0.64641
1812698000 -0.751265 0.655521
1824696000 -0.743098 0.663484
1836694000 -0.734913 0.672136
1848692000 -0.727096 0.683221
1860690000 -0.717942 0.691824
1872688000 -0.709075 0.701447
1884686000 -0.700693 0.711499
1896684000 -0.69366 0.720851
1908682000 -0.684348 0.732426
1920680000 -0.677911 0.743539
1932678000 -0.671145 0.753665
1944676000 -0.661451 0.762943
1956674000 -0.656766 0.770759
1968672000 -0.651743 0.781327
1980670000 -0.645857 0.786012
1992668000 -0.640324 0.790383
2004666000 -0.635833 0.793822
2016664000 -0.632295 0.798508
2028662000 -0.625937 0.800599
2040660000 -0.619807 0.803755
2052658000 -0.611368 0.805056
2064656000 -0.603079 0.806774
2076654000 -0.592768 0.810833
2088652000 -0.582366 0.812817
2100650000 -0.569747 0.814253
2112648000 -0.555819 0.821819
2124646000 -0.542887 0.829284
2136644000 -0.527919 0.837225
2148642000 -0.513962 0.847083
2160640000 -0.500071 0.855806
2172638000 -0.490673 0.866685
2184636000 -0.480005 0.878471
2196634000 -0.470389 0.889538
2208632000 -0.464432 0.901841
2220630000 -0.459332 0.908191
2232628000 -0.456815 0.914213
2244626000 -0.454414 0.921275
2256624000 -0.452725 0.923605
2268622000 -0.448056 0.926609
2280620000 -0.445331 0.927703
2292618000 -0.442619 0.930625
2304616000 -0.437338 0.929872
2316614000 -0.431112 0.930209
2328612000 -0.419507 0.929375
2340610000 -0.406529 0.928842
2352608000 -0.390233 0.93042
2364606000 -0.374024 0.930367
2376604000 -0.358901 0.93159
2388602000 -0.340114 0.934123
2400600000 -0.323274 0.937959
2412598000 -0.307604 0.942861
2424596000 -0.291069 0.948259
2436594000 -0.275706 0.954259
2448592000 -0.262691 0.958703
2460590000 -0.248674 0.966589
2472588000 -0.237855 0.974603
2484586000 -0.230213 0.981021
2496584000 -0.222826 0.988239
2508582000 -0.213311 0.993765
2520580000 -0.205491 1.00091
2532578000 -0.198125 1.00333
2544576000 -0.192073 1.00705
2556574000 -0.184339 1.00912
2568572000 -0.177452 1.01147
2580570000 -0.168253 1.01027
2592568000 -0.161233 1.00828
2604566000 -0.158029 1.00503
2616564000 -0.144193 1.00155
2628562000 -0.133955 0.999775
2640560000 -0.125972 0.995551
2652558000 -0.113486 0.991834
2664556000 -0.09999 0.989489
2676554000 -0.0880037 0.989456
2688552000 -0.0774428 0.988644
2700550000 -0.0637087 0.986876
2712548000 -0.0514849 0.986334
2724546000 -0.03611 0.987396
2736544000 -0.0264053 0.992538
2748542000 -0.0140895 0.99499
2760540000 -0.00280165 0.997622
2772538000 0.00805085 1.00113
2784536000 0.01836 1.00428
2796534000 0.0276904 1.00617
2808532000 0.0364967 1.00902
2820530000 0.0453865 1.00779
2832528000 0.0537379 1.00922
2844526000 0.0614192 1.00931
2856524000 0.070177 1.0055
2868522000 0.0781997 1.00389
2880520000 0.085619 0.999945
2892518000 0.092995 0.994673
2904516000 0.100828 0.993598
2916514000 0.109255 0.9901
2928512000 0.11677 0.985811
2940510000 0.120902 0.984449
2952508000 0.131247 0.979212
2964506000 0.143 0.976823
2976504000 0.153322 0.972989
2988502000 0.166272 0.974446
3000500000 0.175232 0.972341
3012498000 0.189517 0.973628
3024496000 0.194214 0.972073
3036494000 0.207337 0.971428
3048492000 0.218844 0.970701
3060490000 0.228501 0.969939
3072488000 0.235969 0.968872
3084486000 0.245205 0.967295
3096484000 0.253369 0.964603
3108482000 0.25955 0.963093
3120480000 0.268252 0.961405
3132478000 0.273266 0.957239
3144476000 0.283345 0.952585
3156474000 0.290326 0.951237
3168472000 0.297618 0.9468
3180470000 0.306476 0.943105
3192468000 0.315207 0.938419
3204466000 0.324738 0.932759
3216464000 0.334126 0.928606
3228462000 0.346707 0.923075
3240460000 0.357383 0.918157
3252458000 0.369343 0.915568
3264456000 0.379762 0.913157
3276454000 0.388548 0.909748
3288452000 0.399658 0.902444
3300450000 0.406142 0.897019
3312448000 0.41988 0.893776
3324446000 0.427492 0.887378
3336444000 0.438654 0.884137
3348442000 0.447688 0.877814
3360440000 0.457143 0.872588
3372438000 0.465347 0.866606
3384436000 0.475122 0.861592
3396434000 0.484013 0.851431
3408432000 0.49265 0.847154
3420430000 0.503478 0.841041
3432428000 0.513996 0.835467
3444426000 0.528284 0.827281
3456424000 0.536503 0.819904
3468422000 0.545109 0.813738
3480420000 0.556515 0.80683
3492418000 0.567122 0.801477
3504416000 0.577455 0.794946
3516414000 0.586852 0.786342
3528412000 0.594767 0.783757
3540410000 0.605414 0.778708
3552408000 0.611164 0.771367
3564406000 0.620031 0.767665
3576404000 0.62416 0.756044
3588402000 0.632858 0.755664
3600400000 0.639058 0.746432
3612398000 0.644791 0.74007
3624396000 0.652153 0.732574
3636394000 0.660334 0.725497
3648392000 0.667563 0.718389
3660390000 0.672804 0.712555
3672388000 0.682397 0.703532
3684386000 0.68914 0.694162
3696384000 0.697919 0.685221
3708382000 0.704791 0.678224
3720380000 0.713787 0.666936
3732378000 0.721162 0.659949
3744376000 0.726874 0.649786
3756374000 0.736154 0.640854
3768372000 0.743511 0.631876
3780370000 0.751091 0.620943
3792368000 0.756083 0.616654
3804366000 0.763056 0.608336
3816364000 0.768849 0.599488
3828362000 0.775179 0.593745
3840360000 0.778438 0.591903
3852358000 0.782453 0.582767
3864356000 0.784204 0.575184
3876354000 0.789011 0.570598
3888352000 0.793579 0.563563
3900350000 0.796771 0.558501
3912348000 0.801163 0.551784
3924346000 0.806256 0.546102
3936344000 0.808719 0.540398
3948342000 0.811039 0.534611
3960340000 0.81047 0.531298
3972338000 0.815441 0.523634
3984336000 0.821741 0.512595
3996334000 0.826405 0.504716
4008332000 0.832298 0.495638
4020330000 0.837016 0.488347
4032328000 0.842831 0.478258
4044326000 0.848181 0.468824
4056324000 0.853193 0.45742
4068322000 0.855628 0.444814
4080320000 0.859797 0.431231
4092318000 0.865389 0.416388
4104316000 0.871239 0.397792
4116314000 0.876594 0.379783
4128312000 0.882919 0.362135
4140310000 0.889822 0.342116
4152308000 0.89526 0.326225
4164306000 0.900966 0.309133
4176304000 0.908916 0.296849
4188302000 0.912412 0.284313
4200300000 0.916655 0.278812
4212298000 0.916396 0.272218
4224296000 0.917997 0.270962
4236294000 0.921086 0.264382
4248292000 0.920657 0.267668
4260290000 0.924954 0.25581
4272288000 0.9252 0.254115
4284286000 0.926172 0.249737
4296284000 0.92738 0.24322
4308282000 0.929637 0.232565
4320280000 0.93366 0.213854
4332278000 0.93338 0.202598
4344276000 0.928461 0.190965
4356274000 0.929724 0.1769
4368272000 0.925547 0.164338
4380270000 0.925168 0.146555
4392268000 0.921713 0.125768
4404266000 0.92154 0.109927
4416264000 0.920149 0.0880772
4428262000 0.92061 0.0688845
4440260000 0.921995 0.0495464
4452258000 0.925186 0.0339023
4464256000 0.927422 0.0167558
4476254000 0.93057 0.000722022
4488252000 0.930831 -0.0109443
4500250000 0.931211 -0.0208052
4512248000 0.930773 -0.036036
4524246000 0.933448 -0.0452687
4536244000 0.934811 -0.0541334
4548242000 0.931611 -0.0645668
4560240000 0.931479 -0.0703962
4572238000 0.928106 -0.0754614
4584236000 0.92684 -0.0852445
4596234000 0.920968 -0.0927972
4608232000 0.914087 -0.103234
4620230000 0.906545 -0.115696
4632228000 0.900594 -0.132899
4644226000 0.890652 -0.148274
4656224000 0.880386 -0.166743
4668222000 0.872611 -0.182368
4680220000 0.860926 -0.20236
4692218000 0.858251 -0.221782
4704216000 0.844661 -0.239835
4716214000 0.835933 -0.258755
4728212000 0.825496 -0.275172
4740210000 0.814295 -0.293376
4752208000 0.799485 -0.311225
4764206000 0.789863 -0.329244
4776204000 0.779027 -0.344945
4788202000 0.771557 -0.359847
4800200000 0.758395 -0.376023
4812198000 0.750844 -0.392201
4824196000 0.74164 -0.403824
4836194000 0.726619 -0.413142
4848192000 0.715942 -0.425825
4860190000 0.702236 -0.431813
4872188000 0.685527 -0.44165
4884186000 0.664784 -0.452791
4896184000 0.642533 -0.461683
4908182000 0.624311 -0.471959
4920180000 0.597394 -0.477705
4932178000 0.571712 -0.489896
4944176000 0.542265 -0.49493
4956174000 0.515051 -0.504254
4968172000 0.479627 -0.505404
4980170000 0.446207 -0.509039
4992168000 0.411557 -0.50899
5004166000 0.377702 -0.51154
5016164000 0.340361 -0.513443
5028162000 0.306897 -0.510729
5040160000 0.27065 -0.503475
5052158000 0.235148 -0.498445
5064156000 0.20083 -0.484923
5076154000 0.169843 -0.471762
5088152000 0.137487 -0.457226
5100150000 0.107928 -0.433919
5112148000 0.0859604 -0.410663
5124146000 0.0590735 -0.385361
5136144000 0.0361523 -0.351681
5148142000 0.0180895 -0.319338
5160140000 0.00137416 -0.277663
5172138000 -0.00474016 -0.238688
5184136000 -0.00949334 -0.194305
5196134000 -0.0140269 -0.145895
5208132000 -0.0109704 -0.0956718
5220130000 -0.0101124 -0.0502849
5232128000 -0.00650512 -0.00135599
5244126000 -0.00231038 0.0453585
5256124000 0.0079463 0.0870692
5268122000 0.0160381 0.136524
5280120000 0.0368744 0.166561
5292118000 0.05803 0.198481
5304116000 0.0906211 0.223913
5316114000 0.121121 0.244371
5328112000 0.15777 0.262085
5340110000 0.198215 0.277673
5352108000 0.227785 0.288759
5364106000 0.268788 0.30025
5376104000 0.303245 0.305558
5388102000 0.333214 0.310076
5400100000 0.367173 0.31156
5412098000 0.396844 0.311056
5424096000 0.427882 0.30722
5436094000 0.457608 0.303398
5448092000 0.483477 0.296728
5460090000 0.510794 0.289193
5472088000 0.53768 0.279352
5484086000 0.563026 0.268433
5496084000 0.590317 0.254724
5508082000 0.613705 0.24101
5520080000 0.634924 0.226011
5532078000 0.65754 0.214061
5544076000 0.676358 0.199216
5556074000 0.695639 0.184925
5568072000 0.709113 0.176335
5580070000 0.725064 0.163734
5592068000 0.73978 0.149648
5604066000 0.754787 0.13343
5616064000 0.760775 0.121826
5628062000 0.77329 0.107279
5640060000 0.777504 0.096055
5652058000 0.784624 0.0806571
5664056000 0.791378 0.0669193
5676054000 0.795019 0.0469913
5688052000 0.798388 0.0336614
5700050000 0.804716 0.0166335
5712048000 0.808667 0.00107903
5724046000 0.813308 -0.0164829
5736044000 0.81987 -0.0330212
5748042000 0.823398 -0.0485324
5760040000 0.826284 -0.0657335
5772038000 0.830706 -0.080646
5784036000 0.835356 -0.0968886
5796034000 0.837633 -0.112884
5808032000 0.845315 -0.123701
5820030000 0.848153 -0.143763
5832028000 0.85418 -0.156658
5844026000 0.855963 -0.170839
5856024000 0.859954 -0.187883
5868022000 0.857437 -0.207087
5880020000 0.858458 -0.213763
5892018000 0.859653 -0.234782
5904016000 0.855127 -0.24738
5916014000 0.85171 -0.266221
5928012000 0.850878 -0.288124
5940010000 0.843194 -0.301892
5952008000 0.838449 -0.313916
5964006000 0.831574 -0.328155
5976004000 0.827394 -0.344363
5988002000 0.819212 -0.358109
6000000000 0.80872 -0.372423
