# Hz S RI R 50
1000000 0.988599 0.00289987
12998000 1.01538 -0.0583755
24996000 1.0101 -0.127137
36994000 0.996774 -0.192943
48992000 0.979592 -0.256382
60990000 0.959198 -0.316002
72988000 0.933918 -0.374922
84986000 0.90617 -0.430811
96984000 0.874991 -0.484491
108982000 0.841409 -0.536449
120980000 0.805894 -0.58599
132978000 0.76875 -0.63255
144976000 0.730166 -0.677045
156974000 0.689266 -0.719905
168972000 0.646868 -0.759218
180970000 0.604345 -0.795883
192968000 0.559826 -0.829282
204966000 0.514538 -0.860104
216964000 0.468446 -0.887264
228962000 0.421844 -0.911107
240960000 0.37539 -0.931459
252958000 0.328832 -0.947906
264956000 0.282563 -0.961763
276954000 0.236253 -0.97262
288952000 0.191212 -0.979961
300950000 0.146263 -0.985075
312948000 0.102627 -0.987944
324946000 0.0605742 -0.988506
336944000 0.019605 -0.987761
348942000 -0.0200772 -0.98585
360940000 -0.0600301 -0.982454
372938000 -0.098878 -0.979208
384936000 -0.136177 -0.975441
396934000 -0.17301 -0.970968
408932000 -0.20957 -0.966315
420930000 -0.244425 -0.960894
432928000 -0.2802 -0.953407
444926000 -0.313917 -0.945117
456924000 -0.346423 -0.936321
468922000 -0.378399 -0.927226
480920000 -0.40826 -0.915617
492918000 -0.436828 -0.902544
504916000 -0.464715 -0.888486
516914000 -0.492298 -0.874193
528912000 -0.517478 -0.858095
540910000 -0.54253 -0.84148
552908000 -0.565124 -0.823869
564906000 -0.587091 -0.806698
576904000 -0.608037 -0.788791
588902000 -0.62796 -0.771397
600900000 -0.64626 -0.753849
612898000 -0.663967 -0.737359
624896000 -0.682028 -0.720341
636894000 -0.699692 -0.70364
648892000 -0.717028 -0.687806
660890000 -0.734297 -0.671779
672888000 -0.75086 -0.655197
684886000 -0.767925 -0.639103
696884000 -0.783948 -0.621679
708882000 -0.799297 -0.604872
720880000 -0.816136 -0.587332
732878000 -0.830001 -0.568606
744876000 -0.843011 -0.549811
756874000 -0.855993 -0.530773
768872000 -0.86814 -0.510551
780870000 -0.878928 -0.491033
792868000 -0.888429 -0.470472
804866000 -0.896782 -0.451079
816864000 -0.905565 -0.431672
828862000 -0.913109 -0.413421
840860000 -0.919776 -0.395267
852858000 -0.923844 -0.378252
864856000 -0.931687 -0.35993
876854000 -0.937153 -0.342074
888852000 -0.944022 -0.32567
900850000 -0.949516 -0.308942
912848000 -0.954917 -0.293067
924846000 -0.960563 -0.27705
936844000 -0.966131 -0.261555
948842000 -0.972503 -0.247082
960840000 -0.978498 -0.233415
972838000 -0.984593 -0.218236
984836000 -0.989714 -0.20246
996834000 -0.993566 -0.18718
1008832000 -0.996768 -0.172146
1020830000 -1.00057 -0.156543
1032828000 -1.00315 -0.13995
1044826000 -1.00551 -0.123616
1056824000 -1.00743 -0.107425
1068822000 -1.00926 -0.0902086
1080820000 -1.00993 -0.071238
1092818000 -1.00826 -0.0558131
1104816000 -1.00853 -0.0386263
1116814000 -1.00767 -0.0220661
1128812000 -1.00828 -0.00669025
1140810000 -1.00672 0.00811054
1152808000 -1.00603 0.0231538
1164806000 -1.00651 0.0370218
1176804000 -1.00902 0.0535324
1188802000 -1.00437 0.0687492
1200800000 -1.00294 0.0795755
1212798000 -1.0027 0.0914613
1224796000 -1.00178 0.103305
1236794000 -1.0015 0.115048
1248792000 -1.00058 0.126803
1260790000 -1.001 0.137762
1272788000 -0.999126 0.150143
1284786000 -0.996859 0.160992
1296784000 -0.992798 0.17191
1308782000 -0.990475 0.185627
1320780000 -0.98772 0.198643
1332778000 -0.985127 0.21267
1344776000 -0.981931 0.22689
1356774000 -0.980056 0.240986
1368772000 -0.977256 0.253377
1380770000 -0.973503 0.26882
1392768000 -0.96967 0.283714
1404766000 -0.964275 0.299093
1416764000 -0.959667 0.314652
1428762000 -0.954504 0.328877
1440760000 -0.948854 0.3437
1452758000 -0.943468 0.355908
1464756000 -0.939856 0.369173
1476754000 -0.935961 0.381366
1488752000 -0.931393 0.392192
1500750000 -0.925484 0.404235
1512748000 -0.918733 0.412398
1524746000 -0.912892 0.420877
1536744000 -0.906262 0.429956
1548742000 -0.900328 0.439865
1560740000 -0.894807 0.449507
1572738000 -0.889431 0.460352
1584736000 -0.884853 0.470669
1596734000 -0.881475 0.481258
1608732000 -0.877036 0.493046
1620730000 -0.872672 0.503171
1632728000 -0.867968 0.514104
1644726000 -0.862493 0.526298
1656724000 -0.855841 0.536943
1668722000 -0.849473 0.547025
1680720000 -0.843644 0.558198
1692718000 -0.838012 0.568121
1704716000 -0.834619 0.577267
1716714000 -0.827083 0.584752
1728712000 -0.820155 0.594599
1740710000 -0.810749 0.605783
1752708000 -0.80238 0.616079
1764706000 -0.792569 0.623199
1776704000 -0.7832 0.631184
1788702000 -0.77379 0.638326
1800700000 -0.763472 0.648106
1812698000 -0.75147 0.653824
1824696000 -0.742697 0.664704
1836694000 -0.733068 0.672959
1848692000 -0.725976 0.683087
1860690000 -0.718093 0.691541
1872688000 -0.709259 0.701814
1884686000 -0.701055 0.711348
1896684000 -0.693763 0.720952
1908682000 -0.684704 0.73247
1920680000 -0.678316 0.742991
1932678000 -0.670554 0.752571
1944676000 -0.661314 0.762728
1956674000 -0.657336 0.771332
1968672000 -0.652823 0.780262
1980670000 -0.64588 0.786923
1992668000 -0.639486 0.790172
2004666000 -0.636911 0.794828
2016664000 -0.63152 0.79831
2028662000 -0.624592 0.801379
2040660000 -0.617961 0.803986
2052658000 -0.610423 0.805654
2064656000 -0.602085 0.807199
2076654000 -0.591716 0.811103
2088652000 -0.580613 0.813044
2100650000 -0.57002 0.816359
2112648000 -0.555283 0.822708
2124646000 -0.543294 0.830072
2136644000 -0.527304 0.837078
2148642000 -0.514121 0.847324
2160640000 -0.500325 0.856271
2172638000 -0.489724 0.866796
2184636000 -0.479741 0.878536
2196634000 -0.469533 0.890199
2208632000 -0.463649 0.901745
2220630000 -0.458292 0.908515
2232628000 -0.457506 0.915743
2244626000 -0.45483 0.920042
2256624000 -0.452588 0.924166
2268622000 -0.447263 0.926581
2280620000 -0.44344 0.928193
2292618000 -0.441779 0.930732
2304616000 -0.436327 0.930552
2316614000 -0.430483 0.929933
2328612000 -0.418812 0.929518
2340610000 -0.405345 0.929749
2352608000 -0.389707 0.930151
2364606000 -0.374834 0.930877
2376604000 -0.358208 0.932236
2388602000 -0.342174 0.935592
2400600000 -0.322637 0.939142
2412598000 -0.307461 0.943338
2424596000 -0.291162 0.949016
2436594000 -0.276257 0.954122
2448592000 -0.262634 0.958787
2460590000 -0.247922 0.966598
2472588000 -0.23777 0.974523
2484586000 -0.229844 0.981481
2496584000 -0.221473 0.989263
2508582000 -0.213418 0.993567
2520580000 -0.203479 0.999856
2532578000 -0.197284 1.00302
2544576000 -0.194106 1.0091
2556574000 -0.184472 1.00904
2568572000 -0.177289 1.01099
2580570000 -0.167148 1.01095
2592568000 -0.160961 1.00861
2604566000 -0.150474 1.00488
2616564000 -0.143904 1.00153
2628562000 -0.134161 0.999814
2640560000 -0.123492 0.995409
2652558000 -0.111486 0.99286
2664556000 -0.100877 0.990688
2676554000 -0.0880043 0.988493
2688552000 -0.0756683 0.987291
2700550000 -0.0634985 0.986133
2712548000 -0.0515747 0.986244
2724546000 -0.0365427 0.987975
2736544000 -0.0269598 0.991968
2748542000 -0.0141818 0.994943
2760540000 -0.00290461 0.997804
2772538000 0.00834143 1.00106
2784536000 0.0185313 1.00509
2796534000 0.0278063 1.006
2808532000 0.034571 1.0094
2820530000 0.0448554 1.00867
2832528000 0.0530441 1.00957
2844526000 0.0618686 1.00935
2856524000 0.0698281 1.00601
2868522000 0.0777311 1.00323
2880520000 0.0855291 0.999796
2892518000 0.0935209 0.99457
2904516000 0.101197 0.99322
2916514000 0.108646 0.989761
2928512000 0.117427 0.986015
2940510000 0.120466 0.98418
2952508000 0.131685 0.979495
2964506000 0.142727 0.975814
2976504000 0.155967 0.972425
2988502000 0.16683 0.973104
3000500000 0.176692 0.972106
3012498000 0.190718 0.972483
3024496000 0.1948 0.972718
3036494000 0.208088 0.97131
3048492000 0.219238 0.970775
3060490000 0.228685 0.970119
3072488000 0.236623 0.969222
3084486000 0.244612 0.967455
3096484000 0.253006 0.964803
3108482000 0.25941 0.962664
3120480000 0.269515 0.963526
3132478000 0.273602 0.957367
3144476000 0.284686 0.951737
3156474000 0.291073 0.950041
3168472000 0.298094 0.945903
3180470000 0.305973 0.943194
3192468000 0.314959 0.938719
3204466000 0.32482 0.932624
3216464000 0.334219 0.928332
3228462000 0.345984 0.9243
3240460000 0.356827 0.918125
3252458000 0.367992 0.916226
3264456000 0.37998 0.912904
3276454000 0.388629 0.908188
3288452000 0.39755 0.902422
3300450000 0.405079 0.898884
3312448000 0.419571 0.894688
3324446000 0.427133 0.887228
3336444000 0.439071 0.88356
3348442000 0.447156 0.877488
3360440000 0.456571 0.872726
3372438000 0.465403 0.864389
3384436000 0.475939 0.861647
3396434000 0.483608 0.850991
3408432000 0.495294 0.84563
3420430000 0.504029 0.842327
3432428000 0.515049 0.834429
3444426000 0.526887 0.825474
3456424000 0.5385 0.821276
3468422000 0.545185 0.812897
3480420000 0.556593 0.806278
3492418000 0.56699 0.801239
3504416000 0.576772 0.792587
3516414000 0.585689 0.786641
3528412000 0.597519 0.783232
3540410000 0.603446 0.778622
3552408000 0.611224 0.772047
3564406000 0.618087 0.766601
3576404000 0.624627 0.758529
3588402000 0.631384 0.755584
3600400000 0.639296 0.747317
3612398000 0.645438 0.7397
3624396000 0.652397 0.732039
3636394000 0.6606 0.725367
3648392000 0.667187 0.717696
3660390000 0.674274 0.711794
3672388000 0.683804 0.702673
3684386000 0.69118 0.69192
3696384000 0.697497 0.684992
3708382000 0.707591 0.676514
3720380000 0.715121 0.667946
3732378000 0.722525 0.658198
3744376000 0.727539 0.649433
3756374000 0.736058 0.64042
3768372000 0.743554 0.631485
3780370000 0.751129 0.6208
3792368000 0.756451 0.616062
3804366000 0.762853 0.607152
3816364000 0.767916 0.599565
3828362000 0.775277 0.594173
3840360000 0.779143 0.592012
3852358000 0.784299 0.581012
3864356000 0.786366 0.576384
3876354000 0.78827 0.569632
3888352000 0.792468 0.563649
3900350000 0.798099 0.558106
3912348000 0.801027 0.552006
3924346000 0.80633 0.546555
3936344000 0.808925 0.540398
3948342000 0.811937 0.535328
3960340000 0.810723 0.530423
3972338000 0.816297 0.522924
3984336000 0.819429 0.511402
3996334000 0.826173 0.504873
4008332000 0.830992 0.497747
4020330000 0.838465 0.487057
4032328000 0.84236 0.477871
4044326000 0.847545 0.468423
4056324000 0.852209 0.457965
4068322000 0.855142 0.445516
4080320000 0.859368 0.431171
4092318000 0.865299 0.417133
4104316000 0.872045 0.397245
4116314000 0.874348 0.377992
4128312000 0.882397 0.362315
4140310000 0.889809 0.343261
4152308000 0.895693 0.324706
4164306000 0.900768 0.309304
4176304000 0.907776 0.296511
4188302000 0.912592 0.284661
4200300000 0.91745 0.278936
4212298000 0.916436 0.272295
4224296000 0.917882 0.271987
4236294000 0.919894 0.2645
4248292000 0.921039 0.264664
4260290000 0.928103 0.257174
4272288000 0.926025 0.255548
4284286000 0.927975 0.248496
4296284000 0.929351 0.242877
4308282000 0.927259 0.230164
4320280000 0.93163 0.219201
4332278000 0.930169 0.204664
4344276000 0.927074 0.189944
4356274000 0.93003 0.178203
4368272000 0.925237 0.164206
4380270000 0.925289 0.147215
4392268000 0.921714 0.126342
4404266000 0.921072 0.109467
4416264000 0.919498 0.0876418
4428262000 0.920132 0.0685447
4440260000 0.922452 0.0498549
4452258000 0.92505 0.0328215
4464256000 0.928352 0.0184015
4476254000 0.928138 0.00100954
4488252000 0.930743 -0.0114972
4500250000 0.930422 -0.0204723
4512248000 0.930616 -0.0362462
4524246000 0.933211 -0.0456267
4536244000 0.933928 -0.0543219
4548242000 0.930053 -0.0649695
4560240000 0.933777 -0.067514
4572238000 0.928818 -0.0774492
4584236000 0.925742 -0.0847909
4596234000 0.922692 -0.0913383
4608232000 0.911146 -0.101579
4620230000 0.905177 -0.118148
4632228000 0.899977 -0.132095
4644226000 0.890028 -0.148415
4656224000 0.880442 -0.166477
4668222000 0.872204 -0.181848
4680220000 0.860738 -0.20184
4692218000 0.858287 -0.222013
4704216000 0.844882 -0.240449
4716214000 0.835076 -0.258084
4728212000 0.825755 -0.274781
4740210000 0.811109 -0.29153
4752208000 0.799661 -0.311559
4764206000 0.789858 -0.328309
4776204000 0.779318 -0.34416
4788202000 0.771058 -0.359504
4800200000 0.758434 -0.375319
4812198000 0.750532 -0.391235
4824196000 0.742129 -0.404501
4836194000 0.72534 -0.412068
4848192000 0.7158 -0.426205
4860190000 0.703203 -0.431486
4872188000 0.686007 -0.441662
4884186000 0.663147 -0.452108
4896184000 0.644764 -0.459066
4908182000 0.624457 -0.470987
4920180000 0.596505 -0.475682
4932178000 0.571147 -0.489875
4944176000 0.542498 -0.494643
4956174000 0.515431 -0.503752
4968172000 0.479569 -0.50545
4980170000 0.445614 -0.509433
4992168000 0.411455 -0.509866
5004166000 0.378231 -0.511096
5016164000 0.340032 -0.512645
5028162000 0.307128 -0.509765
5040160000 0.270667 -0.503735
5052158000 0.235064 -0.498392
5064156000 0.200833 -0.484957
5076154000 0.170443 -0.471824
5088152000 0.137953 -0.456822
5100150000 0.107456 -0.434353
5112148000 0.0869207 -0.410876
5124146000 0.0596063 -0.385447
5136144000 0.0360876 -0.352324
5148142000 0.018399 -0.319433
5160140000 0.00152114 -0.277514
5172138000 -0.0049252 -0.238893
5184136000 -0.00930544 -0.194118
5196134000 -0.0138482 -0.146166
5208132000 -0.0107484 -0.095641
5220130000 -0.00985445 -0.0503891
5232128000 -0.00669718 -0.00120893
5244126000 -0.00229874 0.0451122
5256124000 0.00789709 0.0869195
5268122000 0.0195467 0.131529
5280120000 0.0369637 0.166435
5292118000 0.058121 0.198381
5304116000 0.0902595 0.223817
5316114000 0.121394 0.243978
5328112000 0.157356 0.261502
5340110000 0.199964 0.277893
5352108000 0.22939 0.287946
5364106000 0.268466 0.299248
5376104000 0.302218 0.305176
5388102000 0.334332 0.31014
5400100000 0.36712 0.310438
5412098000 0.398533 0.311017
5424096000 0.428463 0.307087
5436094000 0.457489 0.303565
5448092000 0.483479 0.296681
5460090000 0.51132 0.289306
5472088000 0.536546 0.278039
5484086000 0.563546 0.268333
5496084000 0.589465 0.25409
5508082000 0.614019 0.240964
5520080000 0.635393 0.226052
5532078000 0.657531 0.214794
5544076000 0.676485 0.199711
5556074000 0.695482 0.185557
5568072000 0.709119 0.17673
5580070000 0.724656 0.164047
5592068000 0.738059 0.147919
5604066000 0.755805 0.133783
5616064000 0.760505 0.12194
5628062000 0.774409 0.107708
5640060000 0.776452 0.0986279
5652058000 0.784981 0.0828481
5664056000 0.790506 0.0652923
5676054000 0.79533 0.0499054
5688052000 0.7988 0.0340003
5700050000 0.804182 0.0181643
5712048000 0.807807 0.00105338
5724046000 0.813272 -0.0162022
5736044000 0.81999 -0.0326963
5748042000 0.824166 -0.0492264
5760040000 0.826946 -0.0657379
5772038000 0.828205 -0.082474
5784036000 0.835724 -0.0958112
5796034000 0.840159 -0.111873
5808032000 0.84383 -0.123649
5820030000 0.847812 -0.143386
5832028000 0.853854 -0.15661
5844026000 0.856012 -0.171097
5856024000 0.860858 -0.186552
5868022000 0.858004 -0.208591
5880020000 0.854353 -0.214851
5892018000 0.856944 -0.231673
5904016000 0.854346 -0.249019
5916014000 0.855461 -0.264989
5928012000 0.846458 -0.289147
5940010000 0.84254 -0.300272
5952008000 0.838577 -0.313279
5964006000 0.828664 -0.32709
5976004000 0.826765 -0.343774
5988002000 0.818303 -0.358237
6000000000 0.809499 -0.372409
