# Hz S RI R 50
1000000 0.988095 -0.00368424
12998000 1.01526 -0.0584686
24996000 1.00997 -0.127664
36994000 0.996745 -0.193386
48992000 0.979563 -0.256471
60990000 0.959057 -0.315957
72988000 0.933984 -0.37481
84986000 0.906078 -0.430735
96984000 0.875009 -0.484546
108982000 0.841307 -0.536799
120980000 0.805823 -0.586086
132978000 0.768817 -0.632539
144976000 0.729936 -0.676926
156974000 0.689368 -0.719859
168972000 0.647045 -0.759509
180970000 0.604376 -0.796127
192968000 0.559751 -0.829424
204966000 0.514441 -0.860371
216964000 0.468563 -0.887528
228962000 0.421125 -0.911554
240960000 0.374896 -0.931797
252958000 0.328443 -0.948241
264956000 0.282122 -0.961935
276954000 0.235829 -0.972689
288952000 0.191053 -0.979995
300950000 0.146216 -0.985224
312948000 0.102161 -0.987765
324946000 0.0601803 -0.988535
336944000 0.0192183 -0.987729
348942000 -0.0205358 -0.985945
360940000 -0.0607458 -0.982496
372938000 -0.0992485 -0.979086
384936000 -0.136498 -0.975611
396934000 -0.173386 -0.97096
408932000 -0.210052 -0.966296
420930000 -0.244741 -0.960822
432928000 -0.280111 -0.953217
444926000 -0.314101 -0.944726
456924000 -0.346673 -0.936562
468922000 -0.378491 -0.927033
480920000 -0.408843 -0.915292
492918000 -0.437452 -0.902174
504916000 -0.465202 -0.888178
516914000 -0.492556 -0.873986
528912000 -0.517793 -0.85766
540910000 -0.542491 -0.841325
552908000 -0.565175 -0.82383
564906000 -0.587357 -0.806981
576904000 -0.607681 -0.789137
588902000 -0.62799 -0.771802
600900000 -0.646154 -0.754267
612898000 -0.663739 -0.737625
624896000 -0.681808 -0.720739
636894000 -0.699661 -0.703775
648892000 -0.717243 -0.688089
660890000 -0.734208 -0.672108
672888000 -0.750738 -0.655666
684886000 -0.767806 -0.639588
696884000 -0.784017 -0.622102
708882000 -0.800812 -0.604885
720880000 -0.815854 -0.588049
732878000 -0.830141 -0.56823
744876000 -0.843199 -0.549924
756874000 -0.856126 -0.530926
768872000 -0.86826 -0.51075
780870000 -0.878604 -0.490743
792868000 -0.888303 -0.47083
804866000 -0.896639 -0.451009
816864000 -0.905757 -0.4322
828862000 -0.912982 -0.413983
840860000 -0.919267 -0.396456
852858000 -0.925273 -0.379668
864856000 -0.931272 -0.360693
876854000 -0.937298 -0.342713
888852000 -0.944061 -0.3257
900850000 -0.949319 -0.308479
912848000 -0.955027 -0.292905
924846000 -0.960642 -0.277037
936844000 -0.966001 -0.261783
948842000 -0.972525 -0.247357
960840000 -0.978738 -0.233274
972838000 -0.98463 -0.218543
984836000 -0.989242 -0.202415
996834000 -0.99382 -0.18729
1008832000 -0.996849 -0.172105
1020830000 -1.0004 -0.156394
1032828000 -1.00336 -0.139606
1044826000 -1.00558 -0.12384
1056824000 -1.00767 -0.107305
1068822000 -1.00966 -0.0895255
1080820000 -1.00954 -0.0720577
1092818000 -1.00866 -0.0561815
1104816000 -1.00815 -0.0384142
1116814000 -1.0082 -0.023008
1128812000 -1.00847 -0.00747301
1140810000 -1.00713 0.008774
1152808000 -1.00665 0.0226096
1164806000 -1.00706 0.0371802
1176804000 -1.00898 0.0530254
1188802000 -1.0046 0.0687109
1200800000 -1.00283 0.0792609
1212798000 -1.00282 0.0912713
1224796000 -1.00228 0.102725
1236794000 -1.00203 0.114927
1248792000 -1.001 0.127323
1260790000 -1.00038 0.138931
1272788000 -0.999441 0.150095
1284786000 -0.997267 0.160397
1296784000 -0.99333 0.171931
1308782000 -0.990393 0.185199
1320780000 -0.987878 0.198854
1332778000 -0.985074 0.211914
1344776000 -0.982688 0.225699
1356774000 -0.979837 0.240756
1368772000 -0.977139 0.25347
1380770000 -0.973175 0.268736
1392768000 -0.969884 0.282954
1404766000 -0.965191 0.297795
1416764000 -0.959961 0.31471
1428762000 -0.954793 0.327935
1440760000 -0.949076 0.342614
1452758000 -0.943963 0.355327
1464756000 -0.939852 0.368601
1476754000 -0.93587 0.381063
1488752000 -0.931631 0.391951
1500750000 -0.927137 0.403381
1512748000 -0.918912 0.411814
1524746000 -0.913324 0.420724
1536744000 -0.907294 0.429936
1548742000 -0.900281 0.440295
1560740000 -0.895221 0.449621
1572738000 -0.889661 0.459946
1584736000 -0.885283 0.470445
1596734000 -0.881207 0.481641
1608732000 -0.877039 0.493103
1620730000 -0.872991 0.503076
1632728000 -0.868027 0.514068
1644726000 -0.862705 0.526433
1656724000 -0.855529 0.53648
1668722000 -0.848781 0.545872
1680720000 -0.843522 0.557757
1692718000 -0.839203 0.567837
1704716000 -0.833961 0.576317
1716714000 -0.826386 0.585332
1728712000 -0.820195 0.594038
1740710000 -0.812352 0.606753
1752708000 -0.802597 0.615597
1764706000 -0.792882 0.622875
1776704000 -0.783426 0.631742
1788702000 -0.773918 0.638728
1800700000 -0.763749 0.648349
1812698000 -0.751329 0.654934
1824696000 -0.743171 0.66467
1836694000 -0.734814 0.674
1848692000 -0.726704 0.68225
1860690000 -0.717885 0.691648
1872688000 -0.709439 0.701278
1884686000 -0.70106 0.71131
1896684000 -0.693381 0.721133
1908682000 -0.684547 0.732529
1920680000 -0.677672 0.742963
1932678000 -0.670182 0.753462
1944676000 -0.661678 0.761777
1956674000 -0.656685 0.771234
1968672000 -0.651619 0.78046
1980670000 -0.646092 0.786545
1992668000 -0.640208 0.790323
2004666000 -0.637347 0.797701
2016664000 -0.63159 0.798803
2028662000 -0.625491 0.800185
2040660000 -0.618304 0.804405
2052658000 -0.611527 0.805317
2064656000 -0.603085 0.806945
2076654000 -0.592459 0.8108
2088652000 -0.581328 0.813709
2100650000 -0.56976 0.817321
2112648000 -0.555304 0.8218
2124646000 -0.542771 0.829662
2136644000 -0.528087 0.837989
2148642000 -0.514649 0.847283
2160640000 -0.499931 0.855974
2172638000 -0.490237 0.866831
2184636000 -0.479572 0.878633
2196634000 -0.469929 0.890019
2208632000 -0.463353 0.901966
2220630000 -0.458511 0.907522
2232628000 -0.457113 0.915141
2244626000 -0.453294 0.921644
2256624000 -0.453631 0.923931
2268622000 -0.447538 0.926678
2280620000 -0.445074 0.928997
2292618000 -0.442846 0.931149
2304616000 -0.437782 0.930784
2316614000 -0.430959 0.929709
2328612000 -0.419132 0.930093
2340610000 -0.406616 0.930008
2352608000 -0.390235 0.930109
2364606000 -0.37567 0.931433
2376604000 -0.358096 0.931589
2388602000 -0.343105 0.935042
2400600000 -0.32326 0.93763
2412598000 -0.307157 0.943726
2424596000 -0.291753 0.948926
2436594000 -0.274891 0.954585
2448592000 -0.262189 0.959312
2460590000 -0.248064 0.96654
2472588000 -0.23779 0.97479
2484586000 -0.230647 0.981044
2496584000 -0.221527 0.988177
2508582000 -0.212071 0.995595
2520580000 -0.204159 0.999935
2532578000 -0.199312 1.00248
2544576000 -0.192481 1.00755
2556574000 -0.183586 1.00823
2568572000 -0.17735 1.0129
2580570000 -0.168468 1.0102
2592568000 -0.160876 1.00841
2604566000 -0.15073 1.00542
2616564000 -0.14304 1.00196
2628562000 -0.133863 1.00039
2640560000 -0.124826 0.993559
2652558000 -0.113631 0.99395
2664556000 -0.0995691 0.991178
2676554000 -0.0890801 0.988859
2688552000 -0.0758971 0.987842
2700550000 -0.0633483 0.987449
2712548000 -0.0503046 0.985693
2724546000 -0.0366309 0.988756
2736544000 -0.0264955 0.992546
2748542000 -0.0143566 0.995048
2760540000 -0.00285634 0.997813
2772538000 0.00843249 1.00137
2784536000 0.019177 1.00504
2796534000 0.0277195 1.00607
2808532000 0.0360181 1.00635
2820530000 0.0461186 1.00834
2832528000 0.0530594 1.00923
2844526000 0.0615945 1.00858
2856524000 0.0701817 1.00705
2868522000 0.0775094 1.00357
2880520000 0.0849728 1.00049
2892518000 0.0935715 0.994834
2904516000 0.101357 0.993432
2916514000 0.109071 0.989326
2928512000 0.117525 0.986517
2940510000 0.120013 0.983967
2952508000 0.133087 0.980058
2964506000 0.143853 0.975969
2976504000 0.153585 0.974358
2988502000 0.166377 0.971635
3000500000 0.175464 0.973572
3012498000 0.190865 0.972246
3024496000 0.195166 0.972986
3036494000 0.20832 0.971405
3048492000 0.219346 0.970904
3060490000 0.229025 0.970197
3072488000 0.236537 0.968073
3084486000 0.245157 0.966725
3096484000 0.253549 0.966994
3108482000 0.260302 0.96273
3120480000 0.269195 0.96065
3132478000 0.273704 0.955407
3144476000 0.284411 0.952383
3156474000 0.291393 0.949561
3168472000 0.296459 0.94662
3180470000 0.306971 0.942414
3192468000 0.315506 0.938333
3204466000 0.324916 0.932552
3216464000 0.334463 0.927683
3228462000 0.346358 0.92257
3240460000 0.357494 0.918776
3252458000 0.368343 0.915204
3264456000 0.379664 0.911992
3276454000 0.388691 0.909835
3288452000 0.397845 0.90298
3300450000 0.406004 0.898188
3312448000 0.419074 0.895018
3324446000 0.427625 0.887817
3336444000 0.439018 0.883857
3348442000 0.447687 0.877651
3360440000 0.457054 0.873129
3372438000 0.467 0.865515
3384436000 0.475184 0.862699
3396434000 0.4823 0.851288
3408432000 0.492616 0.846764
3420430000 0.504387 0.841088
3432428000 0.514715 0.834354
3444426000 0.526818 0.82767
3456424000 0.536809 0.820834
3468422000 0.545454 0.81263
3480420000 0.556676 0.806223
3492418000 0.566742 0.800476
3504416000 0.577372 0.794544
3516414000 0.586147 0.786797
3528412000 0.594972 0.78394
3540410000 0.60349 0.776318
3552408000 0.608776 0.771399
3564406000 0.620828 0.765578
3576404000 0.624393 0.760346
3588402000 0.63194 0.753518
3600400000 0.639615 0.746756
3612398000 0.645236 0.739887
3624396000 0.652375 0.732009
3636394000 0.660415 0.725389
3648392000 0.666893 0.718369
3660390000 0.673609 0.710789
3672388000 0.681433 0.70616
3684386000 0.689997 0.693462
3696384000 0.698966 0.685141
3708382000 0.706745 0.677344
3720380000 0.715453 0.668091
3732378000 0.721484 0.658068
3744376000 0.728814 0.648549
3756374000 0.736042 0.640249
3768372000 0.743716 0.631619
3780370000 0.751326 0.620774
3792368000 0.756287 0.615947
3804366000 0.763961 0.60738
3816364000 0.768032 0.598712
3828362000 0.774798 0.594136
3840360000 0.776408 0.59288
3852358000 0.781409 0.581048
3864356000 0.784881 0.576338
3876354000 0.787844 0.570939
3888352000 0.792425 0.563343
3900350000 0.79708 0.557967
3912348000 0.801052 0.551917
3924346000 0.806284 0.546246
3936344000 0.808059 0.539803
3948342000 0.810308 0.533348
3960340000 0.810502 0.530468
3972338000 0.814928 0.523084
3984336000 0.819067 0.511732
3996334000 0.8265 0.504172
4008332000 0.831936 0.497556
4020330000 0.838334 0.486772
4032328000 0.843859 0.479448
4044326000 0.847399 0.468376
4056324000 0.852909 0.45753
4068322000 0.855466 0.445236
4080320000 0.859814 0.431516
4092318000 0.865586 0.417023
4104316000 0.871221 0.398311
4116314000 0.876259 0.379042
4128312000 0.882518 0.362421
4140310000 0.888624 0.34321
4152308000 0.895341 0.325255
4164306000 0.9019 0.308335
4176304000 0.907583 0.296829
4188302000 0.913458 0.285608
4200300000 0.917576 0.277534
4212298000 0.916444 0.272509
4224296000 0.917414 0.271141
4236294000 0.920165 0.263741
4248292000 0.919591 0.266208
4260290000 0.9279 0.25796
4272288000 0.926657 0.253876
4284286000 0.927995 0.247855
4296284000 0.928455 0.240008
4308282000 0.932868 0.23136
4320280000 0.927789 0.21764
4332278000 0.930045 0.201404
4344276000 0.927959 0.1889
4356274000 0.930412 0.177067
4368272000 0.925257 0.163933
4380270000 0.925294 0.146594
4392268000 0.921761 0.125848
4404266000 0.920703 0.110178
4416264000 0.920937 0.08757
4428262000 0.92057 0.0689327
4440260000 0.922383 0.0484149
4452258000 0.926489 0.0338162
4464256000 0.92774 0.0172686
4476254000 0.929622 -1.34569e-05
4488252000 0.930805 -0.0108872
4500250000 0.930514 -0.0209384
4512248000 0.930518 -0.0361886
4524246000 0.933399 -0.0454
4536244000 0.934328 -0.0551251
4548242000 0.932558 -0.0678633
4560240000 0.929971 -0.0702469
4572238000 0.929012 -0.0766902
4584236000 0.925675 -0.0841944
4596234000 0.920068 -0.0930873
4608232000 0.913031 -0.101132
4620230000 0.90609 -0.115259
4632228000 0.901286 -0.132377
4644226000 0.891208 -0.149041
4656224000 0.880893 -0.165956
4668222000 0.871615 -0.182624
4680220000 0.860704 -0.202662
4692218000 0.85806 -0.222473
4704216000 0.844465 -0.241075
4716214000 0.835859 -0.257978
4728212000 0.821084 -0.273314
4740210000 0.811551 -0.291664
4752208000 0.799609 -0.310859
4764206000 0.78982 -0.32912
4776204000 0.779668 -0.344724
4788202000 0.771314 -0.359382
4800200000 0.757781 -0.375746
4812198000 0.750517 -0.391841
4824196000 0.741161 -0.404936
4836194000 0.727366 -0.413011
4848192000 0.716478 -0.427677
4860190000 0.702594 -0.431497
4872188000 0.68638 -0.442665
4884186000 0.665397 -0.450672
4896184000 0.642841 -0.460124
4908182000 0.624184 -0.471052
4920180000 0.597521 -0.477262
4932178000 0.571996 -0.490255
4944176000 0.542077 -0.494942
4956174000 0.515331 -0.504274
4968172000 0.479642 -0.505282
4980170000 0.446875 -0.509711
4992168000 0.41198 -0.510649
5004166000 0.378689 -0.511319
5016164000 0.340757 -0.51381
5028162000 0.307088 -0.510888
5040160000 0.270276 -0.503666
5052158000 0.235235 -0.49843
5064156000 0.20094 -0.484974
5076154000 0.170669 -0.471177
5088152000 0.137376 -0.457304
5100150000 0.107712 -0.43378
5112148000 0.0859852 -0.409516
5124146000 0.0593829 -0.385959
5136144000 0.0357245 -0.351566
5148142000 0.0185414 -0.319377
5160140000 0.00126558 -0.27776
5172138000 -0.00445834 -0.23886
5184136000 -0.00951659 -0.193747
5196134000 -0.0138773 -0.145683
5208132000 -0.011321 -0.0958755
5220130000 -0.0100737 -0.0500167
5232128000 -0.00632636 -0.00135464
5244126000 -0.00226621 0.0449549
5256124000 0.00785829 0.086823
5268122000 0.0196049 0.13131
5280120000 0.0369546 0.166528
5292118000 0.0582976 0.198394
5304116000 0.0900665 0.223769
5316114000 0.120949 0.243498
5328112000 0.157096 0.262758
5340110000 0.198524 0.277498
5352108000 0.227664 0.288807
5364106000 0.269451 0.300156
5376104000 0.30253 0.305938
5388102000 0.334293 0.312627
5400100000 0.367149 0.311287
5412098000 0.397308 0.311843
5424096000 0.427952 0.307249
5436094000 0.45734 0.30361
5448092000 0.483131 0.296761
5460090000 0.511697 0.289468
5472088000 0.536511 0.278842
5484086000 0.56356 0.268348
5496084000 0.589686 0.253812
5508082000 0.613912 0.240899
5520080000 0.636084 0.227046
5532078000 0.657607 0.214335
5544076000 0.676479 0.199687
5556074000 0.695473 0.185162
5568072000 0.709433 0.176915
5580070000 0.726527 0.162029
5592068000 0.738088 0.14826
5604066000 0.755538 0.135421
5616064000 0.7581 0.119079
5628062000 0.769851 0.10956
5640060000 0.776204 0.0962964
5652058000 0.783946 0.0811764
5664056000 0.78999 0.0670044
5676054000 0.796962 0.0504357
5688052000 0.798475 0.0338833
5700050000 0.803961 0.0170156
5712048000 0.808727 0.000950203
5724046000 0.813221 -0.016337
5736044000 0.8198 -0.0328303
5748042000 0.823548 -0.0486653
5760040000 0.826575 -0.0656001
5772038000 0.829428 -0.082508
5784036000 0.835089 -0.096279
5796034000 0.838415 -0.110594
5808032000 0.844836 -0.123412
5820030000 0.846882 -0.14378
5832028000 0.854099 -0.157118
5844026000 0.855984 -0.170975
5856024000 0.85874 -0.187339
5868022000 0.856548 -0.206555
5880020000 0.85581 -0.21494
5892018000 0.86133 -0.23362
5904016000 0.854929 -0.251798
5916014000 0.856292 -0.270488
5928012000 0.849716 -0.286383
5940010000 0.844151 -0.298351
5952008000 0.837402 -0.312968
5964006000 0.829267 -0.328532
5976004000 0.824637 -0.342905
5988002000 0.819166 -0.35777
6000000000 0.809582 -0.372656
