# Hz S RI R 50
1000000 0.992652 0.000784633
12998000 1.01504 -0.0592242
24996000 1.0098 -0.127998
36994000 0.996354 -0.193901
48992000 0.979048 -0.256962
60990000 0.958743 -0.316539
72988000 0.933647 -0.375142
84986000 0.905823 -0.431063
96984000 0.874647 -0.484931
108982000 0.840987 -0.53689
120980000 0.805616 -0.58622
132978000 0.768596 -0.632699
144976000 0.729728 -0.677567
156974000 0.688748 -0.72037
168972000 0.646649 -0.759725
180970000 0.603986 -0.79635
192968000 0.559639 -0.829523
204966000 0.514146 -0.860533
216964000 0.468278 -0.887401
228962000 0.421472 -0.911219
240960000 0.375663 -0.931381
252958000 0.329049 -0.948314
264956000 0.282388 -0.961801
276954000 0.236099 -0.972643
288952000 0.191052 -0.979818
300950000 0.146206 -0.985022
312948000 0.102693 -0.987723
324946000 0.0605343 -0.988432
336944000 0.0195372 -0.987597
348942000 -0.0205901 -0.985845
360940000 -0.060528 -0.982402
372938000 -0.0989886 -0.979223
384936000 -0.136183 -0.975588
396934000 -0.173377 -0.97103
408932000 -0.209976 -0.966181
420930000 -0.244816 -0.960925
432928000 -0.280738 -0.95331
444926000 -0.314241 -0.945004
456924000 -0.347017 -0.936112
468922000 -0.379199 -0.926717
480920000 -0.408457 -0.91535
492918000 -0.436929 -0.902356
504916000 -0.464793 -0.888414
516914000 -0.492127 -0.87417
528912000 -0.517225 -0.858076
540910000 -0.542289 -0.841176
552908000 -0.565145 -0.82386
564906000 -0.587673 -0.806367
576904000 -0.607855 -0.789035
588902000 -0.627494 -0.771684
600900000 -0.646515 -0.754432
612898000 -0.663746 -0.737245
624896000 -0.681953 -0.72056
636894000 -0.699831 -0.703503
648892000 -0.717019 -0.687835
660890000 -0.734091 -0.671888
672888000 -0.750967 -0.655164
684886000 -0.767751 -0.639397
696884000 -0.784257 -0.621382
708882000 -0.800512 -0.604526
720880000 -0.816422 -0.587152
732878000 -0.830444 -0.567805
744876000 -0.843145 -0.549407
756874000 -0.856091 -0.53089
768872000 -0.867928 -0.510914
780870000 -0.879078 -0.490814
792868000 -0.888261 -0.470484
804866000 -0.896898 -0.451015
816864000 -0.905635 -0.432107
828862000 -0.913116 -0.413812
840860000 -0.920387 -0.395288
852858000 -0.924397 -0.378591
864856000 -0.931288 -0.359876
876854000 -0.936844 -0.34202
888852000 -0.944068 -0.32565
900850000 -0.949218 -0.308628
912848000 -0.955134 -0.292537
924846000 -0.96058 -0.276888
936844000 -0.965818 -0.261425
948842000 -0.972621 -0.247215
960840000 -0.978547 -0.233216
972838000 -0.984281 -0.218103
984836000 -0.989705 -0.202015
996834000 -0.994237 -0.18679
1008832000 -0.997166 -0.171736
1020830000 -1.00078 -0.155861
1032828000 -1.00322 -0.139443
1044826000 -1.0056 -0.122909
1056824000 -1.00776 -0.106895
1068822000 -1.00941 -0.0892764
1080820000 -1.00753 -0.0715775
1092818000 -1.00839 -0.0543933
1104816000 -1.00856 -0.0377896
1116814000 -1.00782 -0.0219607
1128812000 -1.00778 -0.00715755
1140810000 -1.00604 0.0089478
1152808000 -1.00672 0.0229181
1164806000 -1.00649 0.0374499
1176804000 -1.00883 0.0533273
1188802000 -1.00426 0.0687579
1200800000 -1.0024 0.0801955
1212798000 -1.00205 0.0916563
1224796000 -1.00158 0.103749
1236794000 -1.00153 0.115594
1248792000 -1.00077 0.126831
1260790000 -1.00026 0.138993
1272788000 -0.99942 0.149553
1284786000 -0.997379 0.160944
1296784000 -0.992729 0.171979
1308782000 -0.990334 0.185265
1320780000 -0.987721 0.198714
1332778000 -0.984981 0.212495
1344776000 -0.982379 0.226876
1356774000 -0.979819 0.24176
1368772000 -0.977035 0.253521
1380770000 -0.973658 0.26856
1392768000 -0.969678 0.283523
1404766000 -0.964418 0.298354
1416764000 -0.959264 0.314945
1428762000 -0.954083 0.329369
1440760000 -0.949223 0.343218
1452758000 -0.943633 0.355911
1464756000 -0.939814 0.368233
1476754000 -0.935855 0.381553
1488752000 -0.931132 0.392774
1500750000 -0.926518 0.40224
1512748000 -0.918412 0.412953
1524746000 -0.913466 0.421044
1536744000 -0.906289 0.429612
1548742000 -0.900404 0.440796
1560740000 -0.89459 0.448232
1572738000 -0.889501 0.460008
1584736000 -0.884813 0.47089
1596734000 -0.881204 0.481714
1608732000 -0.876818 0.493144
1620730000 -0.872667 0.503248
1632728000 -0.867865 0.51469
1644726000 -0.862609 0.526162
1656724000 -0.855329 0.537486
1668722000 -0.849409 0.546823
1680720000 -0.843019 0.559428
1692718000 -0.839117 0.568611
1704716000 -0.834041 0.576607
1716714000 -0.826426 0.585183
1728712000 -0.821023 0.593634
1740710000 -0.811187 0.605025
1752708000 -0.80167 0.6158
1764706000 -0.792379 0.623355
1776704000 -0.7831 0.631229
1788702000 -0.773632 0.638567
1800700000 -0.762587 0.646993
1812698000 -0.751826 0.655514
1824696000 -0.742047 0.664989
1836694000 -0.734422 0.672647
1848692000 -0.726644 0.683173
1860690000 -0.717921 0.691984
1872688000 -0.709242 0.701593
1884686000 -0.701015 0.711407
1896684000 -0.693652 0.720919
1908682000 -0.684327 0.732689
1920680000 -0.678638 0.742603
1932678000 -0.669806 0.753826
1944676000 -0.661874 0.762185
1956674000 -0.655864 0.77062
1968672000 -0.652904 0.779074
1980670000 -0.643579 0.788345
1992668000 -0.641384 0.790789
2004666000 -0.637539 0.795238
2016664000 -0.63174 0.798253
2028662000 -0.625017 0.802156
2040660000 -0.618472 0.804298
2052658000 -0.610515 0.805587
2064656000 -0.602774 0.806998
2076654000 -0.59178 0.811287
2088652000 -0.580941 0.812839
2100650000 -0.570749 0.815707
2112648000 -0.5556 0.82243
2124646000 -0.542997 0.829849
2136644000 -0.52832 0.837059
2148642000 -0.513969 0.846854
2160640000 -0.499287 0.856247
2172638000 -0.489932 0.867201
2184636000 -0.479367 0.87875
2196634000 -0.469695 0.889729
2208632000 -0.463796 0.902234
2220630000 -0.459212 0.90923
2232628000 -0.457702 0.916097
2244626000 -0.454092 0.920164
2256624000 -0.451688 0.924975
2268622000 -0.447961 0.926947
2280620000 -0.444121 0.926908
2292618000 -0.441832 0.930566
2304616000 -0.436895 0.930696
2316614000 -0.430132 0.92976
2328612000 -0.418242 0.930096
2340610000 -0.405663 0.930032
2352608000 -0.390039 0.929738
2364606000 -0.374969 0.931853
2376604000 -0.356791 0.932046
2388602000 -0.338238 0.936216
2400600000 -0.32374 0.938259
2412598000 -0.306607 0.943285
2424596000 -0.290968 0.948455
2436594000 -0.275108 0.954828
2448592000 -0.261449 0.959118
2460590000 -0.248092 0.966772
2472588000 -0.237438 0.974484
2484586000 -0.229542 0.981252
2496584000 -0.221369 0.989147
2508582000 -0.212038 0.992164
2520580000 -0.2026 0.999785
2532578000 -0.197339 1.00181
2544576000 -0.192758 1.00847
2556574000 -0.183465 1.0088
2568572000 -0.177805 1.01167
2580570000 -0.167377 1.01063
2592568000 -0.160822 1.00841
2604566000 -0.157428 1.00441
2616564000 -0.143676 1.00167
2628562000 -0.133213 1.00019
2640560000 -0.123329 0.9941
2652558000 -0.110751 0.993722
2664556000 -0.100267 0.989945
2676554000 -0.0899299 0.989992
2688552000 -0.0758191 0.988795
2700550000 -0.0626623 0.986443
2712548000 -0.0516474 0.985586
2724546000 -0.0373102 0.987658
2736544000 -0.0262948 0.992692
2748542000 -0.0136624 0.995036
2760540000 -0.00254929 0.997925
2772538000 0.00831947 1.00135
2784536000 0.0184572 1.00514
2796534000 0.028869 1.00617
2808532000 0.0362539 1.00993
2820530000 0.0460509 1.00976
2832528000 0.0536947 1.00815
2844526000 0.0626147 1.00909
2856524000 0.0698579 1.00584
2868522000 0.0782508 1.0041
2880520000 0.0852916 0.999719
2892518000 0.0938328 0.994857
2904516000 0.101405 0.99318
2916514000 0.109048 0.989544
2928512000 0.117205 0.985734
2940510000 0.121373 0.984801
2952508000 0.131776 0.979281
2964506000 0.144405 0.975456
2976504000 0.153071 0.973503
2988502000 0.165827 0.973095
3000500000 0.176787 0.969363
3012498000 0.19128 0.97297
3024496000 0.195626 0.972185
3036494000 0.208655 0.971125
3048492000 0.219698 0.970523
3060490000 0.228626 0.969544
3072488000 0.237342 0.967151
3084486000 0.245748 0.96678
3096484000 0.251737 0.964841
3108482000 0.260466 0.962757
3120480000 0.266825 0.95894
3132478000 0.273242 0.956999
3144476000 0.283593 0.952108
3156474000 0.291644 0.95026
3168472000 0.298349 0.946419
3180470000 0.306499 0.941565
3192468000 0.31577 0.938186
3204466000 0.324668 0.932629
3216464000 0.334715 0.926986
3228462000 0.346163 0.922381
3240460000 0.358166 0.918856
3252458000 0.36953 0.914568
3264456000 0.379809 0.911369
3276454000 0.39044 0.909489
3288452000 0.399332 0.904952
3300450000 0.406085 0.898861
3312448000 0.418775 0.893149
3324446000 0.427979 0.886492
3336444000 0.439194 0.883613
3348442000 0.447918 0.877499
3360440000 0.457541 0.872588
3372438000 0.466621 0.865468
3384436000 0.47546 0.862677
3396434000 0.48352 0.85271
3408432000 0.494002 0.847224
3420430000 0.506642 0.841345
3432428000 0.512258 0.833883
3444426000 0.526976 0.825925
3456424000 0.537565 0.820527
3468422000 0.545624 0.813013
3480420000 0.556628 0.806747
3492418000 0.567099 0.800916
3504416000 0.577758 0.793487
3516414000 0.586406 0.786839
3528412000 0.597111 0.78112
3540410000 0.604014 0.778309
3552408000 0.609642 0.772187
3564406000 0.620048 0.769131
3576404000 0.627425 0.758927
3588402000 0.633456 0.754676
3600400000 0.639667 0.747067
3612398000 0.645465 0.740279
3624396000 0.65231 0.731918
3636394000 0.660512 0.725027
3648392000 0.667907 0.718292
3660390000 0.673513 0.713097
3672388000 0.683477 0.703945
3684386000 0.68965 0.694422
3696384000 0.697483 0.686497
3708382000 0.704498 0.675243
3720380000 0.715137 0.668047
3732378000 0.722096 0.65886
3744376000 0.726063 0.648522
3756374000 0.735901 0.639481
3768372000 0.743026 0.631157
3780370000 0.750794 0.621009
3792368000 0.75647 0.615854
3804366000 0.764922 0.607079
3816364000 0.767129 0.598241
3828362000 0.774326 0.594122
3840360000 0.776813 0.592121
3852358000 0.783942 0.582202
3864356000 0.785493 0.575483
3876354000 0.789447 0.570625
3888352000 0.793355 0.56224
3900350000 0.797959 0.557785
3912348000 0.801246 0.551852
3924346000 0.806196 0.546014
3936344000 0.809238 0.540089
3948342000 0.81117 0.534457
3960340000 0.810756 0.529041
3972338000 0.813711 0.523832
3984336000 0.821592 0.512251
3996334000 0.826257 0.505042
4008332000 0.830948 0.496071
4020330000 0.838303 0.4897
4032328000 0.843328 0.477517
4044326000 0.847359 0.46915
4056324000 0.852895 0.457862
4068322000 0.855618 0.444695
4080320000 0.859994 0.430823
4092318000 0.86559 0.416186
4104316000 0.870826 0.397572
4116314000 0.876878 0.377102
4128312000 0.883687 0.362924
4140310000 0.88969 0.342351
4152308000 0.894299 0.326296
4164306000 0.902563 0.308279
4176304000 0.907925 0.2963
4188302000 0.91369 0.284502
4200300000 0.916761 0.278452
4212298000 0.916599 0.272127
4224296000 0.917303 0.270843
4236294000 0.92128 0.264558
4248292000 0.921834 0.265399
4260290000 0.928984 0.259981
4272288000 0.925919 0.256238
4284286000 0.929206 0.250603
4296284000 0.929082 0.242762
4308282000 0.927898 0.230981
4320280000 0.933178 0.215912
4332278000 0.933397 0.203973
4344276000 0.926384 0.190825
4356274000 0.929929 0.178504
4368272000 0.925752 0.16341
4380270000 0.925141 0.146371
4392268000 0.921592 0.125697
4404266000 0.921254 0.109072
4416264000 0.920505 0.0876593
4428262000 0.919281 0.0684719
4440260000 0.920442 0.0502939
4452258000 0.925578 0.0328268
4464256000 0.929042 0.0162597
4476254000 0.928734 0.00127734
4488252000 0.93096 -0.011137
4500250000 0.930871 -0.021968
4512248000 0.930585 -0.0367377
4524246000 0.933355 -0.0457434
4536244000 0.933006 -0.0552652
4548242000 0.930788 -0.0660675
4560240000 0.931688 -0.0680056
4572238000 0.926685 -0.0788809
4584236000 0.924986 -0.083589
4596234000 0.920141 -0.0937983
4608232000 0.915363 -0.10177
4620230000 0.908703 -0.115491
4632228000 0.900415 -0.132868
4644226000 0.89153 -0.148207
4656224000 0.880627 -0.165976
4668222000 0.871988 -0.182749
4680220000 0.860646 -0.202403
4692218000 0.857871 -0.221853
4704216000 0.844594 -0.240682
4716214000 0.834806 -0.258277
4728212000 0.823143 -0.273719
4740210000 0.813562 -0.293393
4752208000 0.798363 -0.31167
4764206000 0.789332 -0.329362
4776204000 0.77898 -0.34415
4788202000 0.771483 -0.359498
4800200000 0.757882 -0.375973
4812198000 0.750665 -0.392404
4824196000 0.740984 -0.405
4836194000 0.727649 -0.41381
4848192000 0.715697 -0.425814
4860190000 0.699257 -0.434391
4872188000 0.683475 -0.443138
4884186000 0.662412 -0.450072
4896184000 0.644475 -0.460156
4908182000 0.624352 -0.47046
4920180000 0.597187 -0.47624
4932178000 0.571659 -0.489587
4944176000 0.542029 -0.494837
4956174000 0.514665 -0.503754
4968172000 0.478221 -0.505156
4980170000 0.445749 -0.50915
4992168000 0.412074 -0.510695
5004166000 0.378346 -0.511293
5016164000 0.341827 -0.513488
5028162000 0.306637 -0.510284
5040160000 0.270061 -0.504371
5052158000 0.235141 -0.498561
5064156000 0.201108 -0.484709
5076154000 0.170298 -0.470938
5088152000 0.137409 -0.457467
5100150000 0.107407 -0.434997
5112148000 0.0856346 -0.409556
5124146000 0.0589511 -0.385244
5136144000 0.0363132 -0.351558
5148142000 0.0178186 -0.319224
5160140000 0.00116518 -0.277456
5172138000 -0.0048477 -0.238929
5184136000 -0.00956141 -0.194245
5196134000 -0.0138107 -0.14604
5208132000 -0.010978 -0.0953292
5220130000 -0.0102766 -0.0503346
5232128000 -0.00660142 -0.00128121
5244126000 -0.00242896 0.0452464
5256124000 0.00808934 0.0868274
5268122000 0.0161571 0.136181
5280120000 0.0370318 0.166432
5292118000 0.0581915 0.198369
5304116000 0.0905078 0.224093
5316114000 0.121111 0.242722
5328112000 0.159014 0.261188
5340110000 0.198972 0.2786
5352108000 0.228511 0.287174
5364106000 0.269389 0.300335
5376104000 0.301581 0.306046
5388102000 0.335593 0.311853
5400100000 0.366356 0.311284
5412098000 0.398804 0.310728
5424096000 0.428394 0.306614
5436094000 0.457435 0.303427
5448092000 0.483628 0.296454
5460090000 0.511429 0.288985
5472088000 0.537511 0.278059
5484086000 0.563549 0.267669
5496084000 0.589978 0.253219
5508082000 0.613768 0.241472
5520080000 0.635068 0.226648
5532078000 0.657202 0.214118
5544076000 0.67688 0.199294
5556074000 0.69574 0.185326
5568072000 0.708801 0.176726
5580070000 0.727088 0.163216
5592068000 0.738455 0.149357
5604066000 0.754759 0.135982
5616064000 0.76181 0.12401
5628062000 0.771454 0.109465
5640060000 0.775956 0.0956245
5652058000 0.78235 0.0789972
5664056000 0.789085 0.065254
5676054000 0.796591 0.0519109
5688052000 0.798722 0.0335604
5700050000 0.804759 0.0171355
5712048000 0.807579 0.00101846
5724046000 0.813181 -0.0163929
5736044000 0.819568 -0.0328378
5748042000 0.823342 -0.0493875
5760040000 0.825617 -0.0656644
5772038000 0.830704 -0.0822473
5784036000 0.835587 -0.0956345
5796034000 0.838358 -0.112206
5808032000 0.844967 -0.123588
5820030000 0.847453 -0.143878
5832028000 0.85421 -0.156606
5844026000 0.856472 -0.171038
5856024000 0.859524 -0.185772
5868022000 0.857135 -0.207513
5880020000 0.854245 -0.217442
5892018000 0.858359 -0.230641
5904016000 0.854157 -0.248752
5916014000 0.852551 -0.268625
5928012000 0.850734 -0.28986
5940010000 0.847165 -0.301245
5952008000 0.838536 -0.310903
5964006000 0.82883 -0.328618
5976004000 0.825607 -0.342475
5988002000 0.818959 -0.358162
6000000000 0.809203 -0.372565
