# Hz S RI R 50
1000000 0.990572 0.00196314
12998000 1.01494 -0.0584981
24996000 1.00995 -0.127618
36994000 0.996391 -0.193261
48992000 0.979203 -0.256849
60990000 0.958842 -0.316459
72988000 0.933591 -0.375194
84986000 0.905813 -0.431064
96984000 0.874694 -0.484746
108982000 0.841111 -0.536695
120980000 0.805702 -0.58605
132978000 0.768616 -0.632508
144976000 0.72955 -0.677404
156974000 0.6886 -0.720169
168972000 0.647028 -0.759552
180970000 0.603699 -0.796037
192968000 0.559498 -0.829264
204966000 0.514052 -0.860381
216964000 0.468016 -0.887482
228962000 0.421054 -0.911155
240960000 0.37549 -0.931241
252958000 0.329001 -0.947901
264956000 0.282559 -0.961619
276954000 0.236213 -0.972513
288952000 0.191301 -0.979675
300950000 0.146221 -0.984836
312948000 0.102618 -0.987745
324946000 0.0609231 -0.988362
336944000 0.0200023 -0.987504
348942000 -0.020153 -0.985759
360940000 -0.0603661 -0.982329
372938000 -0.0991153 -0.979262
384936000 -0.13633 -0.975475
396934000 -0.173236 -0.971085
408932000 -0.209754 -0.966199
420930000 -0.244759 -0.960724
432928000 -0.280583 -0.953625
444926000 -0.313959 -0.944842
456924000 -0.34632 -0.936431
468922000 -0.378561 -0.926607
480920000 -0.408305 -0.915327
492918000 -0.437024 -0.902294
504916000 -0.464788 -0.888321
516914000 -0.492396 -0.874101
528912000 -0.51767 -0.8577
540910000 -0.542862 -0.840972
552908000 -0.565158 -0.823556
564906000 -0.587168 -0.806018
576904000 -0.608093 -0.788653
588902000 -0.627108 -0.771848
600900000 -0.646286 -0.754293
612898000 -0.663761 -0.737462
624896000 -0.681756 -0.720484
636894000 -0.699714 -0.703755
648892000 -0.71698 -0.687744
660890000 -0.733631 -0.672033
672888000 -0.750979 -0.655834
684886000 -0.767581 -0.639598
696884000 -0.784154 -0.622037
708882000 -0.800341 -0.605313
720880000 -0.816333 -0.587469
732878000 -0.829434 -0.568312
744876000 -0.842855 -0.549667
756874000 -0.855831 -0.531057
768872000 -0.867819 -0.510895
780870000 -0.87876 -0.490869
792868000 -0.88802 -0.471164
804866000 -0.896442 -0.451048
816864000 -0.905505 -0.432098
828862000 -0.912608 -0.41366
840860000 -0.919573 -0.395346
852858000 -0.924357 -0.378
864856000 -0.931522 -0.360541
876854000 -0.937175 -0.342449
888852000 -0.94387 -0.32596
900850000 -0.949099 -0.309021
912848000 -0.954974 -0.292994
924846000 -0.960311 -0.277145
936844000 -0.965833 -0.261703
948842000 -0.972442 -0.247252
960840000 -0.978656 -0.233571
972838000 -0.984546 -0.218329
984836000 -0.989739 -0.202684
996834000 -0.993559 -0.187098
1008832000 -0.996986 -0.172071
1020830000 -1.00019 -0.156535
1032828000 -1.00318 -0.139591
1044826000 -1.00537 -0.123709
1056824000 -1.00737 -0.107586
1068822000 -1.00915 -0.0898339
1080820000 -1.00912 -0.0732414
1092818000 -1.00876 -0.0556748
1104816000 -1.00837 -0.0390271
1116814000 -1.00764 -0.0222382
1128812000 -1.00873 -0.00738739
1140810000 -1.00639 0.00840742
1152808000 -1.00616 0.0223818
1164806000 -1.0065 0.0369626
1176804000 -1.00882 0.0531501
1188802000 -1.00422 0.0683333
1200800000 -1.00277 0.0795295
1212798000 -1.00298 0.091255
1224796000 -1.00159 0.103637
1236794000 -1.002 0.115574
1248792000 -1.00084 0.126903
1260790000 -1.00022 0.138414
1272788000 -0.999732 0.14967
1284786000 -0.996895 0.160499
1296784000 -0.992807 0.172235
1308782000 -0.990184 0.185252
1320780000 -0.987708 0.198789
1332778000 -0.984923 0.212553
1344776000 -0.982399 0.226554
1356774000 -0.97993 0.241151
1368772000 -0.9776 0.253305
1380770000 -0.97382 0.267162
1392768000 -0.969275 0.282499
1404766000 -0.964693 0.298493
1416764000 -0.959953 0.313623
1428762000 -0.953938 0.327962
1440760000 -0.948448 0.343319
1452758000 -0.94398 0.355626
1464756000 -0.939643 0.368169
1476754000 -0.935846 0.381128
1488752000 -0.931063 0.392112
1500750000 -0.926665 0.403771
1512748000 -0.91878 0.412148
1524746000 -0.912615 0.421036
1536744000 -0.906619 0.430319
1548742000 -0.89967 0.440439
1560740000 -0.89411 0.449747
1572738000 -0.889297 0.460423
1584736000 -0.885112 0.47061
1596734000 -0.881542 0.481352
1608732000 -0.876949 0.49289
1620730000 -0.872829 0.502995
1632728000 -0.867954 0.513731
1644726000 -0.862337 0.525523
1656724000 -0.855881 0.536372
1668722000 -0.850159 0.546943
1680720000 -0.843363 0.558376
1692718000 -0.839323 0.568016
1704716000 -0.833075 0.576984
1716714000 -0.828228 0.584708
1728712000 -0.820483 0.595394
1740710000 -0.812033 0.605963
1752708000 -0.802898 0.615189
1764706000 -0.793164 0.622565
1776704000 -0.783498 0.63123
1788702000 -0.77406 0.638467
1800700000 -0.764316 0.647988
1812698000 -0.750897 0.655223
1824696000 -0.743604 0.664402
1836694000 -0.734456 0.672039
1848692000 -0.726327 0.681741
1860690000 -0.717694 0.691669
1872688000 -0.709448 0.701554
1884686000 -0.700742 0.711476
1896684000 -0.693761 0.720682
1908682000 -0.684639 0.732342
1920680000 -0.677696 0.743329
1932678000 -0.669471 0.754476
1944676000 -0.663026 0.761204
1956674000 -0.657165 0.771179
1968672000 -0.651281 0.780598
1980670000 -0.644735 0.78581
1992668000 -0.642059 0.791114
2004666000 -0.636752 0.795719
2016664000 -0.632128 0.798428
2028662000 -0.625389 0.801048
2040660000 -0.61811 0.803529
2052658000 -0.61115 0.805279
2064656000 -0.602936 0.806949
2076654000 -0.592587 0.810912
2088652000 -0.581323 0.813
2100650000 -0.570587 0.816563
2112648000 -0.555563 0.822346
2124646000 -0.542952 0.828445
2136644000 -0.528939 0.836984
2148642000 -0.514575 0.848051
2160640000 -0.500263 0.85653
2172638000 -0.49027 0.867055
2184636000 -0.480109 0.878418
2196634000 -0.4701 0.88935
2208632000 -0.464368 0.901531
2220630000 -0.459463 0.908331
2232628000 -0.455879 0.915219
2244626000 -0.455653 0.920257
2256624000 -0.453239 0.923336
2268622000 -0.447462 0.926573
2280620000 -0.445382 0.927433
2292618000 -0.441991 0.930035
2304616000 -0.437442 0.930067
2316614000 -0.430637 0.929677
2328612000 -0.419546 0.929759
2340610000 -0.406504 0.929126
2352608000 -0.390301 0.929973
2364606000 -0.375093 0.930011
2376604000 -0.358185 0.932205
2388602000 -0.342014 0.933253
2400600000 -0.323784 0.938132
2412598000 -0.307145 0.941478
2424596000 -0.290789 0.948399
2436594000 -0.27542 0.954714
2448592000 -0.26216 0.95903
2460590000 -0.248377 0.966741
2472588000 -0.237783 0.974525
2484586000 -0.23076 0.980748
2496584000 -0.222116 0.988816
2508582000 -0.21242 0.993031
2520580000 -0.204394 0.998805
2532578000 -0.198324 1.00269
2544576000 -0.192788 1.00818
2556574000 -0.184847 1.00834
2568572000 -0.177462 1.01148
2580570000 -0.167446 1.01053
2592568000 -0.160925 1.00845
2604566000 -0.158028 1.00444
2616564000 -0.143601 1.00097
2628562000 -0.133953 1.00111
2640560000 -0.124716 0.994715
2652558000 -0.113429 0.991142
2664556000 -0.0996966 0.990497
2676554000 -0.0884787 0.989182
2688552000 -0.0773076 0.985865
2700550000 -0.0638275 0.989026
2712548000 -0.0508457 0.986255
2724546000 -0.0374521 0.988516
2736544000 -0.0265857 0.992512
2748542000 -0.0138028 0.994972
2760540000 -0.00287029 0.997919
2772538000 0.00829444 1.00117
2784536000 0.0183095 1.00465
2796534000 0.0287119 1.00615
2808532000 0.035824 1.00822
2820530000 0.0456114 1.0087
2832528000 0.0531486 1.01016
2844526000 0.0614187 1.00937
2856524000 0.0699186 1.00632
2868522000 0.0773726 1.0029
2880520000 0.0845291 0.999893
2892518000 0.0932414 0.995013
2904516000 0.100858 0.993379
2916514000 0.109397 0.990032
2928512000 0.117332 0.985504
2940510000 0.120622 0.98491
2952508000 0.13251 0.979042
2964506000 0.143205 0.975677
2976504000 0.154699 0.972624
2988502000 0.164876 0.972706
3000500000 0.172116 0.972386
3012498000 0.190657 0.972852
3024496000 0.195244 0.971423
3036494000 0.208643 0.971238
3048492000 0.21927 0.970667
3060490000 0.228616 0.969826
3072488000 0.235853 0.968144
3084486000 0.244745 0.967303
3096484000 0.252873 0.96468
3108482000 0.259968 0.962314
3120480000 0.267202 0.961064
3132478000 0.273673 0.956233
3144476000 0.282691 0.951724
3156474000 0.290074 0.951428
3168472000 0.29783 0.946872
3180470000 0.306337 0.942826
3192468000 0.315364 0.938488
3204466000 0.324729 0.932328
3216464000 0.334163 0.927736
3228462000 0.345547 0.923509
3240460000 0.3562 0.918562
3252458000 0.369089 0.91531
3264456000 0.379582 0.913287
3276454000 0.387691 0.909976
3288452000 0.400519 0.904789
3300450000 0.40529 0.896722
3312448000 0.420762 0.894205
3324446000 0.42794 0.887583
3336444000 0.438568 0.884053
3348442000 0.447726 0.878215
3360440000 0.457144 0.872332
3372438000 0.466226 0.866034
3384436000 0.477392 0.860324
3396434000 0.482285 0.853013
3408432000 0.494732 0.847216
3420430000 0.504488 0.841136
3432428000 0.512611 0.833788
3444426000 0.52549 0.827434
3456424000 0.537889 0.820561
3468422000 0.545215 0.81285
3480420000 0.556317 0.806639
3492418000 0.566682 0.801577
3504416000 0.576315 0.793872
3516414000 0.586135 0.787284
3528412000 0.595654 0.782258
3540410000 0.602928 0.77686
3552408000 0.611116 0.772119
3564406000 0.621348 0.76862
3576404000 0.624742 0.759216
3588402000 0.63176 0.755949
3600400000 0.638861 0.747821
3612398000 0.645049 0.740284
3624396000 0.651847 0.732604
3636394000 0.659904 0.725384
3648392000 0.666344 0.718842
3660390000 0.674287 0.711999
3672388000 0.679369 0.704181
3684386000 0.689493 0.692882
3696384000 0.696869 0.685631
3708382000 0.703479 0.679364
3720380000 0.713836 0.668383
3732378000 0.722122 0.658046
3744376000 0.727461 0.649716
3756374000 0.735997 0.640309
3768372000 0.742954 0.632063
3780370000 0.750967 0.621631
3792368000 0.756119 0.617173
3804366000 0.765266 0.608857
3816364000 0.767915 0.599416
3828362000 0.773671 0.59557
3840360000 0.776126 0.592012
3852358000 0.781265 0.582831
3864356000 0.787037 0.57563
3876354000 0.788632 0.569588
3888352000 0.792403 0.563275
3900350000 0.797656 0.558282
3912348000 0.801024 0.551971
3924346000 0.805874 0.546722
3936344000 0.80879 0.53978
3948342000 0.811505 0.534485
3960340000 0.809025 0.530512
3972338000 0.816016 0.524432
3984336000 0.821657 0.512204
3996334000 0.827301 0.504196
4008332000 0.830216 0.495739
4020330000 0.835126 0.488642
4032328000 0.842708 0.478692
4044326000 0.846823 0.468596
4056324000 0.853388 0.457401
4068322000 0.855762 0.444738
4080320000 0.85964 0.430954
4092318000 0.866012 0.416833
4104316000 0.871566 0.398788
4116314000 0.876865 0.378098
4128312000 0.882244 0.363318
4140310000 0.888999 0.342426
4152308000 0.895079 0.325462
4164306000 0.902135 0.308539
4176304000 0.907099 0.2963
4188302000 0.913672 0.284586
4200300000 0.916916 0.278594
4212298000 0.91612 0.272411
4224296000 0.918029 0.271353
4236294000 0.920509 0.263782
4248292000 0.920789 0.263745
4260290000 0.928116 0.259338
4272288000 0.92732 0.256899
4284286000 0.928557 0.250958
4296284000 0.930543 0.242128
4308282000 0.928985 0.231326
4320280000 0.929322 0.219084
4332278000 0.930745 0.20008
4344276000 0.929592 0.190565
4356274000 0.931841 0.175125
4368272000 0.924456 0.163161
4380270000 0.925344 0.146413
4392268000 0.921755 0.125658
4404266000 0.921662 0.10931
4416264000 0.921488 0.087785
4428262000 0.919222 0.0692135
4440260000 0.921562 0.0503862
4452258000 0.925597 0.032095
4464256000 0.928242 0.0159303
4476254000 0.929995 -0.000223079
4488252000 0.931176 -0.0113095
4500250000 0.930452 -0.020874
4512248000 0.930726 -0.0364138
4524246000 0.933981 -0.0456027
4536244000 0.934349 -0.054825
4548242000 0.933549 -0.0639485
4560240000 0.932747 -0.0699314
4572238000 0.928373 -0.0777247
4584236000 0.927671 -0.0835851
4596234000 0.920815 -0.0942831
4608232000 0.915237 -0.104619
4620230000 0.907535 -0.117208
4632228000 0.900823 -0.131703
4644226000 0.890003 -0.149521
4656224000 0.879264 -0.167747
4668222000 0.871752 -0.183032
4680220000 0.860529 -0.202324
4692218000 0.85768 -0.222123
4704216000 0.844896 -0.240376
4716214000 0.834896 -0.257808
4728212000 0.824719 -0.27397
4740210000 0.812829 -0.29128
4752208000 0.799476 -0.312691
4764206000 0.789843 -0.327848
4776204000 0.778527 -0.344678
4788202000 0.771381 -0.359859
4800200000 0.757925 -0.375396
4812198000 0.751025 -0.391634
4824196000 0.741318 -0.405594
4836194000 0.727498 -0.412714
4848192000 0.714277 -0.426316
4860190000 0.701292 -0.430942
4872188000 0.683227 -0.442655
4884186000 0.664847 -0.448833
4896184000 0.644083 -0.457606
4908182000 0.622752 -0.471587
4920180000 0.595715 -0.477289
4932178000 0.571497 -0.489847
4944176000 0.542396 -0.494314
4956174000 0.515106 -0.503256
4968172000 0.478707 -0.505216
4980170000 0.446374 -0.508726
4992168000 0.413395 -0.510864
5004166000 0.376899 -0.51154
5016164000 0.341177 -0.513356
5028162000 0.307506 -0.5103
5040160000 0.270554 -0.503946
5052158000 0.235252 -0.498248
5064156000 0.201039 -0.484714
5076154000 0.170876 -0.47116
5088152000 0.137371 -0.4572
5100150000 0.10994 -0.435164
5112148000 0.0863139 -0.410493
5124146000 0.0587551 -0.385156
5136144000 0.0364747 -0.352142
5148142000 0.0186319 -0.319524
5160140000 0.00166685 -0.277729
5172138000 -0.00468987 -0.238607
5184136000 -0.00935761 -0.194075
5196134000 -0.0142933 -0.146079
5208132000 -0.0113557 -0.0959054
5220130000 -0.010366 -0.0505196
5232128000 -0.00649867 -0.00140966
5244126000 -0.00226888 0.0450651
5256124000 0.00799849 0.0867963
5268122000 0.016215 0.135994
5280120000 0.0369006 0.166221
5292118000 0.0582814 0.198222
5304116000 0.0903894 0.223914
5316114000 0.120913 0.24414
5328112000 0.157799 0.26166
5340110000 0.197663 0.277868
5352108000 0.229449 0.287644
5364106000 0.268762 0.300657
5376104000 0.302571 0.305493
5388102000 0.334796 0.309986
5400100000 0.36734 0.311169
5412098000 0.397101 0.310538
5424096000 0.428078 0.307667
5436094000 0.457554 0.303351
5448092000 0.483228 0.296735
5460090000 0.511093 0.289366
5472088000 0.53754 0.278251
5484086000 0.563328 0.268638
5496084000 0.589399 0.253845
5508082000 0.614378 0.241337
5520080000 0.635195 0.226244
5532078000 0.656811 0.214835
5544076000 0.676435 0.199207
5556074000 0.695363 0.184535
5568072000 0.709053 0.175838
5580070000 0.726563 0.162494
5592068000 0.738059 0.146978
5604066000 0.756068 0.133734
5616064000 0.757498 0.118748
5628062000 0.771121 0.106996
5640060000 0.777397 0.097562
5652058000 0.784628 0.0814903
5664056000 0.790267 0.0675298
5676054000 0.794948 0.0498779
5688052000 0.799445 0.0333379
5700050000 0.804428 0.0180185
5712048000 0.808372 0.00116811
5724046000 0.813268 -0.016389
5736044000 0.819441 -0.0334584
5748042000 0.822137 -0.0479934
5760040000 0.8259 -0.0659839
5772038000 0.830458 -0.0821759
5784036000 0.834509 -0.0962276
5796034000 0.83902 -0.113426
5808032000 0.844501 -0.123786
5820030000 0.847256 -0.143818
5832028000 0.853955 -0.156358
5844026000 0.856088 -0.170945
5856024000 0.860061 -0.184583
5868022000 0.858075 -0.206053
5880020000 0.853525 -0.215591
5892018000 0.857808 -0.232415
5904016000 0.856654 -0.252262
5916014000 0.856059 -0.27212
5928012000 0.84636 -0.287228
5940010000 0.844616 -0.298715
5952008000 0.839903 -0.313612
5964006000 0.827331 -0.328109
5976004000 0.825641 -0.344925
5988002000 0.817783 -0.357739
6000000000 0.809474 -0.372054
