# Hz S RI R 50
1000000 0.988303 -0.00394811
12998000 1.01526 -0.0583964
24996000 1.00988 -0.128009
36994000 0.996493 -0.193436
48992000 0.979323 -0.25673
60990000 0.958796 -0.316459
72988000 0.933655 -0.375464
84986000 0.90582 -0.431416
96984000 0.874672 -0.485034
108982000 0.841028 -0.537075
120980000 0.805724 -0.586416
132978000 0.7687 -0.632793
144976000 0.729754 -0.677534
156974000 0.68918 -0.720304
168972000 0.647267 -0.759567
180970000 0.604256 -0.796164
192968000 0.559818 -0.829129
204966000 0.514524 -0.860374
216964000 0.468477 -0.887655
228962000 0.421456 -0.911204
240960000 0.375194 -0.931741
252958000 0.328855 -0.948023
264956000 0.282474 -0.961793
276954000 0.235851 -0.972859
288952000 0.191096 -0.980001
300950000 0.146234 -0.985335
312948000 0.102474 -0.987933
324946000 0.0607633 -0.988604
336944000 0.0195486 -0.987735
348942000 -0.0203815 -0.986023
360940000 -0.0606569 -0.982535
372938000 -0.09936 -0.979407
384936000 -0.136357 -0.97565
396934000 -0.173021 -0.971106
408932000 -0.209838 -0.966417
420930000 -0.244805 -0.960997
432928000 -0.280399 -0.953593
444926000 -0.313985 -0.945145
456924000 -0.346753 -0.936323
468922000 -0.378367 -0.92699
480920000 -0.408451 -0.915583
492918000 -0.437046 -0.902496
504916000 -0.464732 -0.888631
516914000 -0.49258 -0.874197
528912000 -0.517415 -0.857752
540910000 -0.542922 -0.841161
552908000 -0.565313 -0.823677
564906000 -0.587598 -0.806689
576904000 -0.607947 -0.789416
588902000 -0.627539 -0.771975
600900000 -0.646125 -0.754061
612898000 -0.6638 -0.737612
624896000 -0.681863 -0.720712
636894000 -0.699646 -0.703754
648892000 -0.716983 -0.687879
660890000 -0.733834 -0.67212
672888000 -0.751127 -0.65593
684886000 -0.767465 -0.639418
696884000 -0.784107 -0.621489
708882000 -0.800167 -0.604747
720880000 -0.816355 -0.587878
732878000 -0.829349 -0.568658
744876000 -0.842834 -0.550257
756874000 -0.855909 -0.531289
768872000 -0.868161 -0.510996
780870000 -0.878766 -0.490961
792868000 -0.888275 -0.47107
804866000 -0.896709 -0.451641
816864000 -0.905274 -0.432548
828862000 -0.913676 -0.414055
840860000 -0.920321 -0.394939
852858000 -0.92455 -0.378759
864856000 -0.93176 -0.360711
876854000 -0.936952 -0.342387
888852000 -0.944091 -0.325775
900850000 -0.949616 -0.308646
912848000 -0.954991 -0.292904
924846000 -0.960526 -0.277195
936844000 -0.966291 -0.261356
948842000 -0.972478 -0.246712
960840000 -0.978992 -0.233298
972838000 -0.984467 -0.218068
984836000 -0.990138 -0.202483
996834000 -0.993765 -0.187461
1008832000 -0.996756 -0.172269
1020830000 -1.00062 -0.156237
1032828000 -1.00316 -0.139621
1044826000 -1.00571 -0.123884
1056824000 -1.00725 -0.107637
1068822000 -1.00923 -0.0901719
1080820000 -1.00889 -0.071541
1092818000 -1.0097 -0.0551636
1104816000 -1.00856 -0.0386144
1116814000 -1.00773 -0.0221682
1128812000 -1.00912 -0.00740837
1140810000 -1.00665 0.00860797
1152808000 -1.00711 0.0224123
1164806000 -1.00667 0.0374569
1176804000 -1.00907 0.0529675
1188802000 -1.00445 0.0687641
1200800000 -1.00344 0.0788277
1212798000 -1.00296 0.0912205
1224796000 -1.00246 0.103603
1236794000 -1.00255 0.115569
1248792000 -1.00127 0.127159
1260790000 -1.00146 0.138164
1272788000 -0.99987 0.149882
1284786000 -0.996867 0.160508
1296784000 -0.992932 0.172032
1308782000 -0.990539 0.185044
1320780000 -0.987939 0.198535
1332778000 -0.985424 0.211975
1344776000 -0.982525 0.226506
1356774000 -0.979916 0.240965
1368772000 -0.977921 0.253031
1380770000 -0.974368 0.268754
1392768000 -0.970321 0.282688
1404766000 -0.965247 0.299095
1416764000 -0.960004 0.313639
1428762000 -0.954066 0.328507
1440760000 -0.949438 0.343055
1452758000 -0.94445 0.355689
1464756000 -0.940185 0.368439
1476754000 -0.935901 0.381398
1488752000 -0.93143 0.392068
1500750000 -0.927346 0.403841
1512748000 -0.918863 0.412203
1524746000 -0.912903 0.42143
1536744000 -0.907496 0.4309
1548742000 -0.900459 0.440588
1560740000 -0.894831 0.450241
1572738000 -0.889591 0.46019
1584736000 -0.885449 0.470873
1596734000 -0.881578 0.481593
1608732000 -0.877173 0.493104
1620730000 -0.872994 0.503105
1632728000 -0.867807 0.514461
1644726000 -0.863195 0.525018
1656724000 -0.855764 0.537006
1668722000 -0.849727 0.54684
1680720000 -0.844508 0.558969
1692718000 -0.839442 0.567064
1704716000 -0.833145 0.577513
1716714000 -0.826284 0.584744
1728712000 -0.820363 0.594999
1740710000 -0.811637 0.6056
1752708000 -0.802984 0.615308
1764706000 -0.792777 0.623035
1776704000 -0.783427 0.631487
1788702000 -0.774129 0.638354
1800700000 -0.763124 0.645967
1812698000 -0.75168 0.654347
1824696000 -0.74407 0.664468
1836694000 -0.734642 0.673352
1848692000 -0.725881 0.682951
1860690000 -0.716704 0.692452
1872688000 -0.709438 0.701573
1884686000 -0.700778 0.711368
1896684000 -0.693506 0.720799
1908682000 -0.684448 0.73267
1920680000 -0.677897 0.743491
1932678000 -0.670089 0.752514
1944676000 -0.661833 0.762421
1956674000 -0.655729 0.771928
1968672000 -0.65142 0.779421
1980670000 -0.646334 0.788382
1992668000 -0.641243 0.789473
2004666000 -0.63506 0.794816
2016664000 -0.631635 0.79852
2028662000 -0.625184 0.8016
2040660000 -0.618828 0.804252
2052658000 -0.610903 0.805834
2064656000 -0.602687 0.807256
2076654000 -0.59232 0.811597
2088652000 -0.581278 0.812995
2100650000 -0.570712 0.814098
2112648000 -0.556459 0.821085
2124646000 -0.542818 0.829195
2136644000 -0.529363 0.836293
2148642000 -0.514753 0.847779
2160640000 -0.500769 0.856714
2172638000 -0.490296 0.866737
2184636000 -0.479621 0.878836
2196634000 -0.469608 0.889916
2208632000 -0.463676 0.901262
2220630000 -0.458163 0.909268
2232628000 -0.456684 0.915427
2244626000 -0.455912 0.920437
2256624000 -0.454516 0.925012
2268622000 -0.447209 0.927101
2280620000 -0.444946 0.928318
2292618000 -0.441996 0.931036
2304616000 -0.437184 0.930595
2316614000 -0.430971 0.930053
2328612000 -0.419524 0.929982
2340610000 -0.406906 0.929898
2352608000 -0.390179 0.930089
2364606000 -0.372953 0.930917
2376604000 -0.358494 0.932102
2388602000 -0.339623 0.936172
2400600000 -0.32367 0.937863
2412598000 -0.306937 0.943145
2424596000 -0.290764 0.948602
2436594000 -0.275961 0.954912
2448592000 -0.261914 0.95919
2460590000 -0.248323 0.966953
2472588000 -0.238215 0.974628
2484586000 -0.230339 0.981401
2496584000 -0.222344 0.988339
2508582000 -0.212696 0.993448
2520580000 -0.204419 1.00141
2532578000 -0.198099 1.00279
2544576000 -0.193288 1.00713
2556574000 -0.185188 1.00828
2568572000 -0.176992 1.01101
2580570000 -0.167318 1.00989
2592568000 -0.161514 1.0081
2604566000 -0.15054 1.00557
2616564000 -0.143692 1.00176
2628562000 -0.133997 1.0018
2640560000 -0.121588 0.995151
2652558000 -0.112589 0.993191
2664556000 -0.101306 0.991317
2676554000 -0.0891769 0.990688
2688552000 -0.0771982 0.988289
2700550000 -0.063356 0.986551
2712548000 -0.049811 0.987165
2724546000 -0.0378679 0.988406
2736544000 -0.026252 0.993133
2748542000 -0.0139938 0.994605
2760540000 -0.00304962 0.99811
2772538000 0.00825419 1.00162
2784536000 0.0188798 1.00499
2796534000 0.0282397 1.00635
2808532000 0.0361959 1.00714
2820530000 0.0453306 1.00881
2832528000 0.0543992 1.01007
2844526000 0.0631285 1.0094
2856524000 0.0711266 1.0052
2868522000 0.0782707 1.00404
2880520000 0.0850446 1.00082
2892518000 0.0935482 0.995193
2904516000 0.101414 0.993586
2916514000 0.109337 0.98973
2928512000 0.117401 0.986059
2940510000 0.121962 0.984171
2952508000 0.132473 0.979196
2964506000 0.143583 0.976652
2976504000 0.155566 0.972933
2988502000 0.166491 0.973828
3000500000 0.176707 0.970763
3012498000 0.190929 0.972008
3024496000 0.194622 0.971999
3036494000 0.208995 0.97117
3048492000 0.219834 0.970684
3060490000 0.229376 0.969966
3072488000 0.237882 0.968082
3084486000 0.245384 0.966392
3096484000 0.254757 0.964935
3108482000 0.259441 0.962345
3120480000 0.269678 0.962203
3132478000 0.272659 0.955595
3144476000 0.284287 0.951361
3156474000 0.292339 0.95107
3168472000 0.297826 0.948171
3180470000 0.306439 0.942961
3192468000 0.315768 0.938198
3204466000 0.324697 0.932846
3216464000 0.334381 0.928112
3228462000 0.345774 0.92286
3240460000 0.356604 0.919258
3252458000 0.369156 0.915557
3264456000 0.380034 0.912019
3276454000 0.387916 0.909603
3288452000 0.399209 0.903768
3300450000 0.4069 0.89904
3312448000 0.419703 0.893978
3324446000 0.427595 0.887404
3336444000 0.438776 0.883806
3348442000 0.447397 0.877775
3360440000 0.45673 0.873288
3372438000 0.465232 0.865437
3384436000 0.475362 0.861829
3396434000 0.483371 0.853661
3408432000 0.49503 0.845652
3420430000 0.507156 0.841854
3432428000 0.513655 0.833712
3444426000 0.52763 0.826401
3456424000 0.53778 0.82053
3468422000 0.544726 0.813092
3480420000 0.556447 0.806241
3492418000 0.567222 0.801105
3504416000 0.577326 0.794891
3516414000 0.586659 0.786731
3528412000 0.597283 0.780179
3540410000 0.604155 0.777716
3552408000 0.611058 0.771181
3564406000 0.619987 0.768307
3576404000 0.625731 0.757255
3588402000 0.632606 0.754685
3600400000 0.638189 0.746505
3612398000 0.645561 0.739735
3624396000 0.652378 0.732343
3636394000 0.659918 0.725351
3648392000 0.667661 0.717932
3660390000 0.673826 0.710551
3672388000 0.681551 0.702728
3684386000 0.690422 0.693634
3696384000 0.697853 0.688084
3708382000 0.705084 0.677628
3720380000 0.714189 0.668268
3732378000 0.72194 0.66015
3744376000 0.726579 0.651228
3756374000 0.73672 0.640043
3768372000 0.743365 0.631828
3780370000 0.751763 0.621093
3792368000 0.756294 0.615683
3804366000 0.764288 0.607235
3816364000 0.769218 0.598648
3828362000 0.774632 0.594614
3840360000 0.78021 0.589758
3852358000 0.783666 0.580899
3864356000 0.786058 0.574907
3876354000 0.787953 0.570765
3888352000 0.793137 0.564246
3900350000 0.797937 0.557663
3912348000 0.801315 0.551897
3924346000 0.806253 0.546201
3936344000 0.808745 0.540346
3948342000 0.812079 0.533251
3960340000 0.811311 0.529074
3972338000 0.815645 0.524349
3984336000 0.821533 0.510495
3996334000 0.825733 0.504725
4008332000 0.830519 0.496278
4020330000 0.839085 0.489739
4032328000 0.844437 0.477126
4044326000 0.848216 0.468318
4056324000 0.85308 0.457586
4068322000 0.855728 0.444687
4080320000 0.859915 0.431067
4092318000 0.86574 0.41584
4104316000 0.871756 0.39763
4116314000 0.876769 0.377832
4128312000 0.884031 0.362283
4140310000 0.888322 0.343108
4152308000 0.895308 0.325159
4164306000 0.901814 0.308469
4176304000 0.907006 0.296323
4188302000 0.913936 0.284533
4200300000 0.919288 0.277357
4212298000 0.91676 0.272628
4224296000 0.917811 0.270987
4236294000 0.920075 0.264127
4248292000 0.918313 0.265554
4260290000 0.92807 0.256374
4272288000 0.924472 0.254695
4284286000 0.929903 0.249234
4296284000 0.930804 0.24162
4308282000 0.929456 0.22967
4320280000 0.931396 0.216789
4332278000 0.932202 0.201552
4344276000 0.929503 0.190022
4356274000 0.930637 0.177762
4368272000 0.925289 0.163869
4380270000 0.925569 0.14597
4392268000 0.921981 0.125667
4404266000 0.921849 0.109373
4416264000 0.92033 0.0871866
4428262000 0.92119 0.0685505
4440260000 0.921154 0.0489085
4452258000 0.926594 0.0329486
4464256000 0.92901 0.0159275
4476254000 0.929645 0.000623337
4488252000 0.93177 -0.011481
4500250000 0.931112 -0.0208608
4512248000 0.931044 -0.0367275
4524246000 0.933359 -0.0459503
4536244000 0.934643 -0.0555008
4548242000 0.932384 -0.0660524
4560240000 0.93198 -0.0720869
4572238000 0.92945 -0.0785185
4584236000 0.927474 -0.0874911
4596234000 0.920947 -0.0949717
4608232000 0.914924 -0.102257
4620230000 0.907445 -0.115995
4632228000 0.898701 -0.132682
4644226000 0.892015 -0.148007
4656224000 0.879902 -0.167306
4668222000 0.871841 -0.183086
4680220000 0.86038 -0.203134
4692218000 0.857707 -0.222561
4704216000 0.84539 -0.240828
4716214000 0.835332 -0.258473
4728212000 0.824127 -0.27497
4740210000 0.81314 -0.293083
4752208000 0.800047 -0.31212
4764206000 0.789404 -0.328729
4776204000 0.779231 -0.344651
4788202000 0.771531 -0.359679
4800200000 0.758098 -0.376418
4812198000 0.751341 -0.392953
4824196000 0.742344 -0.405214
4836194000 0.727188 -0.414707
4848192000 0.716802 -0.425869
4860190000 0.700173 -0.434128
4872188000 0.68491 -0.443764
4884186000 0.665282 -0.449069
4896184000 0.642503 -0.45963
4908182000 0.623429 -0.47099
4920180000 0.59657 -0.477859
4932178000 0.571929 -0.489829
4944176000 0.542211 -0.495121
4956174000 0.514873 -0.50396
4968172000 0.479906 -0.506132
4980170000 0.446975 -0.508883
4992168000 0.412163 -0.509877
5004166000 0.378005 -0.511681
5016164000 0.341333 -0.513241
5028162000 0.308331 -0.510642
5040160000 0.270403 -0.503946
5052158000 0.235554 -0.498687
5064156000 0.201264 -0.485182
5076154000 0.17105 -0.472555
5088152000 0.138312 -0.457828
5100150000 0.108323 -0.435658
5112148000 0.0868268 -0.412271
5124146000 0.0599581 -0.386078
5136144000 0.0357958 -0.353034
5148142000 0.018268 -0.32008
5160140000 0.00160878 -0.277987
5172138000 -0.00480893 -0.239332
5184136000 -0.00970504 -0.194563
5196134000 -0.0137516 -0.146246
5208132000 -0.0113225 -0.0963691
5220130000 -0.0104039 -0.0511261
5232128000 -0.00670502 -0.00167981
5244126000 -0.0027615 0.0444619
5256124000 0.00769583 0.0864566
5268122000 0.0193564 0.130925
5280120000 0.036724 0.166044
5292118000 0.0579786 0.198125
5304116000 0.0900339 0.223958
5316114000 0.120698 0.243748
5328112000 0.156411 0.262625
5340110000 0.198981 0.277589
5352108000 0.227339 0.28932
5364106000 0.26858 0.301235
5376104000 0.301093 0.304233
5388102000 0.334377 0.310987
5400100000 0.36691 0.310702
5412098000 0.396743 0.31143
5424096000 0.427628 0.306756
5436094000 0.457233 0.303504
5448092000 0.483195 0.296803
5460090000 0.510851 0.288956
5472088000 0.537726 0.279029
5484086000 0.562956 0.269117
5496084000 0.59003 0.253101
5508082000 0.613307 0.241276
5520080000 0.63433 0.226639
5532078000 0.657481 0.215406
5544076000 0.675956 0.1996
5556074000 0.695948 0.185128
5568072000 0.709447 0.175592
5580070000 0.726528 0.162378
5592068000 0.736933 0.148372
5604066000 0.754577 0.136906
5616064000 0.759733 0.121211
5628062000 0.771584 0.107913
5640060000 0.778146 0.0969055
5652058000 0.783236 0.0807461
5664056000 0.790054 0.0655249
5676054000 0.796916 0.0525993
5688052000 0.798345 0.0327775
5700050000 0.803821 0.0172497
5712048000 0.807814 0.000949447
5724046000 0.813293 -0.0163837
5736044000 0.819821 -0.0329684
5748042000 0.82345 -0.0480563
5760040000 0.825624 -0.0667956
5772038000 0.830058 -0.082426
5784036000 0.834528 -0.0960098
5796034000 0.839609 -0.11221
5808032000 0.844781 -0.122671
5820030000 0.848343 -0.143794
5832028000 0.854266 -0.156113
5844026000 0.85601 -0.169966
5856024000 0.859134 -0.184488
5868022000 0.858738 -0.207443
5880020000 0.855899 -0.219026
5892018000 0.861395 -0.233989
5904016000 0.85515 -0.251115
5916014000 0.851926 -0.272016
5928012000 0.850332 -0.28598
5940010000 0.846647 -0.300468
5952008000 0.840359 -0.313292
5964006000 0.830021 -0.327806
5976004000 0.826947 -0.344196
5988002000 0.818152 -0.358644
6000000000 0.809119 -0.373288
