# Hz S RI R 50
1000000 0.989641 0.00179657
12998000 1.01508 -0.058958
24996000 1.00968 -0.127608
36994000 0.996185 -0.193234
48992000 0.979191 -0.256439
60990000 0.958707 -0.316194
72988000 0.933719 -0.374826
84986000 0.905814 -0.430601
96984000 0.874692 -0.484427
108982000 0.841151 -0.536478
120980000 0.805784 -0.585872
132978000 0.768494 -0.632641
144976000 0.729649 -0.677189
156974000 0.689296 -0.719867
168972000 0.647071 -0.75949
180970000 0.603962 -0.795938
192968000 0.559478 -0.829154
204966000 0.514174 -0.860376
216964000 0.468238 -0.887294
228962000 0.421304 -0.911063
240960000 0.375232 -0.931404
252958000 0.328874 -0.947787
264956000 0.282697 -0.961581
276954000 0.236439 -0.972308
288952000 0.191374 -0.979667
300950000 0.146799 -0.98525
312948000 0.102806 -0.987886
324946000 0.0610771 -0.988498
336944000 0.0201897 -0.987362
348942000 -0.0200699 -0.985946
360940000 -0.0600939 -0.982317
372938000 -0.098766 -0.979006
384936000 -0.136003 -0.975386
396934000 -0.172938 -0.971031
408932000 -0.209513 -0.966125
420930000 -0.244349 -0.960652
432928000 -0.280002 -0.953394
444926000 -0.313869 -0.944497
456924000 -0.346205 -0.935984
468922000 -0.37883 -0.926474
480920000 -0.408158 -0.915309
492918000 -0.436628 -0.90233
504916000 -0.464409 -0.888467
516914000 -0.492133 -0.87418
528912000 -0.517531 -0.857851
540910000 -0.541979 -0.84132
552908000 -0.56528 -0.823811
564906000 -0.587024 -0.806234
576904000 -0.607763 -0.788968
588902000 -0.627709 -0.771297
600900000 -0.645953 -0.754303
612898000 -0.663587 -0.737483
624896000 -0.681703 -0.720567
636894000 -0.699645 -0.703691
648892000 -0.716933 -0.687533
660890000 -0.733904 -0.671869
672888000 -0.750867 -0.655408
684886000 -0.767758 -0.639429
696884000 -0.784047 -0.621873
708882000 -0.800368 -0.604525
720880000 -0.815789 -0.587645
732878000 -0.829573 -0.568223
744876000 -0.842557 -0.549966
756874000 -0.855951 -0.530986
768872000 -0.868034 -0.511021
780870000 -0.87885 -0.490752
792868000 -0.88774 -0.471278
804866000 -0.896286 -0.451225
816864000 -0.905456 -0.431827
828862000 -0.912941 -0.414407
840860000 -0.919439 -0.395683
852858000 -0.924451 -0.379336
864856000 -0.932005 -0.360902
876854000 -0.937172 -0.342589
888852000 -0.94389 -0.325937
900850000 -0.949439 -0.309051
912848000 -0.954938 -0.292908
924846000 -0.96062 -0.277057
936844000 -0.96594 -0.261877
948842000 -0.972252 -0.247733
960840000 -0.978527 -0.233347
972838000 -0.984548 -0.218504
984836000 -0.989876 -0.20212
996834000 -0.993563 -0.187037
1008832000 -0.996813 -0.172289
1020830000 -1.00054 -0.155932
1032828000 -1.00293 -0.139841
1044826000 -1.00527 -0.123838
1056824000 -1.00708 -0.10751
1068822000 -1.00893 -0.0899818
1080820000 -1.00829 -0.0723471
1092818000 -1.00954 -0.0555359
1104816000 -1.0082 -0.0379665
1116814000 -1.00801 -0.0221505
1128812000 -1.00762 -0.0074836
1140810000 -1.00612 0.00836246
1152808000 -1.00667 0.0225534
1164806000 -1.00645 0.0367882
1176804000 -1.00909 0.0529376
1188802000 -1.00426 0.0684516
1200800000 -1.00264 0.078596
1212798000 -1.00271 0.0912666
1224796000 -1.00115 0.103875
1236794000 -1.0018 0.115228
1248792000 -1.00052 0.126891
1260790000 -1.00106 0.137654
1272788000 -0.99942 0.149466
1284786000 -0.99731 0.160435
1296784000 -0.992853 0.170996
1308782000 -0.990258 0.185126
1320780000 -0.987594 0.198731
1332778000 -0.985057 0.212074
1344776000 -0.981928 0.226112
1356774000 -0.980014 0.240801
1368772000 -0.977196 0.253418
1380770000 -0.973899 0.268533
1392768000 -0.969734 0.282461
1404766000 -0.964534 0.297949
1416764000 -0.959678 0.313963
1428762000 -0.955222 0.32817
1440760000 -0.94882 0.343424
1452758000 -0.944235 0.354665
1464756000 -0.939487 0.368255
1476754000 -0.935528 0.380793
1488752000 -0.931174 0.391863
1500750000 -0.926417 0.402447
1512748000 -0.918904 0.411909
1524746000 -0.913243 0.420512
1536744000 -0.906878 0.430164
1548742000 -0.900008 0.439745
1560740000 -0.894228 0.449666
1572738000 -0.889445 0.459416
1584736000 -0.885259 0.470375
1596734000 -0.881255 0.48139
1608732000 -0.876855 0.492872
1620730000 -0.872588 0.502778
1632728000 -0.867728 0.513809
1644726000 -0.862304 0.52532
1656724000 -0.855988 0.536563
1668722000 -0.848816 0.547018
1680720000 -0.844052 0.557806
1692718000 -0.838981 0.567576
1704716000 -0.833555 0.575407
1716714000 -0.827836 0.582891
1728712000 -0.82117 0.593486
1740710000 -0.811864 0.605164
1752708000 -0.802731 0.615322
1764706000 -0.793205 0.622556
1776704000 -0.783413 0.630906
1788702000 -0.77366 0.637882
1800700000 -0.763636 0.647914
1812698000 -0.751553 0.654076
1824696000 -0.742975 0.664529
1836694000 -0.734812 0.673123
1848692000 -0.725538 0.682463
1860690000 -0.717468 0.692126
1872688000 -0.709162 0.700923
1884686000 -0.700792 0.711
1896684000 -0.693663 0.720677
1908682000 -0.684964 0.731829
1920680000 -0.67803 0.742712
1932678000 -0.670169 0.753366
1944676000 -0.662375 0.761778
1956674000 -0.655394 0.771594
1968672000 -0.652254 0.778053
1980670000 -0.645955 0.785786
1992668000 -0.642837 0.790998
2004666000 -0.636445 0.795524
2016664000 -0.631491 0.798669
2028662000 -0.626348 0.800246
2040660000 -0.619127 0.80423
2052658000 -0.611408 0.80502
2064656000 -0.602763 0.806741
2076654000 -0.591959 0.810983
2088652000 -0.582279 0.812665
2100650000 -0.569979 0.816091
2112648000 -0.556527 0.822099
2124646000 -0.542187 0.828898
2136644000 -0.528035 0.8369
2148642000 -0.513879 0.845996
2160640000 -0.500004 0.855746
2172638000 -0.49038 0.866786
2184636000 -0.479558 0.878734
2196634000 -0.469875 0.889925
2208632000 -0.463657 0.901233
2220630000 -0.458037 0.907738
2232628000 -0.455619 0.916299
2244626000 -0.454262 0.920779
2256624000 -0.453768 0.92448
2268622000 -0.447501 0.926107
2280620000 -0.445301 0.928622
2292618000 -0.442799 0.930798
2304616000 -0.438208 0.929568
2316614000 -0.431001 0.929484
2328612000 -0.419441 0.929343
2340610000 -0.406421 0.929681
2352608000 -0.390076 0.929769
2364606000 -0.375411 0.930498
2376604000 -0.35799 0.931763
2388602000 -0.340902 0.934687
2400600000 -0.324954 0.937962
2412598000 -0.307113 0.943507
2424596000 -0.291896 0.948764
2436594000 -0.275163 0.954545
2448592000 -0.263136 0.959019
2460590000 -0.24856 0.966632
2472588000 -0.237616 0.974487
2484586000 -0.229914 0.981098
2496584000 -0.221205 0.990461
2508582000 -0.215637 0.993253
2520580000 -0.204161 1.0003
2532578000 -0.200136 1.00261
2544576000 -0.193544 1.00744
2556574000 -0.186302 1.00719
2568572000 -0.17818 1.01048
2580570000 -0.167612 1.00943
2592568000 -0.161744 1.00845
2604566000 -0.151151 1.00501
2616564000 -0.143498 1.00175
2628562000 -0.133606 1.00005
2640560000 -0.1248 0.993659
2652558000 -0.112684 0.992281
2664556000 -0.101841 0.990921
2676554000 -0.0893959 0.988638
2688552000 -0.0786147 0.986702
2700550000 -0.0635053 0.987921
2712548000 -0.0508544 0.986963
2724546000 -0.037541 0.987446
2736544000 -0.0264686 0.992648
2748542000 -0.014353 0.994808
2760540000 -0.00312829 0.997687
2772538000 0.00783601 1.00132
2784536000 0.0187499 1.00481
2796534000 0.0282632 1.00616
2808532000 0.033826 1.00695
2820530000 0.0443378 1.00757
2832528000 0.0535268 1.00981
2844526000 0.0620845 1.00959
2856524000 0.069518 1.00616
2868522000 0.0775477 1.00353
2880520000 0.0847551 1.00033
2892518000 0.0928088 0.994808
2904516000 0.100639 0.993508
2916514000 0.108516 0.98986
2928512000 0.117225 0.985517
2940510000 0.119411 0.983671
2952508000 0.132389 0.979503
2964506000 0.143373 0.97478
2976504000 0.153632 0.974626
2988502000 0.166252 0.971821
3000500000 0.173512 0.970724
3012498000 0.19005 0.973153
3024496000 0.193839 0.972317
3036494000 0.207446 0.970641
3048492000 0.218822 0.970854
3060490000 0.228859 0.969885
3072488000 0.236527 0.968906
3084486000 0.245333 0.967504
3096484000 0.253255 0.964587
3108482000 0.25968 0.963219
3120480000 0.26751 0.959489
3132478000 0.273611 0.956165
3144476000 0.285027 0.951586
3156474000 0.293036 0.949143
3168472000 0.295589 0.948329
3180470000 0.305975 0.943012
3192468000 0.31547 0.938113
3204466000 0.324458 0.932373
3216464000 0.334101 0.927654
3228462000 0.346699 0.922802
3240460000 0.35708 0.918594
3252458000 0.368187 0.914256
3264456000 0.379597 0.912398
3276454000 0.388247 0.909762
3288452000 0.399128 0.904808
3300450000 0.405484 0.897522
3312448000 0.418769 0.893783
3324446000 0.427279 0.887463
3336444000 0.438264 0.884026
3348442000 0.44742 0.877918
3360440000 0.457387 0.872741
3372438000 0.466475 0.865584
3384436000 0.474036 0.859167
3396434000 0.483301 0.850029
3408432000 0.492429 0.846272
3420430000 0.50622 0.841208
3432428000 0.513469 0.833986
3444426000 0.526909 0.827541
3456424000 0.538128 0.820648
3468422000 0.545111 0.81315
3480420000 0.556297 0.806608
3492418000 0.566484 0.801018
3504416000 0.575243 0.795414
3516414000 0.58647 0.786853
3528412000 0.593386 0.781926
3540410000 0.6028 0.776255
3552408000 0.610531 0.770914
3564406000 0.617848 0.766649
3576404000 0.625438 0.757994
3588402000 0.631242 0.754815
3600400000 0.638519 0.746528
3612398000 0.645177 0.740163
3624396000 0.652098 0.732269
3636394000 0.66007 0.724923
3648392000 0.666166 0.717456
3660390000 0.672453 0.712887
3672388000 0.678758 0.703618
3684386000 0.689347 0.69345
3696384000 0.698095 0.68598
3708382000 0.704777 0.676872
3720380000 0.713668 0.668185
3732378000 0.721146 0.658379
3744376000 0.727348 0.650164
3756374000 0.736629 0.639716
3768372000 0.74349 0.631766
3780370000 0.750782 0.621577
3792368000 0.755932 0.617001
3804366000 0.765259 0.609685
3816364000 0.767492 0.599456
3828362000 0.773849 0.594127
3840360000 0.776606 0.592789
3852358000 0.782142 0.581269
3864356000 0.785903 0.575907
3876354000 0.789114 0.570116
3888352000 0.793287 0.563178
3900350000 0.797122 0.557632
3912348000 0.80097 0.551752
3924346000 0.805745 0.545748
3936344000 0.808715 0.540601
3948342000 0.811444 0.533624
3960340000 0.810266 0.530011
3972338000 0.815503 0.524123
3984336000 0.81951 0.511045
3996334000 0.82667 0.505589
4008332000 0.83156 0.495632
4020330000 0.837 0.487682
4032328000 0.843327 0.478129
4044326000 0.847736 0.467915
4056324000 0.852975 0.457181
4068322000 0.85566 0.444322
4080320000 0.859966 0.430896
4092318000 0.865825 0.416868
4104316000 0.871277 0.397581
4116314000 0.876398 0.376736
4128312000 0.883094 0.361519
4140310000 0.889671 0.342921
4152308000 0.894905 0.324768
4164306000 0.901921 0.30973
4176304000 0.907604 0.296335
4188302000 0.912672 0.285042
4200300000 0.917529 0.278529
4212298000 0.916184 0.272442
4224296000 0.917944 0.270991
4236294000 0.920367 0.264697
4248292000 0.92296 0.266165
4260290000 0.927961 0.255814
4272288000 0.925494 0.257038
4284286000 0.928011 0.249631
4296284000 0.928842 0.243828
4308282000 0.929621 0.22935
4320280000 0.929368 0.214642
4332278000 0.927638 0.204241
4344276000 0.929658 0.191004
4356274000 0.930034 0.176983
4368272000 0.925105 0.163553
4380270000 0.925257 0.146416
4392268000 0.921554 0.125537
4404266000 0.920892 0.110204
4416264000 0.921039 0.0871038
4428262000 0.922617 0.0685141
4440260000 0.920966 0.0492213
4452258000 0.926944 0.032194
4464256000 0.927079 0.0155882
4476254000 0.928215 0.00126351
4488252000 0.931886 -0.011213
4500250000 0.930412 -0.0209997
4512248000 0.930695 -0.036082
4524246000 0.932941 -0.0455539
4536244000 0.934592 -0.0553246
4548242000 0.931208 -0.0647846
4560240000 0.931357 -0.0709086
4572238000 0.928633 -0.0791257
4584236000 0.927256 -0.0839015
4596234000 0.923532 -0.094115
4608232000 0.913918 -0.101449
4620230000 0.906561 -0.113293
4632228000 0.900066 -0.1308
4644226000 0.891057 -0.149065
4656224000 0.880082 -0.166861
4668222000 0.872326 -0.182488
4680220000 0.860413 -0.202344
4692218000 0.857805 -0.221474
4704216000 0.845287 -0.239382
4716214000 0.835673 -0.257786
4728212000 0.821674 -0.273585
4740210000 0.812698 -0.290832
4752208000 0.800226 -0.311422
4764206000 0.790391 -0.328362
4776204000 0.779386 -0.344641
4788202000 0.771314 -0.359705
4800200000 0.758396 -0.374884
4812198000 0.751174 -0.391786
4824196000 0.742712 -0.404385
4836194000 0.725725 -0.412278
4848192000 0.713136 -0.425179
4860190000 0.700778 -0.434084
4872188000 0.686621 -0.442462
4884186000 0.663394 -0.450306
4896184000 0.6433 -0.459739
4908182000 0.623646 -0.471718
4920180000 0.596952 -0.477217
4932178000 0.572609 -0.489103
4944176000 0.542579 -0.494355
4956174000 0.515082 -0.503002
4968172000 0.479447 -0.504532
4980170000 0.446475 -0.508004
4992168000 0.411553 -0.510136
5004166000 0.377921 -0.510863
5016164000 0.341497 -0.512775
5028162000 0.307675 -0.510585
5040160000 0.270325 -0.503619
5052158000 0.235419 -0.498315
5064156000 0.201195 -0.484904
5076154000 0.170495 -0.471622
5088152000 0.138359 -0.457367
5100150000 0.109317 -0.434581
5112148000 0.086587 -0.410314
5124146000 0.0599658 -0.386035
5136144000 0.0367068 -0.352307
5148142000 0.0184185 -0.319536
5160140000 0.00158965 -0.277562
5172138000 -0.00470791 -0.238461
5184136000 -0.00957829 -0.194269
5196134000 -0.0143697 -0.146433
5208132000 -0.0113605 -0.0959091
5220130000 -0.0100914 -0.0504733
5232128000 -0.00652392 -0.00170354
5244126000 -0.00246596 0.0449237
5256124000 0.00785049 0.0865928
5268122000 0.0194353 0.131334
5280120000 0.0368323 0.166425
5292118000 0.0581969 0.198228
5304116000 0.0903964 0.223356
5316114000 0.120786 0.243491
5328112000 0.157725 0.261257
5340110000 0.197682 0.27721
5352108000 0.228916 0.287044
5364106000 0.266948 0.299966
5376104000 0.302856 0.305062
5388102000 0.334832 0.31061
5400100000 0.366033 0.310442
5412098000 0.396406 0.31096
5424096000 0.428059 0.307041
5436094000 0.457403 0.303476
5448092000 0.483089 0.296644
5460090000 0.510894 0.288933
5472088000 0.536749 0.278754
5484086000 0.563117 0.268211
5496084000 0.58981 0.254476
5508082000 0.6145 0.241995
5520080000 0.63459 0.227677
5532078000 0.657581 0.215101
5544076000 0.676357 0.199587
5556074000 0.695628 0.185281
5568072000 0.709263 0.177804
5580070000 0.725293 0.162794
5592068000 0.738568 0.148055
5604066000 0.754488 0.135266
5616064000 0.761427 0.12172
5628062000 0.775138 0.108443
5640060000 0.774731 0.0987512
5652058000 0.784784 0.080939
5664056000 0.788319 0.0651028
5676054000 0.797604 0.0488746
5688052000 0.799639 0.0338569
5700050000 0.804926 0.0177991
5712048000 0.808437 0.000594836
5724046000 0.813095 -0.0162851
5736044000 0.819784 -0.0329674
5748042000 0.822626 -0.0493513
5760040000 0.825223 -0.0663531
5772038000 0.829128 -0.0818907
5784036000 0.835135 -0.096888
5796034000 0.83875 -0.111626
5808032000 0.84447 -0.12334
5820030000 0.847647 -0.144023
5832028000 0.853816 -0.156345
5844026000 0.856168 -0.16971
5856024000 0.859482 -0.184924
5868022000 0.85888 -0.206504
5880020000 0.851686 -0.215961
5892018000 0.858048 -0.230275
5904016000 0.853364 -0.25136
5916014000 0.857136 -0.266812
5928012000 0.84969 -0.2868
5940010000 0.84654 -0.297066
5952008000 0.838725 -0.314294
5964006000 0.828204 -0.325674
5976004000 0.825862 -0.343439
5988002000 0.819016 -0.358812
6000000000 0.809534 -0.372614
