# Hz S RI R 50
1000000 0.987151 -0.00338927
12998000 1.01541 -0.0578
24996000 1.01029 -0.126743
36994000 0.996765 -0.192625
48992000 0.979535 -0.255936
60990000 0.959181 -0.315823
72988000 0.934169 -0.374536
84986000 0.906263 -0.430567
96984000 0.875079 -0.484393
108982000 0.841574 -0.536309
120980000 0.806224 -0.585661
132978000 0.768969 -0.632276
144976000 0.730319 -0.67697
156974000 0.689595 -0.719826
168972000 0.647344 -0.75886
180970000 0.604544 -0.795692
192968000 0.560454 -0.828856
204966000 0.514857 -0.859932
216964000 0.468886 -0.887382
228962000 0.422005 -0.911152
240960000 0.375905 -0.931457
252958000 0.329229 -0.948029
264956000 0.283213 -0.961815
276954000 0.236965 -0.972683
288952000 0.191899 -0.980019
300950000 0.146738 -0.985255
312948000 0.103027 -0.987917
324946000 0.061222 -0.988642
336944000 0.0203262 -0.987579
348942000 -0.019783 -0.986114
360940000 -0.0598097 -0.982679
372938000 -0.0985432 -0.979406
384936000 -0.135575 -0.975748
396934000 -0.172506 -0.971324
408932000 -0.20958 -0.96658
420930000 -0.244444 -0.960967
432928000 -0.2803 -0.953552
444926000 -0.313786 -0.945179
456924000 -0.346096 -0.936664
468922000 -0.378322 -0.927141
480920000 -0.408084 -0.915604
492918000 -0.436674 -0.902542
504916000 -0.464218 -0.888924
516914000 -0.491977 -0.87467
528912000 -0.517344 -0.858401
540910000 -0.541875 -0.841638
552908000 -0.565176 -0.824137
564906000 -0.58744 -0.807291
576904000 -0.607851 -0.789206
588902000 -0.627583 -0.772631
600900000 -0.64622 -0.754294
612898000 -0.663617 -0.737713
624896000 -0.681681 -0.720944
636894000 -0.699516 -0.704088
648892000 -0.717249 -0.687975
660890000 -0.733657 -0.672329
672888000 -0.751166 -0.655735
684886000 -0.767588 -0.639873
696884000 -0.784449 -0.621626
708882000 -0.800022 -0.605237
720880000 -0.815882 -0.587629
732878000 -0.829771 -0.568824
744876000 -0.843042 -0.550307
756874000 -0.855884 -0.531293
768872000 -0.868026 -0.5114
780870000 -0.878648 -0.491248
792868000 -0.888007 -0.471484
804866000 -0.896391 -0.451533
816864000 -0.905283 -0.432815
828862000 -0.913181 -0.415055
840860000 -0.919244 -0.396699
852858000 -0.924322 -0.379366
864856000 -0.931396 -0.360391
876854000 -0.937106 -0.342648
888852000 -0.944292 -0.325877
900850000 -0.949375 -0.309174
912848000 -0.955271 -0.293301
924846000 -0.960809 -0.277483
936844000 -0.966284 -0.261937
948842000 -0.972701 -0.247414
960840000 -0.978889 -0.233904
972838000 -0.984354 -0.218618
984836000 -0.989796 -0.202501
996834000 -0.994045 -0.187404
1008832000 -0.996878 -0.172606
1020830000 -1.00092 -0.156804
1032828000 -1.00334 -0.140137
1044826000 -1.00542 -0.124168
1056824000 -1.00749 -0.107575
1068822000 -1.00924 -0.0899494
1080820000 -1.00799 -0.072304
1092818000 -1.00908 -0.0554877
1104816000 -1.00845 -0.0387106
1116814000 -1.00829 -0.0219492
1128812000 -1.00811 -0.00825251
1140810000 -1.00698 0.00833797
1152808000 -1.00668 0.0225821
1164806000 -1.00688 0.0364865
1176804000 -1.00928 0.0525438
1188802000 -1.00467 0.0681223
1200800000 -1.00336 0.0788213
1212798000 -1.0031 0.0908505
1224796000 -1.00265 0.10246
1236794000 -1.0017 0.114878
1248792000 -1.00081 0.12587
1260790000 -1.00089 0.136646
1272788000 -1.00007 0.149202
1284786000 -0.997593 0.160183
1296784000 -0.993562 0.171845
1308782000 -0.99078 0.184738
1320780000 -0.987882 0.198314
1332778000 -0.985381 0.211715
1344776000 -0.982309 0.225901
1356774000 -0.979996 0.240277
1368772000 -0.977538 0.252691
1380770000 -0.973863 0.266797
1392768000 -0.96944 0.281883
1404766000 -0.964961 0.297696
1416764000 -0.960342 0.313833
1428762000 -0.954767 0.32765
1440760000 -0.949239 0.342488
1452758000 -0.944051 0.355523
1464756000 -0.940484 0.367653
1476754000 -0.936154 0.380532
1488752000 -0.931232 0.391709
1500750000 -0.926387 0.404407
1512748000 -0.918881 0.411995
1524746000 -0.91314 0.421101
1536744000 -0.907223 0.42986
1548742000 -0.90057 0.439239
1560740000 -0.893938 0.449591
1572738000 -0.889808 0.459623
1584736000 -0.885453 0.470135
1596734000 -0.881418 0.481237
1608732000 -0.877257 0.492552
1620730000 -0.87289 0.50302
1632728000 -0.868183 0.514096
1644726000 -0.862481 0.525907
1656724000 -0.855688 0.536032
1668722000 -0.850373 0.547155
1680720000 -0.844365 0.557819
1692718000 -0.839781 0.56697
1704716000 -0.834693 0.576002
1716714000 -0.82618 0.583728
1728712000 -0.821853 0.593653
1740710000 -0.812147 0.605282
1752708000 -0.803393 0.61502
1764706000 -0.793604 0.62208
1776704000 -0.784141 0.630696
1788702000 -0.774399 0.638194
1800700000 -0.764532 0.646387
1812698000 -0.7525 0.654335
1824696000 -0.744649 0.663385
1836694000 -0.735032 0.672094
1848692000 -0.726345 0.682556
1860690000 -0.71885 0.691427
1872688000 -0.709655 0.700795
1884686000 -0.701586 0.711061
1896684000 -0.693907 0.720449
1908682000 -0.684709 0.732262
1920680000 -0.678675 0.74285
1932678000 -0.670777 0.753884
1944676000 -0.662279 0.761828
1956674000 -0.658485 0.769923
1968672000 -0.652373 0.779379
1980670000 -0.644979 0.786514
1992668000 -0.643066 0.789745
2004666000 -0.637313 0.793809
2016664000 -0.632176 0.798681
2028662000 -0.627066 0.800387
2040660000 -0.620024 0.803885
2052658000 -0.611793 0.805081
2064656000 -0.603503 0.806748
2076654000 -0.592936 0.81117
2088652000 -0.581323 0.813227
2100650000 -0.569753 0.816838
2112648000 -0.556484 0.82184
2124646000 -0.543266 0.830131
2136644000 -0.529285 0.837675
2148642000 -0.515253 0.846824
2160640000 -0.500374 0.856304
2172638000 -0.490691 0.866723
2184636000 -0.480287 0.878373
2196634000 -0.47045 0.889985
2208632000 -0.464485 0.900579
2220630000 -0.458169 0.907465
2232628000 -0.456669 0.915963
2244626000 -0.454962 0.919595
2256624000 -0.452077 0.92362
2268622000 -0.447902 0.926176
2280620000 -0.444732 0.928753
2292618000 -0.443035 0.929495
2304616000 -0.437626 0.930547
2316614000 -0.431669 0.929564
2328612000 -0.419619 0.929477
2340610000 -0.407451 0.929305
2352608000 -0.391831 0.929378
2364606000 -0.375762 0.932048
2376604000 -0.360523 0.932988
2388602000 -0.342574 0.93126
2400600000 -0.323498 0.939002
2412598000 -0.308009 0.943513
2424596000 -0.291304 0.947973
2436594000 -0.276309 0.954204
2448592000 -0.263683 0.958846
2460590000 -0.248915 0.966529
2472588000 -0.23842 0.974451
2484586000 -0.231389 0.98082
2496584000 -0.223921 0.988082
2508582000 -0.213219 0.993005
2520580000 -0.204346 0.999427
2532578000 -0.199092 1.00282
2544576000 -0.193454 1.00841
2556574000 -0.185033 1.00691
2568572000 -0.179731 1.01118
2580570000 -0.169458 1.01006
2592568000 -0.162746 1.00821
2604566000 -0.152112 1.00494
2616564000 -0.14431 1.00147
2628562000 -0.134733 0.999769
2640560000 -0.125053 0.994364
2652558000 -0.11226 0.992521
2664556000 -0.100788 0.991479
2676554000 -0.0906638 0.989623
2688552000 -0.0785732 0.988811
2700550000 -0.0644158 0.986271
2712548000 -0.0514926 0.985062
2724546000 -0.0384714 0.987932
2736544000 -0.0272368 0.992741
2748542000 -0.0151012 0.995001
2760540000 -0.00390876 0.998105
2772538000 0.00746892 1.00142
2784536000 0.0171744 1.00482
2796534000 0.0269772 1.00635
2808532000 0.0356208 1.00761
2820530000 0.0433741 1.00891
2832528000 0.0532078 1.00952
2844526000 0.0617377 1.01145
2856524000 0.0683347 1.00684
2868522000 0.0762553 1.00334
2880520000 0.083276 1.00056
2892518000 0.0912753 0.995116
2904516000 0.0993451 0.993878
2916514000 0.10705 0.990158
2928512000 0.115711 0.986045
2940510000 0.119593 0.984023
2952508000 0.131701 0.97956
2964506000 0.143772 0.976494
2976504000 0.153853 0.974375
2988502000 0.164772 0.973612
3000500000 0.174465 0.969514
3012498000 0.189383 0.974035
3024496000 0.193122 0.9722
3036494000 0.207369 0.971383
3048492000 0.218235 0.970828
3060490000 0.227737 0.969825
3072488000 0.236683 0.96773
3084486000 0.244002 0.966652
3096484000 0.251965 0.964694
3108482000 0.260373 0.962942
3120480000 0.268017 0.961453
3132478000 0.272928 0.955775
3144476000 0.283239 0.953213
3156474000 0.289957 0.950328
3168472000 0.296939 0.947941
3180470000 0.305903 0.942429
3192468000 0.314453 0.938889
3204466000 0.32392 0.932695
3216464000 0.333841 0.928325
3228462000 0.344442 0.92317
3240460000 0.356241 0.918839
3252458000 0.367783 0.916187
3264456000 0.37874 0.911998
3276454000 0.387913 0.909882
3288452000 0.398883 0.904635
3300450000 0.404712 0.897909
3312448000 0.418792 0.894903
3324446000 0.426645 0.887224
3336444000 0.438116 0.884501
3348442000 0.447091 0.878188
3360440000 0.457099 0.873697
3372438000 0.464622 0.86654
3384436000 0.474494 0.862262
3396434000 0.482582 0.853212
3408432000 0.492279 0.846148
3420430000 0.503791 0.842619
3432428000 0.512913 0.834904
3444426000 0.525793 0.82629
3456424000 0.536493 0.820603
3468422000 0.544502 0.813965
3480420000 0.555838 0.807449
3492418000 0.566584 0.801406
3504416000 0.577511 0.795162
3516414000 0.586337 0.787524
3528412000 0.594678 0.785049
3540410000 0.60298 0.776878
3552408000 0.610197 0.771695
3564406000 0.617747 0.766798
3576404000 0.626236 0.759437
3588402000 0.631931 0.757038
3600400000 0.638836 0.747837
3612398000 0.644185 0.740328
3624396000 0.651317 0.732794
3636394000 0.659206 0.725647
3648392000 0.666182 0.719075
3660390000 0.672216 0.710247
3672388000 0.683326 0.703876
3684386000 0.688318 0.694846
3696384000 0.698016 0.687408
3708382000 0.704376 0.67467
3720380000 0.711901 0.668414
3732378000 0.720597 0.660015
3744376000 0.726603 0.650588
3756374000 0.735699 0.640135
3768372000 0.743224 0.632472
3780370000 0.75089 0.621475
3792368000 0.754781 0.616787
3804366000 0.763748 0.608585
3816364000 0.766869 0.599724
3828362000 0.773637 0.594392
3840360000 0.777251 0.592217
3852358000 0.781657 0.583943
3864356000 0.785151 0.575527
3876354000 0.787813 0.569918
3888352000 0.79322 0.563253
3900350000 0.79741 0.558323
3912348000 0.800761 0.552511
3924346000 0.805723 0.546621
3936344000 0.808874 0.541097
3948342000 0.810551 0.534844
3960340000 0.809283 0.530101
3972338000 0.815709 0.52329
3984336000 0.819499 0.511373
3996334000 0.825951 0.504928
4008332000 0.830462 0.496614
4020330000 0.839278 0.487882
4032328000 0.843894 0.478774
4044326000 0.84655 0.469593
4056324000 0.85282 0.457738
4068322000 0.855481 0.445553
4080320000 0.859577 0.431637
4092318000 0.865198 0.417861
4104316000 0.870891 0.397625
4116314000 0.876849 0.379296
4128312000 0.883026 0.36219
4140310000 0.88945 0.342025
4152308000 0.894051 0.327509
4164306000 0.901193 0.309704
4176304000 0.907324 0.29644
4188302000 0.913399 0.285137
4200300000 0.916803 0.278173
4212298000 0.915964 0.273345
4224296000 0.917387 0.272088
4236294000 0.920428 0.264364
4248292000 0.919638 0.266213
4260290000 0.929596 0.256419
4272288000 0.925577 0.257087
4284286000 0.926144 0.249792
4296284000 0.928738 0.241423
4308282000 0.928885 0.232488
4320280000 0.932591 0.217498
4332278000 0.931988 0.206813
4344276000 0.929674 0.192504
4356274000 0.930736 0.178592
4368272000 0.925077 0.163681
4380270000 0.925031 0.147381
4392268000 0.921819 0.12622
4404266000 0.921611 0.110146
4416264000 0.92002 0.0880371
4428262000 0.920317 0.0700447
4440260000 0.922053 0.0517129
4452258000 0.926713 0.0334382
4464256000 0.926966 0.0156098
4476254000 0.929216 0.00182521
4488252000 0.931924 -0.0102672
4500250000 0.930673 -0.0206743
4512248000 0.930818 -0.0353318
4524246000 0.932953 -0.0449611
4536244000 0.933944 -0.0540003
4548242000 0.931743 -0.0654572
4560240000 0.932141 -0.0680594
4572238000 0.928284 -0.0758114
4584236000 0.926431 -0.0852229
4596234000 0.923118 -0.0947249
4608232000 0.912825 -0.099236
4620230000 0.907382 -0.116146
4632228000 0.897631 -0.132401
4644226000 0.891788 -0.148824
4656224000 0.881226 -0.165763
4668222000 0.87249 -0.181904
4680220000 0.860915 -0.201396
4692218000 0.858106 -0.22129
4704216000 0.845153 -0.239834
4716214000 0.836368 -0.257426
4728212000 0.82131 -0.273529
4740210000 0.81229 -0.291833
4752208000 0.801067 -0.309246
4764206000 0.790084 -0.328004
4776204000 0.7796 -0.344572
4788202000 0.771672 -0.358799
4800200000 0.758557 -0.375257
4812198000 0.751919 -0.39123
4824196000 0.740867 -0.403384
4836194000 0.72676 -0.4127
4848192000 0.714858 -0.424924
4860190000 0.701911 -0.432652
4872188000 0.686294 -0.441801
4884186000 0.665256 -0.450482
4896184000 0.644077 -0.460236
4908182000 0.625014 -0.469642
4920180000 0.597724 -0.477773
4932178000 0.572116 -0.489351
4944176000 0.542548 -0.494204
4956174000 0.515131 -0.503308
4968172000 0.480883 -0.503193
4980170000 0.445659 -0.508298
4992168000 0.413947 -0.510039
5004166000 0.378623 -0.509742
5016164000 0.340651 -0.511601
5028162000 0.307647 -0.509035
5040160000 0.270956 -0.502949
5052158000 0.235358 -0.497534
5064156000 0.201238 -0.484125
5076154000 0.171095 -0.471052
5088152000 0.138183 -0.456287
5100150000 0.107736 -0.433073
5112148000 0.0873425 -0.410031
5124146000 0.0608187 -0.385073
5136144000 0.0366918 -0.350766
5148142000 0.0183236 -0.318434
5160140000 0.00169898 -0.276474
5172138000 -0.00452399 -0.23754
5184136000 -0.00921864 -0.192996
5196134000 -0.0140164 -0.144928
5208132000 -0.0110373 -0.0947322
5220130000 -0.00974898 -0.0490784
5232128000 -0.00614696 -0.000233731
5244126000 -0.00186071 0.0460986
5256124000 0.00834638 0.0875794
5268122000 0.020032 0.132101
5280120000 0.0374795 0.16737
5292118000 0.0588279 0.199391
5304116000 0.0913105 0.224224
5316114000 0.122096 0.244049
5328112000 0.158412 0.262379
5340110000 0.198143 0.278147
5352108000 0.22758 0.28928
5364106000 0.268875 0.301121
5376104000 0.302575 0.305919
5388102000 0.334733 0.310772
5400100000 0.368358 0.31047
5412098000 0.397212 0.311735
5424096000 0.427816 0.307484
5436094000 0.457447 0.3041
5448092000 0.483432 0.297218
5460090000 0.511897 0.289499
5472088000 0.537882 0.279254
5484086000 0.563951 0.269181
5496084000 0.59028 0.254284
5508082000 0.613431 0.24203
5520080000 0.633931 0.227719
5532078000 0.656962 0.215903
5544076000 0.676458 0.200037
5556074000 0.695617 0.186593
5568072000 0.709189 0.177208
5580070000 0.726115 0.164552
5592068000 0.739185 0.149695
5604066000 0.755151 0.134744
5616064000 0.759083 0.122406
5628062000 0.770232 0.108897
5640060000 0.77637 0.0994414
5652058000 0.785873 0.0800545
5664056000 0.789513 0.0677735
5676054000 0.79567 0.0514888
5688052000 0.798873 0.0352038
5700050000 0.803416 0.0184834
5712048000 0.808353 0.00224601
5724046000 0.813392 -0.0156142
5736044000 0.819812 -0.032074
5748042000 0.823222 -0.0471538
5760040000 0.824848 -0.0658307
5772038000 0.830541 -0.0807561
5784036000 0.834371 -0.0956866
5796034000 0.839542 -0.110937
5808032000 0.843807 -0.122722
5820030000 0.847859 -0.142488
5832028000 0.854178 -0.155617
5844026000 0.855982 -0.169456
5856024000 0.859765 -0.185354
5868022000 0.857346 -0.207264
5880020000 0.852902 -0.216467
5892018000 0.861318 -0.227865
5904016000 0.854382 -0.248547
5916014000 0.858311 -0.268086
5928012000 0.850391 -0.28685
5940010000 0.847317 -0.296333
5952008000 0.837321 -0.314266
5964006000 0.828297 -0.323234
5976004000 0.826698 -0.344043
5988002000 0.81794 -0.357339
6000000000 0.809404 -0.371685
