# Hz S RI R 50
1000000 0.990945 0.00119801
12998000 1.01496 -0.0583474
24996000 1.00964 -0.127189
36994000 0.996389 -0.192942
48992000 0.979241 -0.256127
60990000 0.958751 -0.315791
72988000 0.933958 -0.3746
84986000 0.906131 -0.430501
96984000 0.874843 -0.484328
108982000 0.841468 -0.536094
120980000 0.805932 -0.585547
132978000 0.768849 -0.631984
144976000 0.729954 -0.676632
156974000 0.689357 -0.719513
168972000 0.647266 -0.75903
180970000 0.604329 -0.795863
192968000 0.559691 -0.829016
204966000 0.514607 -0.860138
216964000 0.468382 -0.887146
228962000 0.421742 -0.910896
240960000 0.37559 -0.93105
252958000 0.32937 -0.947743
264956000 0.282855 -0.961342
276954000 0.23691 -0.972253
288952000 0.191468 -0.979611
300950000 0.146713 -0.985054
312948000 0.103019 -0.987658
324946000 0.0609783 -0.988148
336944000 0.0199937 -0.987707
348942000 -0.0199016 -0.985871
360940000 -0.060087 -0.9823
372938000 -0.098743 -0.979275
384936000 -0.135972 -0.975484
396934000 -0.172934 -0.970959
408932000 -0.209325 -0.966328
420930000 -0.244204 -0.960739
432928000 -0.279626 -0.953582
444926000 -0.313695 -0.944772
456924000 -0.346173 -0.936033
468922000 -0.378464 -0.926607
480920000 -0.407688 -0.915337
492918000 -0.436367 -0.902495
504916000 -0.464525 -0.888384
516914000 -0.492071 -0.874038
528912000 -0.517496 -0.858082
540910000 -0.541889 -0.841566
552908000 -0.564657 -0.824023
564906000 -0.586745 -0.80659
576904000 -0.607622 -0.789313
588902000 -0.627448 -0.772218
600900000 -0.645805 -0.75437
612898000 -0.663292 -0.737708
624896000 -0.681384 -0.721018
636894000 -0.699125 -0.7042
648892000 -0.716584 -0.68819
660890000 -0.733449 -0.672395
672888000 -0.750375 -0.655685
684886000 -0.767018 -0.639787
696884000 -0.783554 -0.622175
708882000 -0.799308 -0.605159
720880000 -0.815701 -0.587357
732878000 -0.829524 -0.568545
744876000 -0.84265 -0.550275
756874000 -0.855185 -0.531582
768872000 -0.867386 -0.511492
780870000 -0.878175 -0.490989
792868000 -0.887692 -0.471714
804866000 -0.895675 -0.451806
816864000 -0.904944 -0.432697
828862000 -0.91277 -0.414855
840860000 -0.919004 -0.396674
852858000 -0.92436 -0.379302
864856000 -0.93145 -0.36084
876854000 -0.936757 -0.342791
888852000 -0.944226 -0.326114
900850000 -0.949103 -0.309188
912848000 -0.954801 -0.293294
924846000 -0.960288 -0.277611
936844000 -0.966231 -0.261984
948842000 -0.972377 -0.247647
960840000 -0.978158 -0.234431
972838000 -0.984124 -0.218274
984836000 -0.98985 -0.202977
996834000 -0.993203 -0.18734
1008832000 -0.996459 -0.172316
1020830000 -1.00015 -0.1566
1032828000 -1.00276 -0.140177
1044826000 -1.00509 -0.123905
1056824000 -1.00731 -0.107933
1068822000 -1.00895 -0.0904976
1080820000 -1.01065 -0.0726999
1092818000 -1.00876 -0.0555898
1104816000 -1.00853 -0.0395021
1116814000 -1.00762 -0.0223836
1128812000 -1.00806 -0.00838485
1140810000 -1.00629 0.00685714
1152808000 -1.00656 0.0217563
1164806000 -1.00649 0.0362321
1176804000 -1.0089 0.0527689
1188802000 -1.00438 0.0682626
1200800000 -1.00261 0.0789821
1212798000 -1.00276 0.0909746
1224796000 -1.00162 0.103615
1236794000 -1.00163 0.115154
1248792000 -1.00055 0.126623
1260790000 -1.00021 0.137606
1272788000 -1.00003 0.149292
1284786000 -0.997362 0.16036
1296784000 -0.993028 0.171245
1308782000 -0.990163 0.184923
1320780000 -0.987475 0.198304
1332778000 -0.984988 0.211693
1344776000 -0.982155 0.225876
1356774000 -0.9796 0.240457
1368772000 -0.976771 0.252191
1380770000 -0.973769 0.267384
1392768000 -0.96927 0.282068
1404766000 -0.964807 0.297556
1416764000 -0.960071 0.314148
1428762000 -0.954519 0.328143
1440760000 -0.949444 0.342147
1452758000 -0.944107 0.355044
1464756000 -0.940304 0.367242
1476754000 -0.935733 0.380644
1488752000 -0.931169 0.391499
1500750000 -0.926866 0.404054
1512748000 -0.9186 0.411688
1524746000 -0.912475 0.42036
1536744000 -0.906441 0.430101
1548742000 -0.899742 0.440717
1560740000 -0.894689 0.450206
1572738000 -0.889547 0.459364
1584736000 -0.885225 0.47031
1596734000 -0.881337 0.481187
1608732000 -0.877111 0.492458
1620730000 -0.872855 0.502701
1632728000 -0.868472 0.51375
1644726000 -0.863012 0.524821
1656724000 -0.856005 0.535601
1668722000 -0.84903 0.546812
1680720000 -0.84438 0.557188
1692718000 -0.839107 0.566765
1704716000 -0.833892 0.575611
1716714000 -0.825978 0.582641
1728712000 -0.820996 0.593162
1740710000 -0.811994 0.605187
1752708000 -0.802702 0.614937
1764706000 -0.793369 0.622077
1776704000 -0.78324 0.630541
1788702000 -0.773652 0.638044
1800700000 -0.762558 0.646967
1812698000 -0.751434 0.654112
1824696000 -0.743323 0.663103
1836694000 -0.734768 0.672918
1848692000 -0.725807 0.682341
1860690000 -0.717952 0.691715
1872688000 -0.709925 0.700993
1884686000 -0.701155 0.710763
1896684000 -0.693943 0.720244
1908682000 -0.684783 0.731597
1920680000 -0.678639 0.74238
1932678000 -0.670154 0.752407
1944676000 -0.661971 0.762118
1956674000 -0.656726 0.771287
1968672000 -0.652552 0.778237
1980670000 -0.645996 0.784569
1992668000 -0.643097 0.789251
2004666000 -0.636314 0.795066
2016664000 -0.632628 0.797868
2028662000 -0.62571 0.79998
2040660000 -0.619558 0.803096
2052658000 -0.611928 0.804478
2064656000 -0.603807 0.806506
2076654000 -0.593212 0.810211
2088652000 -0.582111 0.812815
2100650000 -0.571315 0.814142
2112648000 -0.556881 0.820822
2124646000 -0.543001 0.828963
2136644000 -0.528615 0.837243
2148642000 -0.514148 0.847176
2160640000 -0.500724 0.855217
2172638000 -0.490523 0.866521
2184636000 -0.480054 0.878313
2196634000 -0.46998 0.889501
2208632000 -0.464491 0.900506
2220630000 -0.45946 0.908235
2232628000 -0.457349 0.914763
2244626000 -0.455147 0.91963
2256624000 -0.45404 0.924037
2268622000 -0.448874 0.925746
2280620000 -0.446285 0.926626
2292618000 -0.44394 0.931401
2304616000 -0.437831 0.929997
2316614000 -0.431367 0.929323
2328612000 -0.419734 0.92936
2340610000 -0.407521 0.930002
2352608000 -0.390799 0.929523
2364606000 -0.375734 0.931143
2376604000 -0.360029 0.930956
2388602000 -0.342471 0.933631
2400600000 -0.323632 0.938444
2412598000 -0.307633 0.942619
2424596000 -0.291571 0.948581
2436594000 -0.276211 0.953655
2448592000 -0.262539 0.95849
2460590000 -0.248562 0.96623
2472588000 -0.238193 0.97404
2484586000 -0.230458 0.98065
2496584000 -0.224224 0.988193
2508582000 -0.213104 0.993809
2520580000 -0.204189 0.998618
2532578000 -0.199118 1.00325
2544576000 -0.191737 1.0082
2556574000 -0.185287 1.00792
2568572000 -0.178957 1.01084
2580570000 -0.169097 1.00917
2592568000 -0.162261 1.00771
2604566000 -0.151647 1.00502
2616564000 -0.143702 1.00068
2628562000 -0.133455 0.999295
2640560000 -0.122941 0.993319
2652558000 -0.113044 0.992113
2664556000 -0.101192 0.991057
2676554000 -0.0898492 0.989594
2688552000 -0.0777135 0.985857
2700550000 -0.063267 0.987822
2712548000 -0.0512268 0.986394
2724546000 -0.0383315 0.987826
2736544000 -0.0266104 0.992592
2748542000 -0.0149419 0.99481
2760540000 -0.00400808 0.997971
2772538000 0.00729499 1.0011
2784536000 0.0169242 1.00419
2796534000 0.0267576 1.00543
2808532000 0.0353483 1.00613
2820530000 0.0435477 1.00768
2832528000 0.0527865 1.00986
2844526000 0.0612635 1.00906
2856524000 0.0693131 1.00517
2868522000 0.0764743 1.00313
2880520000 0.082774 0.99983
2892518000 0.0914536 0.994931
2904516000 0.0996071 0.993422
2916514000 0.107962 0.98978
2928512000 0.115291 0.985983
2940510000 0.119057 0.984738
2952508000 0.129528 0.980109
2964506000 0.142504 0.975268
2976504000 0.152647 0.972713
2988502000 0.16585 0.973465
3000500000 0.176422 0.970013
3012498000 0.190562 0.973867
3024496000 0.193354 0.972238
3036494000 0.207548 0.971347
3048492000 0.218339 0.970775
3060490000 0.228046 0.969798
3072488000 0.235746 0.967729
3084486000 0.244495 0.966626
3096484000 0.250882 0.965425
3108482000 0.260757 0.961778
3120480000 0.266554 0.959075
3132478000 0.272213 0.955618
3144476000 0.282292 0.952036
3156474000 0.290324 0.951202
3168472000 0.297585 0.946547
3180470000 0.30495 0.942805
3192468000 0.314559 0.938423
3204466000 0.323899 0.932647
3216464000 0.333759 0.927583
3228462000 0.344322 0.923454
3240460000 0.356369 0.919054
3252458000 0.367003 0.915665
3264456000 0.37896 0.912779
3276454000 0.386887 0.908865
3288452000 0.397678 0.904484
3300450000 0.40473 0.898083
3312448000 0.419126 0.894027
3324446000 0.427117 0.887682
3336444000 0.43797 0.883658
3348442000 0.446543 0.877887
3360440000 0.455499 0.873275
3372438000 0.4657 0.865194
3384436000 0.474638 0.862642
3396434000 0.483483 0.851419
3408432000 0.492708 0.847265
3420430000 0.503631 0.842319
3432428000 0.511419 0.83287
3444426000 0.524746 0.828123
3456424000 0.536336 0.820709
3468422000 0.54479 0.813943
3480420000 0.556055 0.806861
3492418000 0.565936 0.801556
3504416000 0.575203 0.794886
3516414000 0.585806 0.787644
3528412000 0.594941 0.782813
3540410000 0.602806 0.777637
3552408000 0.610607 0.7737
3564406000 0.619932 0.767417
3576404000 0.624712 0.758672
3588402000 0.633711 0.754578
3600400000 0.638736 0.74672
3612398000 0.644346 0.740013
3624396000 0.651628 0.732327
3636394000 0.659112 0.725262
3648392000 0.6659 0.718902
3660390000 0.672631 0.711453
3672388000 0.681669 0.703646
3684386000 0.689757 0.69324
3696384000 0.698607 0.684358
3708382000 0.703518 0.678696
3720380000 0.712523 0.668303
3732378000 0.721431 0.658992
3744376000 0.726983 0.649766
3756374000 0.735631 0.639613
3768372000 0.742823 0.631634
3780370000 0.750843 0.620905
3792368000 0.755228 0.616361
3804366000 0.763742 0.607821
3816364000 0.768072 0.59903
3828362000 0.772582 0.595061
3840360000 0.777142 0.591314
3852358000 0.784486 0.581902
3864356000 0.785399 0.575086
3876354000 0.78752 0.570583
3888352000 0.792248 0.563157
3900350000 0.797782 0.558582
3912348000 0.800659 0.551775
3924346000 0.806012 0.545975
3936344000 0.807798 0.540558
3948342000 0.810163 0.534309
3960340000 0.811033 0.53042
3972338000 0.81597 0.52442
3984336000 0.820519 0.512627
3996334000 0.826708 0.504496
4008332000 0.831788 0.496649
4020330000 0.836427 0.487779
4032328000 0.843045 0.478158
4044326000 0.847432 0.468062
4056324000 0.8531 0.457364
4068322000 0.855288 0.444837
4080320000 0.859802 0.43063
4092318000 0.864704 0.416964
4104316000 0.871158 0.397562
4116314000 0.875912 0.378434
4128312000 0.881624 0.362855
4140310000 0.889743 0.342059
4152308000 0.895686 0.326779
4164306000 0.902308 0.309749
4176304000 0.9084 0.296555
4188302000 0.913019 0.28512
4200300000 0.917446 0.27762
4212298000 0.916051 0.27258
4224296000 0.917709 0.271513
4236294000 0.920547 0.264823
4248292000 0.920767 0.266043
4260290000 0.930214 0.256986
4272288000 0.925965 0.254812
4284286000 0.927225 0.249448
4296284000 0.928233 0.240517
4308282000 0.927889 0.230168
4320280000 0.93225 0.215359
4332278000 0.932034 0.205048
4344276000 0.930157 0.190235
4356274000 0.931998 0.174294
4368272000 0.924772 0.164044
4380270000 0.925133 0.146529
4392268000 0.920939 0.125976
4404266000 0.921836 0.110008
4416264000 0.921035 0.0885615
4428262000 0.920156 0.0680323
4440260000 0.922027 0.0507711
4452258000 0.925615 0.0345681
4464256000 0.929817 0.017473
4476254000 0.927914 0.00128372
4488252000 0.930542 -0.0108314
4500250000 0.930363 -0.0205263
4512248000 0.930555 -0.0357635
4524246000 0.933299 -0.0444582
4536244000 0.933736 -0.0541608
4548242000 0.931946 -0.0650718
4560240000 0.93397 -0.0702081
4572238000 0.930864 -0.0753793
4584236000 0.924589 -0.085977
4596234000 0.921431 -0.0920226
4608232000 0.913449 -0.101299
4620230000 0.906309 -0.113521
4632228000 0.898944 -0.13436
4644226000 0.8905 -0.148454
4656224000 0.880738 -0.166131
4668222000 0.871938 -0.182205
4680220000 0.860549 -0.2019
4692218000 0.857617 -0.221872
4704216000 0.844633 -0.240041
4716214000 0.834926 -0.257477
4728212000 0.824074 -0.273271
4740210000 0.813292 -0.290417
4752208000 0.799634 -0.311135
4764206000 0.789734 -0.327726
4776204000 0.779371 -0.344118
4788202000 0.77139 -0.359034
4800200000 0.758275 -0.375228
4812198000 0.751526 -0.392047
4824196000 0.742128 -0.405064
4836194000 0.728395 -0.413448
4848192000 0.715529 -0.425426
4860190000 0.699738 -0.433198
4872188000 0.685836 -0.442046
4884186000 0.662691 -0.451168
4896184000 0.642878 -0.45949
4908182000 0.626096 -0.470663
4920180000 0.59625 -0.477946
4932178000 0.571145 -0.488736
4944176000 0.542156 -0.494225
4956174000 0.514826 -0.503485
4968172000 0.478733 -0.504697
4980170000 0.446579 -0.508498
4992168000 0.41212 -0.508723
5004166000 0.378832 -0.510881
5016164000 0.341591 -0.511395
5028162000 0.307373 -0.509882
5040160000 0.270173 -0.502828
5052158000 0.235437 -0.497755
5064156000 0.201269 -0.484313
5076154000 0.17092 -0.469978
5088152000 0.137986 -0.455569
5100150000 0.109195 -0.432863
5112148000 0.0869589 -0.409847
5124146000 0.0601149 -0.384567
5136144000 0.0366214 -0.35145
5148142000 0.0185524 -0.318417
5160140000 0.00155902 -0.276582
5172138000 -0.00490598 -0.237716
5184136000 -0.00981305 -0.19294
5196134000 -0.0141436 -0.144746
5208132000 -0.0115055 -0.0947296
5220130000 -0.0101211 -0.0494538
5232128000 -0.00628756 -0.000836596
5244126000 -0.00223484 0.0453738
5256124000 0.00814387 0.0871594
5268122000 0.0199141 0.131439
5280120000 0.037344 0.16676
5292118000 0.0587192 0.198577
5304116000 0.0912378 0.224127
5316114000 0.122339 0.243136
5328112000 0.158253 0.26161
5340110000 0.198957 0.278649
5352108000 0.228754 0.287993
5364106000 0.269404 0.300071
5376104000 0.302352 0.305129
5388102000 0.33499 0.31019
5400100000 0.368364 0.312004
5412098000 0.397157 0.311745
5424096000 0.428261 0.307541
5436094000 0.457432 0.304006
5448092000 0.483324 0.297508
5460090000 0.511432 0.289965
5472088000 0.537129 0.279167
5484086000 0.563544 0.268591
5496084000 0.590112 0.254518
5508082000 0.615037 0.241676
5520080000 0.634932 0.228185
5532078000 0.65642 0.215657
5544076000 0.676163 0.200266
5556074000 0.695641 0.18576
5568072000 0.708725 0.177424
5580070000 0.725226 0.165113
5592068000 0.738032 0.148962
5604066000 0.754039 0.134924
5616064000 0.758812 0.12037
5628062000 0.771703 0.109035
5640060000 0.775568 0.0964646
5652058000 0.7843 0.0827666
5664056000 0.790036 0.0650808
5676054000 0.799599 0.0491321
5688052000 0.798714 0.0338025
5700050000 0.805045 0.0190203
5712048000 0.808353 0.0018224
5724046000 0.813256 -0.0157358
5736044000 0.819866 -0.031872
5748042000 0.823038 -0.0473444
5760040000 0.824833 -0.0644867
5772038000 0.830211 -0.0806013
5784036000 0.835799 -0.0959965
5796034000 0.83918 -0.111318
5808032000 0.844847 -0.123495
5820030000 0.847754 -0.142627
5832028000 0.853678 -0.15584
5844026000 0.855921 -0.170216
5856024000 0.859901 -0.18407
5868022000 0.857343 -0.207825
5880020000 0.847363 -0.215789
5892018000 0.85795 -0.230381
5904016000 0.853084 -0.250218
5916014000 0.855565 -0.270097
5928012000 0.848807 -0.287308
5940010000 0.847004 -0.298484
5952008000 0.837373 -0.31544
5964006000 0.830747 -0.32913
5976004000 0.824747 -0.345542
5988002000 0.817193 -0.3583
6000000000 0.809654 -0.371754
