# Hz S RI R 50
1000000 0.990793 0.0012253
12998000 1.0149 -0.0586333
24996000 1.00924 -0.127991
36994000 0.996048 -0.193283
48992000 0.978892 -0.256559
60990000 0.958621 -0.31606
72988000 0.933488 -0.374899
84986000 0.905792 -0.430648
96984000 0.874594 -0.484554
108982000 0.840972 -0.536538
120980000 0.8056 -0.585895
132978000 0.768441 -0.632488
144976000 0.729671 -0.677296
156974000 0.688895 -0.720117
168972000 0.646392 -0.759418
180970000 0.603992 -0.795813
192968000 0.559245 -0.829388
204966000 0.514043 -0.860015
216964000 0.468019 -0.887241
228962000 0.421203 -0.910908
240960000 0.3754 -0.931068
252958000 0.328843 -0.947563
264956000 0.282239 -0.961372
276954000 0.236121 -0.972395
288952000 0.190998 -0.979598
300950000 0.146304 -0.984971
312948000 0.102615 -0.987612
324946000 0.0605492 -0.988214
336944000 0.0197453 -0.987371
348942000 -0.0204723 -0.985733
360940000 -0.0603404 -0.982377
372938000 -0.0989742 -0.979032
384936000 -0.136337 -0.975268
396934000 -0.173007 -0.970986
408932000 -0.209541 -0.966214
420930000 -0.244297 -0.960769
432928000 -0.280124 -0.953273
444926000 -0.313927 -0.944687
456924000 -0.345857 -0.936015
468922000 -0.377979 -0.926611
480920000 -0.408147 -0.915095
492918000 -0.436629 -0.902189
504916000 -0.464277 -0.888216
516914000 -0.491997 -0.873888
528912000 -0.517399 -0.857517
540910000 -0.542262 -0.841119
552908000 -0.564811 -0.823743
564906000 -0.587089 -0.80621
576904000 -0.607778 -0.788903
588902000 -0.626973 -0.772079
600900000 -0.646014 -0.754196
612898000 -0.663709 -0.737463
624896000 -0.681851 -0.72068
636894000 -0.699526 -0.70376
648892000 -0.716767 -0.687848
660890000 -0.733648 -0.671799
672888000 -0.750791 -0.655164
684886000 -0.767793 -0.63927
696884000 -0.784413 -0.621347
708882000 -0.799985 -0.60507
720880000 -0.815519 -0.587426
732878000 -0.829686 -0.567889
744876000 -0.842674 -0.549746
756874000 -0.855548 -0.53085
768872000 -0.867843 -0.510987
780870000 -0.878526 -0.490932
792868000 -0.887745 -0.470877
804866000 -0.896352 -0.451223
816864000 -0.905189 -0.431934
828862000 -0.912713 -0.414708
840860000 -0.91903 -0.394889
852858000 -0.924266 -0.378608
864856000 -0.931259 -0.360509
876854000 -0.936942 -0.342811
888852000 -0.943962 -0.32603
900850000 -0.949235 -0.308765
912848000 -0.954619 -0.293282
924846000 -0.96018 -0.277592
936844000 -0.965894 -0.262115
948842000 -0.972374 -0.247426
960840000 -0.977877 -0.233563
972838000 -0.984031 -0.218701
984836000 -0.989341 -0.202662
996834000 -0.993086 -0.187337
1008832000 -0.996343 -0.172527
1020830000 -1.00018 -0.156886
1032828000 -1.00274 -0.140602
1044826000 -1.00499 -0.123987
1056824000 -1.00676 -0.108005
1068822000 -1.00885 -0.0899757
1080820000 -1.00874 -0.0720869
1092818000 -1.00876 -0.0555787
1104816000 -1.00809 -0.0387293
1116814000 -1.00734 -0.0225449
1128812000 -1.00844 -0.00829433
1140810000 -1.00661 0.00847221
1152808000 -1.00603 0.0225429
1164806000 -1.00626 0.0365326
1176804000 -1.00914 0.052876
1188802000 -1.00408 0.068209
1200800000 -1.00298 0.078767
1212798000 -1.00264 0.0911441
1224796000 -1.00175 0.103509
1236794000 -1.00208 0.114799
1248792000 -1.00073 0.126307
1260790000 -1.00043 0.138555
1272788000 -0.999777 0.149232
1284786000 -0.997278 0.160309
1296784000 -0.992651 0.171827
1308782000 -0.990297 0.18462
1320780000 -0.987496 0.198167
1332778000 -0.984694 0.21191
1344776000 -0.981743 0.22572
1356774000 -0.979603 0.240932
1368772000 -0.976968 0.253541
1380770000 -0.973239 0.268689
1392768000 -0.969106 0.283257
1404766000 -0.963891 0.298703
1416764000 -0.959266 0.314289
1428762000 -0.953822 0.327688
1440760000 -0.948747 0.342925
1452758000 -0.943469 0.355013
1464756000 -0.940027 0.368215
1476754000 -0.935612 0.380947
1488752000 -0.931206 0.392127
1500750000 -0.926127 0.404402
1512748000 -0.9185 0.411738
1524746000 -0.912987 0.420707
1536744000 -0.907043 0.429508
1548742000 -0.899589 0.440183
1560740000 -0.893393 0.449132
1572738000 -0.889605 0.459716
1584736000 -0.884956 0.470024
1596734000 -0.88136 0.481323
1608732000 -0.876998 0.492559
1620730000 -0.872581 0.502758
1632728000 -0.86794 0.513851
1644726000 -0.861991 0.525715
1656724000 -0.85558 0.536164
1668722000 -0.849564 0.546045
1680720000 -0.844586 0.558152
1692718000 -0.838916 0.567299
1704716000 -0.834604 0.576996
1716714000 -0.82671 0.583173
1728712000 -0.820354 0.594353
1740710000 -0.811006 0.604694
1752708000 -0.802877 0.614851
1764706000 -0.79306 0.622433
1776704000 -0.783066 0.631091
1788702000 -0.774124 0.637973
1800700000 -0.764007 0.646582
1812698000 -0.751415 0.654054
1824696000 -0.742753 0.665107
1836694000 -0.735257 0.671958
1848692000 -0.72609 0.682682
1860690000 -0.718466 0.690838
1872688000 -0.709352 0.701364
1884686000 -0.700821 0.710806
1896684000 -0.693658 0.720296
1908682000 -0.684936 0.732071
1920680000 -0.678338 0.742681
1932678000 -0.671149 0.752556
1944676000 -0.661471 0.761832
1956674000 -0.656875 0.770472
1968672000 -0.651243 0.780229
1980670000 -0.644137 0.787746
1992668000 -0.641369 0.790391
2004666000 -0.635966 0.793968
2016664000 -0.632314 0.798571
2028662000 -0.625842 0.799611
2040660000 -0.61991 0.803488
2052658000 -0.611625 0.804857
2064656000 -0.603435 0.806861
2076654000 -0.592718 0.810662
2088652000 -0.581451 0.812367
2100650000 -0.570778 0.814993
2112648000 -0.55668 0.821579
2124646000 -0.543533 0.829506
2136644000 -0.527817 0.83754
2148642000 -0.514914 0.847138
2160640000 -0.500293 0.855652
2172638000 -0.490698 0.866604
2184636000 -0.480014 0.878321
2196634000 -0.47054 0.889686
2208632000 -0.463941 0.901632
2220630000 -0.458107 0.907133
2232628000 -0.456169 0.915472
2244626000 -0.455203 0.919743
2256624000 -0.452764 0.923083
2268622000 -0.448283 0.925802
2280620000 -0.444824 0.928083
2292618000 -0.442303 0.930899
2304616000 -0.437714 0.93042
2316614000 -0.431088 0.92976
2328612000 -0.420062 0.929118
2340610000 -0.407094 0.928875
2352608000 -0.391188 0.929532
2364606000 -0.37574 0.93082
2376604000 -0.358496 0.931669
2388602000 -0.340554 0.932692
2400600000 -0.323893 0.93836
2412598000 -0.308529 0.942988
2424596000 -0.293036 0.947744
2436594000 -0.276001 0.954335
2448592000 -0.262456 0.958246
2460590000 -0.249174 0.965965
2472588000 -0.238322 0.974415
2484586000 -0.230927 0.980819
2496584000 -0.221702 0.987998
2508582000 -0.213769 0.991953
2520580000 -0.203274 1.0005
2532578000 -0.197742 1.00313
2544576000 -0.194878 1.00769
2556574000 -0.184691 1.00849
2568572000 -0.178953 1.01079
2580570000 -0.168799 1.00958
2592568000 -0.161911 1.00761
2604566000 -0.151497 1.0051
2616564000 -0.144236 1.00066
2628562000 -0.134504 0.999133
2640560000 -0.124589 0.994474
2652558000 -0.112002 0.99301
2664556000 -0.10203 0.989305
2676554000 -0.0896651 0.988657
2688552000 -0.0770778 0.988476
2700550000 -0.0655177 0.987049
2712548000 -0.051127 0.986518
2724546000 -0.0381823 0.988426
2736544000 -0.0274766 0.993051
2748542000 -0.0148668 0.995147
2760540000 -0.00353584 0.997735
2772538000 0.00740903 1.00114
2784536000 0.0168883 1.00468
2796534000 0.0271832 1.00634
2808532000 0.0342766 1.00802
2820530000 0.0436755 1.00913
2832528000 0.0526898 1.00957
2844526000 0.0622309 1.00949
2856524000 0.0686711 1.006
2868522000 0.0765759 1.00286
2880520000 0.083761 1.00023
2892518000 0.092265 0.994548
2904516000 0.099659 0.993316
2916514000 0.107726 0.989895
2928512000 0.116245 0.986179
2940510000 0.119823 0.983253
2952508000 0.131822 0.979777
2964506000 0.143493 0.974101
2976504000 0.153908 0.971798
2988502000 0.16461 0.973339
3000500000 0.171722 0.970572
3012498000 0.188608 0.973322
3024496000 0.194233 0.972266
3036494000 0.207169 0.971687
3048492000 0.218475 0.970933
3060490000 0.227904 0.969744
3072488000 0.235602 0.967748
3084486000 0.24442 0.967052
3096484000 0.251029 0.964443
3108482000 0.260036 0.962286
3120480000 0.266801 0.961438
3132478000 0.273589 0.956223
3144476000 0.282112 0.953204
3156474000 0.290369 0.950656
3168472000 0.297388 0.946746
3180470000 0.305625 0.94344
3192468000 0.314807 0.938724
3204466000 0.323875 0.932789
3216464000 0.334019 0.928504
3228462000 0.344423 0.923122
3240460000 0.356441 0.918246
3252458000 0.367355 0.914897
3264456000 0.378611 0.911082
3276454000 0.388143 0.910047
3288452000 0.396805 0.902971
3300450000 0.405724 0.896977
3312448000 0.41874 0.894118
3324446000 0.427067 0.887274
3336444000 0.438317 0.883486
3348442000 0.446624 0.877909
3360440000 0.455843 0.87324
3372438000 0.464934 0.86481
3384436000 0.473806 0.860574
3396434000 0.484098 0.851789
3408432000 0.492029 0.846366
3420430000 0.505441 0.842745
3432428000 0.511691 0.834706
3444426000 0.52593 0.826255
3456424000 0.537164 0.820654
3468422000 0.545139 0.813599
3480420000 0.55556 0.806732
3492418000 0.56691 0.80154
3504416000 0.57518 0.794931
3516414000 0.585913 0.786787
3528412000 0.594585 0.782059
3540410000 0.601841 0.778074
3552408000 0.612444 0.77183
3564406000 0.617773 0.769135
3576404000 0.625006 0.760618
3588402000 0.632054 0.755481
3600400000 0.637871 0.747406
3612398000 0.644177 0.740181
3624396000 0.651581 0.732346
3636394000 0.660226 0.725638
3648392000 0.667362 0.718272
3660390000 0.672446 0.712895
3672388000 0.681115 0.703973
3684386000 0.689674 0.691862
3696384000 0.696916 0.685415
3708382000 0.705614 0.677966
3720380000 0.712622 0.669189
3732378000 0.719875 0.658346
3744376000 0.727468 0.650267
3756374000 0.736006 0.640545
3768372000 0.742483 0.6318
3780370000 0.750254 0.621707
3792368000 0.755339 0.617193
3804366000 0.762668 0.608133
3816364000 0.766302 0.599249
3828362000 0.772087 0.594053
3840360000 0.777249 0.59206
3852358000 0.783644 0.580195
3864356000 0.784858 0.576375
3876354000 0.788338 0.569899
3888352000 0.792726 0.562545
3900350000 0.797523 0.558135
3912348000 0.800694 0.552011
3924346000 0.80576 0.545901
3936344000 0.808574 0.540426
3948342000 0.811762 0.534316
3960340000 0.811145 0.530802
3972338000 0.815579 0.524055
3984336000 0.818372 0.509962
3996334000 0.825485 0.503932
4008332000 0.829954 0.496559
4020330000 0.837247 0.48716
4032328000 0.84334 0.477502
4044326000 0.846815 0.468035
4056324000 0.852977 0.458022
4068322000 0.855275 0.445028
4080320000 0.859442 0.431514
4092318000 0.865727 0.416844
4104316000 0.869861 0.398505
4116314000 0.87617 0.377236
4128312000 0.883429 0.364585
4140310000 0.890164 0.342047
4152308000 0.893832 0.32459
4164306000 0.901744 0.308772
4176304000 0.906767 0.297279
4188302000 0.912575 0.285875
4200300000 0.916549 0.279777
4212298000 0.915805 0.272559
4224296000 0.917651 0.272185
4236294000 0.920582 0.265152
4248292000 0.920245 0.265451
4260290000 0.928034 0.256801
4272288000 0.924913 0.256585
4284286000 0.927375 0.248039
4296284000 0.928656 0.24247
4308282000 0.928614 0.230287
4320280000 0.933314 0.215138
4332278000 0.928793 0.203201
4344276000 0.927948 0.190348
4356274000 0.928621 0.176644
4368272000 0.925074 0.164044
4380270000 0.925069 0.146827
4392268000 0.921167 0.125833
4404266000 0.920806 0.109955
4416264000 0.920976 0.0888235
4428262000 0.920417 0.0699209
4440260000 0.921787 0.0496302
4452258000 0.92638 0.0335924
4464256000 0.927365 0.0172121
4476254000 0.928889 0.00213467
4488252000 0.930575 -0.0104635
4500250000 0.930327 -0.0202407
4512248000 0.930262 -0.0353552
4524246000 0.932534 -0.0457048
4536244000 0.933213 -0.054292
4548242000 0.933037 -0.0635544
4560240000 0.929938 -0.0689573
4572238000 0.927618 -0.0749386
4584236000 0.926636 -0.0851349
4596234000 0.92154 -0.0941421
4608232000 0.91461 -0.101064
4620230000 0.905507 -0.117646
4632228000 0.899099 -0.134037
4644226000 0.889704 -0.149504
4656224000 0.880833 -0.165946
4668222000 0.872656 -0.181954
4680220000 0.860629 -0.201941
4692218000 0.857437 -0.221812
4704216000 0.844756 -0.240175
4716214000 0.834756 -0.257321
4728212000 0.823722 -0.273066
4740210000 0.814014 -0.291183
4752208000 0.800642 -0.30977
4764206000 0.789895 -0.32754
4776204000 0.779175 -0.343995
4788202000 0.771415 -0.358919
4800200000 0.758164 -0.375356
4812198000 0.751057 -0.390555
4824196000 0.741396 -0.403687
4836194000 0.726378 -0.413128
4848192000 0.715444 -0.426513
4860190000 0.700392 -0.431627
4872188000 0.684017 -0.442546
4884186000 0.665021 -0.452216
4896184000 0.644318 -0.46091
4908182000 0.625081 -0.470287
4920180000 0.597397 -0.476688
4932178000 0.57232 -0.489425
4944176000 0.542371 -0.494026
4956174000 0.515489 -0.502682
4968172000 0.479874 -0.504824
4980170000 0.446242 -0.506352
4992168000 0.412565 -0.508638
5004166000 0.379093 -0.510526
5016164000 0.341046 -0.512072
5028162000 0.308291 -0.510102
5040160000 0.270742 -0.503109
5052158000 0.235645 -0.497637
5064156000 0.20143 -0.483975
5076154000 0.170756 -0.47064
5088152000 0.137446 -0.45668
5100150000 0.108437 -0.433289
5112148000 0.0865601 -0.409868
5124146000 0.0599032 -0.38473
5136144000 0.0368979 -0.351407
5148142000 0.0187971 -0.318532
5160140000 0.001875 -0.276677
5172138000 -0.0051096 -0.23779
5184136000 -0.0097409 -0.193427
5196134000 -0.0141848 -0.144967
5208132000 -0.0116191 -0.0945282
5220130000 -0.010056 -0.0494245
5232128000 -0.00648205 -0.00123149
5244126000 -0.00217146 0.0455696
5256124000 0.00815144 0.0872357
5268122000 0.0200194 0.131404
5280120000 0.0375244 0.166653
5292118000 0.0586006 0.198904
5304116000 0.0907094 0.223806
5316114000 0.121637 0.244418
5328112000 0.15798 0.263196
5340110000 0.198331 0.278306
5352108000 0.229373 0.289352
5364106000 0.268523 0.301012
5376104000 0.301465 0.305316
5388102000 0.335452 0.311093
5400100000 0.366868 0.311904
5412098000 0.396398 0.31147
5424096000 0.427851 0.307291
5436094000 0.457298 0.303937
5448092000 0.483441 0.297406
5460090000 0.511527 0.289326
5472088000 0.537082 0.279431
5484086000 0.564018 0.269753
5496084000 0.589297 0.257063
5508082000 0.614759 0.242069
5520080000 0.633893 0.227118
5532078000 0.656906 0.216048
5544076000 0.676201 0.200467
5556074000 0.694862 0.186125
5568072000 0.709325 0.178217
5580070000 0.726039 0.164101
5592068000 0.736074 0.14972
5604066000 0.755224 0.134133
5616064000 0.757869 0.121678
5628062000 0.774383 0.111714
5640060000 0.779304 0.096683
5652058000 0.783356 0.0814202
5664056000 0.791941 0.0679429
5676054000 0.796752 0.049478
5688052000 0.798427 0.0347354
5700050000 0.803211 0.0174064
5712048000 0.807802 0.00161263
5724046000 0.813216 -0.0155488
5736044000 0.819804 -0.0318107
5748042000 0.823606 -0.0479268
5760040000 0.82537 -0.0645707
5772038000 0.831101 -0.081637
5784036000 0.834738 -0.0941987
5796034000 0.83998 -0.111996
5808032000 0.843696 -0.123075
5820030000 0.847099 -0.142754
5832028000 0.853904 -0.155905
5844026000 0.856239 -0.169427
5856024000 0.858282 -0.185274
5868022000 0.858153 -0.206167
5880020000 0.854058 -0.214408
5892018000 0.859488 -0.227896
5904016000 0.856809 -0.24983
5916014000 0.858132 -0.265921
5928012000 0.846846 -0.286348
5940010000 0.843401 -0.29893
5952008000 0.840651 -0.312224
5964006000 0.826783 -0.326023
5976004000 0.82479 -0.344285
5988002000 0.819055 -0.357757
6000000000 0.809728 -0.37187
