# Hz S RI R 50
1000000 0.987662 -0.00603884
12998000 1.01457 -0.0584054
24996000 1.00938 -0.127183
36994000 0.996033 -0.19313
48992000 0.97883 -0.256273
60990000 0.958603 -0.315554
72988000 0.933284 -0.374661
84986000 0.905694 -0.430653
96984000 0.874586 -0.484548
108982000 0.84106 -0.536292
120980000 0.805649 -0.585729
132978000 0.768537 -0.632139
144976000 0.729564 -0.676961
156974000 0.689017 -0.71973
168972000 0.646812 -0.758851
180970000 0.603875 -0.79587
192968000 0.559546 -0.828984
204966000 0.514248 -0.859933
216964000 0.468222 -0.887063
228962000 0.42156 -0.910712
240960000 0.375807 -0.930869
252958000 0.32931 -0.947644
264956000 0.282781 -0.961128
276954000 0.236789 -0.972101
288952000 0.191784 -0.979509
300950000 0.147067 -0.984752
312948000 0.10323 -0.987403
324946000 0.0613185 -0.98827
336944000 0.0201179 -0.987228
348942000 -0.0197634 -0.985673
360940000 -0.0597098 -0.982251
372938000 -0.0982724 -0.979104
384936000 -0.135633 -0.975485
396934000 -0.172645 -0.970909
408932000 -0.209183 -0.966233
420930000 -0.243791 -0.960617
432928000 -0.279438 -0.953407
444926000 -0.313438 -0.944658
456924000 -0.345681 -0.936446
468922000 -0.377858 -0.926759
480920000 -0.407471 -0.915391
492918000 -0.43633 -0.902291
504916000 -0.463858 -0.888436
516914000 -0.491808 -0.873893
528912000 -0.516615 -0.857914
540910000 -0.541573 -0.8418
552908000 -0.564348 -0.824152
564906000 -0.586399 -0.806697
576904000 -0.60714 -0.789023
588902000 -0.627513 -0.772654
600900000 -0.645557 -0.754622
612898000 -0.663346 -0.737811
624896000 -0.681521 -0.720816
636894000 -0.699141 -0.704057
648892000 -0.716469 -0.688098
660890000 -0.733771 -0.672235
672888000 -0.750401 -0.656134
684886000 -0.767125 -0.639814
696884000 -0.783444 -0.622042
708882000 -0.79907 -0.605519
720880000 -0.815473 -0.587935
732878000 -0.82947 -0.568422
744876000 -0.842452 -0.550116
756874000 -0.855143 -0.531374
768872000 -0.867715 -0.510825
780870000 -0.878045 -0.491023
792868000 -0.887608 -0.471236
804866000 -0.896208 -0.451467
816864000 -0.905014 -0.432211
828862000 -0.912574 -0.413966
840860000 -0.91865 -0.396824
852858000 -0.92466 -0.378946
864856000 -0.931012 -0.361282
876854000 -0.9369 -0.343097
888852000 -0.943687 -0.326448
900850000 -0.949193 -0.309096
912848000 -0.954634 -0.293196
924846000 -0.960313 -0.277477
936844000 -0.966052 -0.261727
948842000 -0.971995 -0.247595
960840000 -0.978012 -0.234079
972838000 -0.983515 -0.218426
984836000 -0.989264 -0.202399
996834000 -0.993076 -0.187376
1008832000 -0.996288 -0.172405
1020830000 -0.999929 -0.156603
1032828000 -1.00253 -0.140472
1044826000 -1.00471 -0.123987
1056824000 -1.00686 -0.107903
1068822000 -1.00804 -0.0906563
1080820000 -1.00871 -0.0725399
1092818000 -1.00845 -0.0571071
1104816000 -1.00827 -0.0400664
1116814000 -1.00699 -0.0228664
1128812000 -1.00789 -0.00772487
1140810000 -1.00502 0.00753873
1152808000 -1.00674 0.0214826
1164806000 -1.00648 0.0359229
1176804000 -1.0088 0.0526473
1188802000 -1.00423 0.0678563
1200800000 -1.00241 0.0783908
1212798000 -1.00235 0.0907447
1224796000 -1.00128 0.103098
1236794000 -1.00147 0.115451
1248792000 -1.0003 0.126561
1260790000 -1.00034 0.138312
1272788000 -0.999112 0.14909
1284786000 -0.99662 0.159932
1296784000 -0.992655 0.17123
1308782000 -0.990054 0.184721
1320780000 -0.987372 0.198018
1332778000 -0.984942 0.211534
1344776000 -0.982012 0.225359
1356774000 -0.979469 0.240115
1368772000 -0.977159 0.252737
1380770000 -0.97364 0.266668
1392768000 -0.970014 0.282254
1404766000 -0.964377 0.297929
1416764000 -0.960111 0.313048
1428762000 -0.954606 0.326649
1440760000 -0.948687 0.341659
1452758000 -0.944136 0.354432
1464756000 -0.939993 0.367898
1476754000 -0.935772 0.380663
1488752000 -0.931207 0.391783
1500750000 -0.924873 0.402897
1512748000 -0.918458 0.411172
1524746000 -0.91317 0.420445
1536744000 -0.906468 0.429931
1548742000 -0.900597 0.439515
1560740000 -0.894491 0.448191
1572738000 -0.889561 0.459574
1584736000 -0.884897 0.47003
1596734000 -0.881324 0.480783
1608732000 -0.877044 0.49221
1620730000 -0.872698 0.502439
1632728000 -0.868193 0.513296
1644726000 -0.862339 0.525093
1656724000 -0.856062 0.535346
1668722000 -0.849653 0.545603
1680720000 -0.843954 0.556939
1692718000 -0.8391 0.565873
1704716000 -0.83407 0.575021
1716714000 -0.82797 0.582039
1728712000 -0.821854 0.59227
1740710000 -0.812327 0.603748
1752708000 -0.803537 0.614426
1764706000 -0.79353 0.621773
1776704000 -0.783968 0.630069
1788702000 -0.774472 0.637235
1800700000 -0.76542 0.646631
1812698000 -0.751647 0.653299
1824696000 -0.744629 0.663816
1836694000 -0.735106 0.672562
1848692000 -0.725696 0.682056
1860690000 -0.718268 0.690695
1872688000 -0.709812 0.700446
1884686000 -0.701635 0.710353
1896684000 -0.693897 0.719834
1908682000 -0.684809 0.731552
1920680000 -0.678865 0.741826
1932678000 -0.670656 0.752565
1944676000 -0.663135 0.76178
1956674000 -0.657966 0.77015
1968672000 -0.653979 0.778734
1980670000 -0.643558 0.785226
1992668000 -0.642042 0.789663
2004666000 -0.636421 0.794811
2016664000 -0.632912 0.797461
2028662000 -0.626874 0.79976
2040660000 -0.618589 0.803551
2052658000 -0.612181 0.804652
2064656000 -0.603675 0.806838
2076654000 -0.593331 0.810254
2088652000 -0.581776 0.812322
2100650000 -0.568988 0.816046
2112648000 -0.556331 0.821128
2124646000 -0.543273 0.82888
2136644000 -0.527927 0.837414
2148642000 -0.514887 0.846931
2160640000 -0.500314 0.855429
2172638000 -0.490601 0.86705
2184636000 -0.480202 0.878136
2196634000 -0.47 0.889741
2208632000 -0.464499 0.901133
2220630000 -0.459925 0.908059
2232628000 -0.457398 0.914744
2244626000 -0.455152 0.920142
2256624000 -0.45307 0.924092
2268622000 -0.449194 0.925223
2280620000 -0.446384 0.926657
2292618000 -0.443646 0.929092
2304616000 -0.438281 0.92962
2316614000 -0.432233 0.928909
2328612000 -0.420177 0.929272
2340610000 -0.408331 0.928629
2352608000 -0.391248 0.928948
2364606000 -0.375593 0.929477
2376604000 -0.359665 0.930032
2388602000 -0.343325 0.933789
2400600000 -0.32666 0.93813
2412598000 -0.307413 0.942615
2424596000 -0.292038 0.948452
2436594000 -0.277755 0.954426
2448592000 -0.262956 0.958975
2460590000 -0.249208 0.966096
2472588000 -0.238893 0.973956
2484586000 -0.231052 0.980647
2496584000 -0.221044 0.987946
2508582000 -0.214256 0.995715
2520580000 -0.204896 0.997933
2532578000 -0.198054 1.00148
2544576000 -0.195018 1.00687
2556574000 -0.18605 1.00683
2568572000 -0.179522 1.01113
2580570000 -0.170333 1.00961
2592568000 -0.163479 1.00752
2604566000 -0.159669 1.0037
2616564000 -0.145457 1.00057
2628562000 -0.135845 0.999208
2640560000 -0.125581 0.992802
2652558000 -0.112889 0.9942
2664556000 -0.102734 0.990711
2676554000 -0.090813 0.98937
2688552000 -0.077468 0.98667
2700550000 -0.0660936 0.987467
2712548000 -0.0516395 0.985885
2724546000 -0.0380229 0.988163
2736544000 -0.0282218 0.991521
2748542000 -0.0152815 0.994543
2760540000 -0.00425184 0.997644
2772538000 0.00691541 1.00119
2784536000 0.0177313 1.00442
2796534000 0.0259569 1.00586
2808532000 0.035002 1.00803
2820530000 0.0436873 1.00789
2832528000 0.0518401 1.00909
2844526000 0.0608568 1.00907
2856524000 0.0679087 1.00639
2868522000 0.0754012 1.00341
2880520000 0.0823503 1.00016
2892518000 0.0912556 0.994542
2904516000 0.0989887 0.993445
2916514000 0.106952 0.989934
2928512000 0.115239 0.986181
2940510000 0.119289 0.984075
2952508000 0.130866 0.979829
2964506000 0.142032 0.976129
2976504000 0.153187 0.972527
2988502000 0.165107 0.973088
3000500000 0.174681 0.96755
3012498000 0.189086 0.97317
3024496000 0.192977 0.971757
3036494000 0.206806 0.971082
3048492000 0.218211 0.970714
3060490000 0.227847 0.96993
3072488000 0.23562 0.968211
3084486000 0.242784 0.966639
3096484000 0.250487 0.964976
3108482000 0.25827 0.963173
3120480000 0.266645 0.961568
3132478000 0.271228 0.956126
3144476000 0.283129 0.95281
3156474000 0.289985 0.951615
3168472000 0.2966 0.947538
3180470000 0.305088 0.942922
3192468000 0.313784 0.938872
3204466000 0.323162 0.932835
3216464000 0.333027 0.928894
3228462000 0.343824 0.922718
3240460000 0.355394 0.918679
3252458000 0.368419 0.915618
3264456000 0.377765 0.911554
3276454000 0.38671 0.909439
3288452000 0.397344 0.904042
3300450000 0.405291 0.899219
3312448000 0.41958 0.893742
3324446000 0.427121 0.887038
3336444000 0.437535 0.884168
3348442000 0.446496 0.877463
3360440000 0.456116 0.87254
3372438000 0.463365 0.866438
3384436000 0.474088 0.861773
3396434000 0.483433 0.851815
3408432000 0.491108 0.845883
3420430000 0.503808 0.842008
3432428000 0.511459 0.833679
3444426000 0.524389 0.827056
3456424000 0.5367 0.821961
3468422000 0.544603 0.813826
3480420000 0.555449 0.807089
3492418000 0.565556 0.801571
3504416000 0.575531 0.794233
3516414000 0.585525 0.787024
3528412000 0.594055 0.781816
3540410000 0.602108 0.777376
3552408000 0.609601 0.77316
3564406000 0.617981 0.769181
3576404000 0.623975 0.756746
3588402000 0.631227 0.756467
3600400000 0.637586 0.747636
3612398000 0.64406 0.740885
3624396000 0.65117 0.732329
3636394000 0.659284 0.725207
3648392000 0.664749 0.718507
3660390000 0.672882 0.710974
3672388000 0.680418 0.706262
3684386000 0.688763 0.690979
3696384000 0.696607 0.686648
3708382000 0.704545 0.676651
3720380000 0.713695 0.66947
3732378000 0.720158 0.6587
3744376000 0.727359 0.649663
3756374000 0.734851 0.640658
3768372000 0.742265 0.632569
3780370000 0.750367 0.621187
3792368000 0.75516 0.617896
3804366000 0.763973 0.60864
3816364000 0.767884 0.599599
3828362000 0.773286 0.595726
3840360000 0.77642 0.592698
3852358000 0.781936 0.581565
3864356000 0.784451 0.575291
3876354000 0.788289 0.570522
3888352000 0.792032 0.564105
3900350000 0.796612 0.558157
3912348000 0.800275 0.5521
3924346000 0.805804 0.545939
3936344000 0.808606 0.540126
3948342000 0.811037 0.535303
3960340000 0.809595 0.530862
3972338000 0.814511 0.523198
3984336000 0.820965 0.511128
3996334000 0.826018 0.504823
4008332000 0.830702 0.496463
4020330000 0.840966 0.487191
4032328000 0.843856 0.47765
4044326000 0.846571 0.469182
4056324000 0.852738 0.457193
4068322000 0.855027 0.444848
4080320000 0.859571 0.431351
4092318000 0.864606 0.416951
4104316000 0.870851 0.397142
4116314000 0.875394 0.378894
4128312000 0.884282 0.361848
4140310000 0.89049 0.344287
4152308000 0.894884 0.325168
4164306000 0.902163 0.308827
4176304000 0.906852 0.297438
4188302000 0.91245 0.285778
4200300000 0.917578 0.277917
4212298000 0.915667 0.272879
4224296000 0.917463 0.272023
4236294000 0.91962 0.265483
4248292000 0.919546 0.264364
4260290000 0.928855 0.256804
4272288000 0.925133 0.257401
4284286000 0.925537 0.250976
4296284000 0.92961 0.24053
4308282000 0.930935 0.230957
4320280000 0.930548 0.214409
4332278000 0.927723 0.204596
4344276000 0.929681 0.190668
4356274000 0.929384 0.176323
4368272000 0.924274 0.163786
4380270000 0.925083 0.146832
4392268000 0.921296 0.126125
4404266000 0.921631 0.11012
4416264000 0.921274 0.0877495
4428262000 0.920837 0.0696676
4440260000 0.921057 0.0512067
4452258000 0.925865 0.0324189
4464256000 0.927653 0.0181331
4476254000 0.928395 0.000732551
4488252000 0.931019 -0.0105138
4500250000 0.930069 -0.0200979
4512248000 0.930428 -0.0353804
4524246000 0.932785 -0.0449496
4536244000 0.933377 -0.0536347
4548242000 0.931351 -0.0650634
4560240000 0.932898 -0.0681548
4572238000 0.928873 -0.0768981
4584236000 0.925193 -0.0853315
4596234000 0.919679 -0.0920505
4608232000 0.915155 -0.1022
4620230000 0.907495 -0.115686
4632228000 0.897548 -0.132744
4644226000 0.890631 -0.147961
4656224000 0.879131 -0.165622
4668222000 0.871549 -0.18192
4680220000 0.860666 -0.201758
4692218000 0.857804 -0.221425
4704216000 0.845511 -0.240136
4716214000 0.834843 -0.257876
4728212000 0.824002 -0.271983
4740210000 0.813941 -0.292206
4752208000 0.799266 -0.311137
4764206000 0.790583 -0.327236
4776204000 0.779167 -0.343538
4788202000 0.771268 -0.359024
4800200000 0.758197 -0.375047
4812198000 0.751699 -0.390908
4824196000 0.742454 -0.403678
4836194000 0.727287 -0.410842
4848192000 0.714382 -0.425753
4860190000 0.701536 -0.430746
4872188000 0.685358 -0.442465
4884186000 0.663992 -0.450344
4896184000 0.642949 -0.457777
4908182000 0.623491 -0.470574
4920180000 0.595469 -0.476035
4932178000 0.572351 -0.489248
4944176000 0.542299 -0.49396
4956174000 0.515129 -0.502878
4968172000 0.479916 -0.504007
4980170000 0.446424 -0.508827
4992168000 0.413303 -0.509086
5004166000 0.379268 -0.510695
5016164000 0.341103 -0.511632
5028162000 0.307979 -0.509846
5040160000 0.270669 -0.503509
5052158000 0.235745 -0.497554
5064156000 0.201555 -0.483789
5076154000 0.170385 -0.47072
5088152000 0.138002 -0.455747
5100150000 0.108757 -0.433011
5112148000 0.087013 -0.410963
5124146000 0.0598615 -0.384424
5136144000 0.0361978 -0.351296
5148142000 0.0186237 -0.318222
5160140000 0.00158533 -0.276577
5172138000 -0.0048012 -0.23771
5184136000 -0.0098742 -0.192977
5196134000 -0.0148135 -0.145029
5208132000 -0.0117454 -0.0948013
5220130000 -0.010516 -0.0496299
5232128000 -0.00666839 -0.00115744
5244126000 -0.00232442 0.0455098
5256124000 0.00815367 0.0869993
5268122000 0.0166339 0.136306
5280120000 0.0375415 0.166547
5292118000 0.0588343 0.198534
5304116000 0.0910146 0.223582
5316114000 0.121625 0.243845
5328112000 0.157786 0.261659
5340110000 0.198401 0.278547
5352108000 0.228728 0.288343
5364106000 0.268354 0.300018
5376104000 0.303007 0.305554
5388102000 0.335014 0.310002
5400100000 0.368246 0.311009
5412098000 0.396939 0.311636
5424096000 0.427813 0.307405
5436094000 0.457324 0.304299
5448092000 0.483318 0.297333
5460090000 0.511117 0.289829
5472088000 0.537317 0.27998
5484086000 0.563031 0.270187
5496084000 0.590966 0.255177
5508082000 0.612819 0.242033
5520080000 0.63514 0.228154
5532078000 0.656488 0.215789
5544076000 0.676043 0.200753
5556074000 0.694685 0.186137
5568072000 0.709012 0.177299
5580070000 0.725587 0.162829
5592068000 0.738319 0.148135
5604066000 0.755009 0.135532
5616064000 0.75724 0.123389
5628062000 0.771432 0.112006
5640060000 0.774674 0.0972237
5652058000 0.783664 0.0836064
5664056000 0.790538 0.0650271
5676054000 0.796223 0.0490235
5688052000 0.800336 0.0336093
5700050000 0.803048 0.0180358
5712048000 0.808122 0.00186928
5724046000 0.813216 -0.0152951
5736044000 0.819792 -0.0320386
5748042000 0.822849 -0.0467821
5760040000 0.826607 -0.0637458
5772038000 0.829592 -0.0813206
5784036000 0.835255 -0.0955214
5796034000 0.839505 -0.110981
5808032000 0.844806 -0.12303
5820030000 0.84725 -0.142806
5832028000 0.853809 -0.155361
5844026000 0.855531 -0.169163
5856024000 0.859512 -0.185151
5868022000 0.857945 -0.207292
5880020000 0.854321 -0.210053
5892018000 0.861094 -0.232774
5904016000 0.853583 -0.249479
5916014000 0.850646 -0.269578
5928012000 0.85005 -0.286211
5940010000 0.844367 -0.300204
5952008000 0.836586 -0.311677
5964006000 0.828444 -0.330146
5976004000 0.826658 -0.342563
5988002000 0.818262 -0.357128
6000000000 0.809422 -0.371543
