# Hz S RI R 50
1000000 0.988651 -0.00308943
12998000 1.01462 -0.0586581
24996000 1.00953 -0.12696
36994000 0.996206 -0.192799
48992000 0.979189 -0.255716
60990000 0.958763 -0.315631
72988000 0.933646 -0.374666
84986000 0.905958 -0.430226
96984000 0.874803 -0.48418
108982000 0.841176 -0.536346
120980000 0.805971 -0.585514
132978000 0.768635 -0.632168
144976000 0.72976 -0.676803
156974000 0.689084 -0.719609
168972000 0.647025 -0.758976
180970000 0.603979 -0.795443
192968000 0.559928 -0.828707
204966000 0.514471 -0.859744
216964000 0.468636 -0.886828
228962000 0.421893 -0.910533
240960000 0.37586 -0.930975
252958000 0.329433 -0.947511
264956000 0.282982 -0.961226
276954000 0.236917 -0.972236
288952000 0.191794 -0.979696
300950000 0.146788 -0.984826
312948000 0.103231 -0.987645
324946000 0.061087 -0.988274
336944000 0.0199838 -0.987288
348942000 -0.0198763 -0.985721
360940000 -0.0598887 -0.98242
372938000 -0.098646 -0.978998
384936000 -0.135809 -0.975523
396934000 -0.172493 -0.971008
408932000 -0.209376 -0.966195
420930000 -0.244135 -0.960472
432928000 -0.279875 -0.953499
444926000 -0.313374 -0.94485
456924000 -0.345775 -0.93612
468922000 -0.378204 -0.92674
480920000 -0.407584 -0.915265
492918000 -0.436428 -0.9022
504916000 -0.463926 -0.888347
516914000 -0.491512 -0.874113
528912000 -0.517002 -0.857946
540910000 -0.541933 -0.841136
552908000 -0.564285 -0.823746
564906000 -0.586732 -0.806877
576904000 -0.607347 -0.789301
588902000 -0.626962 -0.772445
600900000 -0.645617 -0.754323
612898000 -0.663444 -0.737762
624896000 -0.681503 -0.720921
636894000 -0.699063 -0.704236
648892000 -0.716571 -0.688287
660890000 -0.733474 -0.672304
672888000 -0.750731 -0.655744
684886000 -0.767255 -0.639298
696884000 -0.784024 -0.621704
708882000 -0.80012 -0.605057
720880000 -0.815588 -0.587509
732878000 -0.829229 -0.56837
744876000 -0.842348 -0.550366
756874000 -0.855166 -0.531446
768872000 -0.867272 -0.511296
780870000 -0.878285 -0.491181
792868000 -0.887304 -0.471744
804866000 -0.896004 -0.451981
816864000 -0.904893 -0.432829
828862000 -0.913215 -0.414853
840860000 -0.919369 -0.396988
852858000 -0.923556 -0.379478
864856000 -0.931129 -0.360802
876854000 -0.936821 -0.342841
888852000 -0.943664 -0.326167
900850000 -0.949215 -0.309042
912848000 -0.954639 -0.293467
924846000 -0.960315 -0.277662
936844000 -0.965878 -0.262477
948842000 -0.971922 -0.247837
960840000 -0.978071 -0.233875
972838000 -0.983855 -0.218604
984836000 -0.989188 -0.202481
996834000 -0.993157 -0.187284
1008832000 -0.996512 -0.172428
1020830000 -1.0001 -0.157023
1032828000 -1.00259 -0.140612
1044826000 -1.00477 -0.124487
1056824000 -1.00676 -0.108072
1068822000 -1.00822 -0.0906163
1080820000 -1.00824 -0.0728861
1092818000 -1.00934 -0.0560883
1104816000 -1.00822 -0.0395229
1116814000 -1.00802 -0.0236542
1128812000 -1.00792 -0.00806818
1140810000 -1.00669 0.00773666
1152808000 -1.00696 0.0221753
1164806000 -1.00625 0.0364817
1176804000 -1.00886 0.0528631
1188802000 -1.0041 0.0680958
1200800000 -1.00265 0.0792762
1212798000 -1.0027 0.09107
1224796000 -1.00132 0.103078
1236794000 -1.00159 0.114571
1248792000 -1.00104 0.126806
1260790000 -1.0002 0.138231
1272788000 -0.999298 0.149171
1284786000 -0.996399 0.159496
1296784000 -0.992923 0.171268
1308782000 -0.990065 0.184615
1320780000 -0.987574 0.197914
1332778000 -0.984691 0.211496
1344776000 -0.982029 0.225925
1356774000 -0.979482 0.240434
1368772000 -0.976663 0.252695
1380770000 -0.973811 0.267551
1392768000 -0.969465 0.282391
1404766000 -0.963952 0.297717
1416764000 -0.959605 0.313868
1428762000 -0.954095 0.328065
1440760000 -0.948627 0.34169
1452758000 -0.943975 0.354422
1464756000 -0.940215 0.367041
1476754000 -0.935801 0.380362
1488752000 -0.931163 0.391262
1500750000 -0.926893 0.401961
1512748000 -0.918796 0.411163
1524746000 -0.913193 0.420559
1536744000 -0.906488 0.429238
1548742000 -0.900093 0.439893
1560740000 -0.894529 0.449075
1572738000 -0.889083 0.459259
1584736000 -0.885106 0.469847
1596734000 -0.881481 0.480875
1608732000 -0.877238 0.492047
1620730000 -0.872944 0.502012
1632728000 -0.867866 0.513497
1644726000 -0.861821 0.52459
1656724000 -0.854798 0.535895
1668722000 -0.849189 0.547457
1680720000 -0.84389 0.556857
1692718000 -0.838221 0.56689
1704716000 -0.833215 0.575868
1716714000 -0.827431 0.583721
1728712000 -0.822242 0.59325
1740710000 -0.812946 0.604465
1752708000 -0.803215 0.614345
1764706000 -0.793645 0.622017
1776704000 -0.784002 0.630255
1788702000 -0.774512 0.637435
1800700000 -0.76214 0.648036
1812698000 -0.752135 0.653476
1824696000 -0.743761 0.664048
1836694000 -0.734904 0.671637
1848692000 -0.727233 0.682937
1860690000 -0.718264 0.691262
1872688000 -0.709578 0.700429
1884686000 -0.70112 0.710674
1896684000 -0.694104 0.720019
1908682000 -0.684811 0.731795
1920680000 -0.67886 0.741735
1932678000 -0.670005 0.753046
1944676000 -0.662779 0.761458
1956674000 -0.657592 0.770283
1968672000 -0.652511 0.778301
1980670000 -0.64578 0.787047
1992668000 -0.642681 0.788231
2004666000 -0.637034 0.792563
2016664000 -0.633201 0.797347
2028662000 -0.62734 0.799957
2040660000 -0.619469 0.802363
2052658000 -0.612286 0.804233
2064656000 -0.603702 0.80668
2076654000 -0.593883 0.81027
2088652000 -0.58249 0.81292
2100650000 -0.570498 0.815996
2112648000 -0.556545 0.821933
2124646000 -0.542367 0.829076
2136644000 -0.526786 0.836598
2148642000 -0.51418 0.847044
2160640000 -0.500344 0.856306
2172638000 -0.490328 0.865734
2184636000 -0.480116 0.878318
2196634000 -0.470221 0.889459
2208632000 -0.464674 0.900412
2220630000 -0.460326 0.908103
2232628000 -0.457501 0.914899
2244626000 -0.455526 0.919103
2256624000 -0.453992 0.923399
2268622000 -0.44864 0.925863
2280620000 -0.447368 0.926485
2292618000 -0.443552 0.930155
2304616000 -0.438227 0.929965
2316614000 -0.431962 0.929525
2328612000 -0.42033 0.928783
2340610000 -0.407894 0.929208
2352608000 -0.392207 0.928812
2364606000 -0.37624 0.929195
2376604000 -0.359944 0.930915
2388602000 -0.342384 0.93442
2400600000 -0.325041 0.937719
2412598000 -0.307968 0.944448
2424596000 -0.293515 0.947495
2436594000 -0.276033 0.954454
2448592000 -0.263242 0.958341
2460590000 -0.249359 0.966147
2472588000 -0.23898 0.974281
2484586000 -0.231335 0.980591
2496584000 -0.222479 0.987797
2508582000 -0.213715 0.992937
2520580000 -0.202139 1.00054
2532578000 -0.199939 1.00182
2544576000 -0.193257 1.00644
2556574000 -0.187963 1.00795
2568572000 -0.178493 1.01081
2580570000 -0.1696 1.00916
2592568000 -0.16329 1.00818
2604566000 -0.159474 1.00355
2616564000 -0.145465 1.00095
2628562000 -0.135269 0.999541
2640560000 -0.125604 0.992797
2652558000 -0.114016 0.9922
2664556000 -0.103492 0.990333
2676554000 -0.0897794 0.989101
2688552000 -0.0778075 0.987316
2700550000 -0.0638055 0.988259
2712548000 -0.0511879 0.986421
2724546000 -0.0390372 0.988094
2736544000 -0.0278615 0.992303
2748542000 -0.0153193 0.994568
2760540000 -0.00397333 0.997366
2772538000 0.00687454 1.00126
2784536000 0.0179747 1.00474
2796534000 0.0270168 1.00548
2808532000 0.0339685 1.00897
2820530000 0.0435453 1.00926
2832528000 0.0516352 1.00862
2844526000 0.0601145 1.00996
2856524000 0.0681336 1.00609
2868522000 0.0759488 1.00338
2880520000 0.0830622 0.999984
2892518000 0.0916708 0.995009
2904516000 0.099782 0.993246
2916514000 0.107433 0.989837
2928512000 0.116135 0.985354
2940510000 0.119777 0.984028
2952508000 0.130971 0.979954
2964506000 0.14237 0.975617
2976504000 0.152463 0.973044
2988502000 0.165393 0.971205
3000500000 0.173903 0.974165
3012498000 0.188711 0.972679
3024496000 0.193759 0.971532
3036494000 0.207067 0.971537
3048492000 0.218407 0.970461
3060490000 0.227579 0.969277
3072488000 0.234985 0.967784
3084486000 0.243534 0.967851
3096484000 0.251791 0.965184
3108482000 0.258874 0.963659
3120480000 0.267761 0.959921
3132478000 0.272592 0.955777
3144476000 0.281077 0.952188
3156474000 0.2894 0.949786
3168472000 0.295105 0.946998
3180470000 0.305091 0.942981
3192468000 0.314171 0.938452
3204466000 0.323747 0.93239
3216464000 0.333263 0.927722
3228462000 0.34656 0.923779
3240460000 0.356387 0.918402
3252458000 0.367359 0.915979
3264456000 0.377286 0.912569
3276454000 0.387347 0.90947
3288452000 0.398959 0.904488
3300450000 0.405218 0.898559
3312448000 0.418482 0.893852
3324446000 0.426978 0.887215
3336444000 0.438078 0.884123
3348442000 0.446564 0.878129
3360440000 0.455338 0.873027
3372438000 0.465264 0.865167
3384436000 0.473736 0.861071
3396434000 0.481676 0.850785
3408432000 0.49228 0.846322
3420430000 0.503824 0.84164
3432428000 0.512499 0.834754
3444426000 0.524982 0.82618
3456424000 0.536907 0.82145
3468422000 0.544761 0.814494
3480420000 0.555524 0.807284
3492418000 0.565498 0.800895
3504416000 0.576015 0.794776
3516414000 0.585992 0.787476
3528412000 0.594927 0.784426
3540410000 0.602121 0.779739
3552408000 0.610682 0.771748
3564406000 0.618024 0.767731
3576404000 0.622917 0.75812
3588402000 0.632933 0.757638
3600400000 0.637787 0.746738
3612398000 0.644589 0.741372
3624396000 0.651342 0.732457
3636394000 0.659306 0.725552
3648392000 0.666182 0.718828
3660390000 0.673107 0.712844
3672388000 0.680778 0.704155
3684386000 0.690715 0.691464
3696384000 0.694734 0.68646
3708382000 0.704948 0.67735
3720380000 0.715033 0.667734
3732378000 0.720503 0.658336
3744376000 0.726552 0.649386
3756374000 0.734904 0.639783
3768372000 0.742747 0.632317
3780370000 0.75051 0.621675
3792368000 0.755546 0.616619
3804366000 0.76481 0.608164
3816364000 0.767255 0.59964
3828362000 0.77272 0.595329
3840360000 0.777209 0.591449
3852358000 0.783078 0.582958
3864356000 0.784995 0.575494
3876354000 0.788126 0.569556
3888352000 0.792411 0.563979
3900350000 0.7973 0.558172
3912348000 0.800582 0.552039
3924346000 0.805302 0.546368
3936344000 0.808014 0.539748
3948342000 0.81007 0.532829
3960340000 0.810267 0.531083
3972338000 0.815054 0.522676
3984336000 0.8197 0.509483
3996334000 0.825942 0.504616
4008332000 0.83166 0.495965
4020330000 0.837556 0.487569
4032328000 0.844498 0.477752
4044326000 0.847768 0.468454
4056324000 0.852951 0.457583
4068322000 0.855276 0.444986
4080320000 0.859297 0.431135
4092318000 0.865817 0.416766
4104316000 0.870945 0.398659
4116314000 0.876033 0.37769
4128312000 0.883391 0.362419
4140310000 0.889213 0.343505
4152308000 0.895298 0.325969
4164306000 0.902271 0.309396
4176304000 0.906421 0.296674
4188302000 0.912451 0.285193
4200300000 0.917991 0.278885
4212298000 0.915939 0.273102
4224296000 0.916945 0.271725
4236294000 0.920012 0.265107
4248292000 0.921648 0.263854
4260290000 0.928174 0.259331
4272288000 0.925936 0.254566
4284286000 0.925453 0.248822
4296284000 0.928151 0.240857
4308282000 0.927595 0.229049
4320280000 0.929622 0.213817
4332278000 0.931287 0.202967
4344276000 0.927911 0.192223
4356274000 0.931248 0.177383
4368272000 0.924588 0.163578
4380270000 0.925401 0.146592
4392268000 0.921304 0.12588
4404266000 0.920868 0.110229
4416264000 0.920678 0.0871165
4428262000 0.920976 0.0685412
4440260000 0.921797 0.0500275
4452258000 0.92643 0.0331559
4464256000 0.927954 0.0172065
4476254000 0.928719 0.00168278
4488252000 0.930053 -0.0111813
4500250000 0.930352 -0.019985
4512248000 0.930633 -0.0358058
4524246000 0.932918 -0.0445308
4536244000 0.934183 -0.0538321
4548242000 0.932497 -0.0650568
4560240000 0.934643 -0.0687631
4572238000 0.929618 -0.0804334
4584236000 0.924996 -0.0826607
4596234000 0.92248 -0.0948047
4608232000 0.911497 -0.103837
4620230000 0.902688 -0.11536
4632228000 0.901933 -0.132429
4644226000 0.891831 -0.147977
4656224000 0.879043 -0.165927
4668222000 0.872161 -0.182504
4680220000 0.86057 -0.202633
4692218000 0.857761 -0.222113
4704216000 0.844689 -0.239033
4716214000 0.836493 -0.257189
4728212000 0.824947 -0.272338
4740210000 0.814009 -0.290818
4752208000 0.80022 -0.310932
4764206000 0.790174 -0.327123
4776204000 0.779605 -0.343537
4788202000 0.771846 -0.35908
4800200000 0.758278 -0.374573
4812198000 0.751389 -0.391293
4824196000 0.740998 -0.403878
4836194000 0.727495 -0.412485
4848192000 0.716285 -0.426776
4860190000 0.702802 -0.430371
4872188000 0.686602 -0.441666
4884186000 0.664306 -0.449611
4896184000 0.642336 -0.459387
4908182000 0.623366 -0.470938
4920180000 0.596178 -0.476798
4932178000 0.571635 -0.489519
4944176000 0.542174 -0.494212
4956174000 0.514765 -0.503749
4968172000 0.479956 -0.503741
4980170000 0.44789 -0.50773
4992168000 0.413072 -0.509499
5004166000 0.377657 -0.510352
5016164000 0.341295 -0.511838
5028162000 0.30852 -0.509789
5040160000 0.270911 -0.502976
5052158000 0.23573 -0.497623
5064156000 0.201459 -0.484287
5076154000 0.170407 -0.470099
5088152000 0.137851 -0.456047
5100150000 0.107813 -0.434203
5112148000 0.087074 -0.409572
5124146000 0.0601976 -0.384035
5136144000 0.0375034 -0.351029
5148142000 0.0187896 -0.318616
5160140000 0.00156415 -0.276715
5172138000 -0.00495009 -0.237665
5184136000 -0.0101411 -0.193628
5196134000 -0.0143611 -0.145208
5208132000 -0.0119557 -0.0954152
5220130000 -0.0104618 -0.0499485
5232128000 -0.00661932 -0.00105845
5244126000 -0.00234597 0.0451433
5256124000 0.00813455 0.0869354
5268122000 0.0165528 0.136155
5280120000 0.0375269 0.166381
5292118000 0.0589036 0.198335
5304116000 0.0910581 0.224028
5316114000 0.121558 0.244021
5328112000 0.157326 0.262735
5340110000 0.198354 0.27824
5352108000 0.229087 0.289548
5364106000 0.267588 0.300848
5376104000 0.302352 0.305202
5388102000 0.335326 0.310004
5400100000 0.3673 0.311411
5412098000 0.397974 0.310318
5424096000 0.428153 0.307139
5436094000 0.457385 0.304251
5448092000 0.483255 0.297159
5460090000 0.510937 0.289949
5472088000 0.537241 0.279384
5484086000 0.563583 0.268797
5496084000 0.590198 0.255098
5508082000 0.614125 0.241364
5520080000 0.634493 0.226928
5532078000 0.65668 0.215311
5544076000 0.675978 0.20052
5556074000 0.694901 0.186705
5568072000 0.709099 0.177682
5580070000 0.725738 0.165468
5592068000 0.737692 0.147968
5604066000 0.75344 0.136315
5616064000 0.757466 0.121137
5628062000 0.771722 0.10751
5640060000 0.77831 0.0968742
5652058000 0.783001 0.0794553
5664056000 0.789699 0.0647827
5676054000 0.796301 0.0488664
5688052000 0.798874 0.0331417
5700050000 0.803486 0.0184587
5712048000 0.808051 0.00194322
5724046000 0.813287 -0.0153683
5736044000 0.819381 -0.0320711
5748042000 0.822255 -0.0484228
5760040000 0.82537 -0.0636491
5772038000 0.829939 -0.081715
5784036000 0.835759 -0.0955594
5796034000 0.838089 -0.111552
5808032000 0.843975 -0.123082
5820030000 0.846222 -0.142642
5832028000 0.853922 -0.15564
5844026000 0.855962 -0.170053
5856024000 0.85981 -0.186551
5868022000 0.856116 -0.206149
5880020000 0.855988 -0.214204
5892018000 0.856933 -0.229159
5904016000 0.859586 -0.249525
5916014000 0.856019 -0.269596
5928012000 0.845963 -0.287119
5940010000 0.84361 -0.298114
5952008000 0.841486 -0.313866
5964006000 0.829347 -0.326089
5976004000 0.826984 -0.342765
5988002000 0.817893 -0.357006
6000000000 0.80788 -0.37193
