# Hz S RI R 50
1000000 0.99228 -0.000678758
12998000 1.01458 -0.0585497
24996000 1.00951 -0.126784
36994000 0.996164 -0.192791
48992000 0.978979 -0.255982
60990000 0.958619 -0.315693
72988000 0.933638 -0.374462
84986000 0.905885 -0.430373
96984000 0.874745 -0.484062
108982000 0.84118 -0.536113
120980000 0.805849 -0.585512
132978000 0.768746 -0.632092
144976000 0.730286 -0.67653
156974000 0.689127 -0.719419
168972000 0.647085 -0.758832
180970000 0.604649 -0.795495
192968000 0.560027 -0.828925
204966000 0.51446 -0.860024
216964000 0.468502 -0.886881
228962000 0.421629 -0.910659
240960000 0.375586 -0.930937
252958000 0.329654 -0.947585
264956000 0.283188 -0.961286
276954000 0.236864 -0.972257
288952000 0.191846 -0.979501
300950000 0.146823 -0.984709
312948000 0.103047 -0.987483
324946000 0.0613465 -0.988409
336944000 0.0201246 -0.987503
348942000 -0.0201178 -0.985934
360940000 -0.0601574 -0.982385
372938000 -0.0987506 -0.979131
384936000 -0.135775 -0.975508
396934000 -0.173042 -0.971006
408932000 -0.209688 -0.966224
420930000 -0.244101 -0.960589
432928000 -0.280012 -0.953228
444926000 -0.313961 -0.944508
456924000 -0.345725 -0.935967
468922000 -0.378019 -0.926757
480920000 -0.407812 -0.915431
492918000 -0.436167 -0.902406
504916000 -0.464362 -0.888376
516914000 -0.492098 -0.874044
528912000 -0.517098 -0.858146
540910000 -0.541914 -0.841205
552908000 -0.564432 -0.824012
564906000 -0.586845 -0.806538
576904000 -0.607506 -0.789129
588902000 -0.627372 -0.772252
600900000 -0.646023 -0.754077
612898000 -0.663684 -0.737686
624896000 -0.681508 -0.720747
636894000 -0.699376 -0.703847
648892000 -0.716804 -0.687816
660890000 -0.734027 -0.672033
672888000 -0.75062 -0.655286
684886000 -0.76728 -0.639617
696884000 -0.783445 -0.621265
708882000 -0.799759 -0.605146
720880000 -0.815227 -0.587363
732878000 -0.829342 -0.568331
744876000 -0.842692 -0.550273
756874000 -0.855369 -0.531285
768872000 -0.867689 -0.511171
780870000 -0.878293 -0.491431
792868000 -0.887622 -0.471322
804866000 -0.895948 -0.451184
816864000 -0.905467 -0.432247
828862000 -0.912868 -0.415311
840860000 -0.919409 -0.396739
852858000 -0.92474 -0.379055
864856000 -0.930997 -0.360825
876854000 -0.937096 -0.343116
888852000 -0.943602 -0.326336
900850000 -0.949136 -0.30933
912848000 -0.954834 -0.293588
924846000 -0.960352 -0.277689
936844000 -0.96592 -0.262177
948842000 -0.972245 -0.247976
960840000 -0.978418 -0.233994
972838000 -0.984062 -0.218875
984836000 -0.989165 -0.202884
996834000 -0.993382 -0.187744
1008832000 -0.996486 -0.172795
1020830000 -1.00028 -0.15718
1032828000 -1.00269 -0.140506
1044826000 -1.00504 -0.12434
1056824000 -1.0072 -0.108025
1068822000 -1.00875 -0.0909449
1080820000 -1.00886 -0.0738073
1092818000 -1.00786 -0.0558781
1104816000 -1.00835 -0.0397556
1116814000 -1.00755 -0.0227492
1128812000 -1.00775 -0.00789569
1140810000 -1.00691 0.00791729
1152808000 -1.00629 0.0223058
1164806000 -1.00644 0.0364506
1176804000 -1.00838 0.05249
1188802000 -1.00403 0.0681054
1200800000 -1.00272 0.0781993
1212798000 -1.00248 0.0908387
1224796000 -1.00126 0.102931
1236794000 -1.0019 0.115452
1248792000 -1.00093 0.126552
1260790000 -1.0006 0.137828
1272788000 -0.99921 0.149481
1284786000 -0.996761 0.159628
1296784000 -0.993021 0.171544
1308782000 -0.990042 0.18452
1320780000 -0.987613 0.198063
1332778000 -0.98504 0.21172
1344776000 -0.982265 0.225693
1356774000 -0.979806 0.2401
1368772000 -0.976868 0.252805
1380770000 -0.974701 0.268105
1392768000 -0.969138 0.282425
1404766000 -0.964508 0.298063
1416764000 -0.960459 0.314333
1428762000 -0.954205 0.327975
1440760000 -0.949091 0.342394
1452758000 -0.944189 0.35485
1464756000 -0.939825 0.368011
1476754000 -0.9359 0.380554
1488752000 -0.931397 0.391445
1500750000 -0.926378 0.40353
1512748000 -0.918901 0.411472
1524746000 -0.91296 0.420463
1536744000 -0.906304 0.429255
1548742000 -0.900561 0.440112
1560740000 -0.894687 0.449145
1572738000 -0.88994 0.45918
1584736000 -0.884838 0.470191
1596734000 -0.881554 0.480718
1608732000 -0.877086 0.49231
1620730000 -0.872998 0.502289
1632728000 -0.868155 0.513521
1644726000 -0.862324 0.525083
1656724000 -0.855452 0.535682
1668722000 -0.849177 0.545378
1680720000 -0.845026 0.556472
1692718000 -0.83952 0.565886
1704716000 -0.834546 0.575757
1716714000 -0.826723 0.582327
1728712000 -0.821032 0.593366
1740710000 -0.812235 0.604399
1752708000 -0.803043 0.614153
1764706000 -0.793611 0.621773
1776704000 -0.784151 0.630147
1788702000 -0.774748 0.637219
1800700000 -0.763777 0.646793
1812698000 -0.751905 0.653224
1824696000 -0.743863 0.663508
1836694000 -0.735446 0.671078
1848692000 -0.726589 0.682378
1860690000 -0.718646 0.691265
1872688000 -0.709709 0.700801
1884686000 -0.701414 0.710517
1896684000 -0.694105 0.72003
1908682000 -0.68517 0.731569
1920680000 -0.679016 0.742418
1932678000 -0.6709 0.752701
1944676000 -0.661608 0.76171
1956674000 -0.65685 0.770646
1968672000 -0.651348 0.77818
1980670000 -0.646672 0.785862
1992668000 -0.641653 0.787641
2004666000 -0.63872 0.794528
2016664000 -0.6336 0.797614
2028662000 -0.626986 0.799807
2040660000 -0.619594 0.802395
2052658000 -0.612664 0.804198
2064656000 -0.604058 0.806116
2076654000 -0.593926 0.810002
2088652000 -0.581985 0.812448
2100650000 -0.570932 0.817301
2112648000 -0.557383 0.820367
2124646000 -0.543781 0.828622
2136644000 -0.528297 0.837311
2148642000 -0.514855 0.846121
2160640000 -0.500985 0.855716
2172638000 -0.490847 0.866094
2184636000 -0.480325 0.878174
2196634000 -0.470007 0.889432
2208632000 -0.464435 0.900615
2220630000 -0.459603 0.907416
2232628000 -0.457752 0.914551
2244626000 -0.455766 0.920184
2256624000 -0.45433 0.924131
2268622000 -0.448546 0.925718
2280620000 -0.445814 0.927049
2292618000 -0.443536 0.929259
2304616000 -0.439117 0.929517
2316614000 -0.431935 0.929106
2328612000 -0.420899 0.929081
2340610000 -0.407849 0.929645
2352608000 -0.391802 0.929585
2364606000 -0.377125 0.931888
2376604000 -0.359363 0.929788
2388602000 -0.341122 0.935138
2400600000 -0.323675 0.93854
2412598000 -0.307521 0.94224
2424596000 -0.291853 0.948692
2436594000 -0.277165 0.954345
2448592000 -0.263111 0.958766
2460590000 -0.249094 0.966201
2472588000 -0.238826 0.974449
2484586000 -0.231299 0.980759
2496584000 -0.222049 0.988164
2508582000 -0.214139 0.991927
2520580000 -0.203754 1.00152
2532578000 -0.200448 1.0018
2544576000 -0.193147 1.0087
2556574000 -0.186023 1.00765
2568572000 -0.178961 1.01224
2580570000 -0.169522 1.00968
2592568000 -0.162936 1.00824
2604566000 -0.152645 1.00477
2616564000 -0.145437 1.0007
2628562000 -0.134242 1.00002
2640560000 -0.12632 0.994163
2652558000 -0.114035 0.993446
2664556000 -0.103191 0.991138
2676554000 -0.0907244 0.988282
2688552000 -0.0782264 0.987994
2700550000 -0.0654052 0.988856
2712548000 -0.0523022 0.985362
2724546000 -0.0387488 0.987532
2736544000 -0.0277551 0.992546
2748542000 -0.0153216 0.995245
2760540000 -0.00381768 0.99766
2772538000 0.00682988 1.00121
2784536000 0.0171921 1.00519
2796534000 0.0272468 1.00594
2808532000 0.0345969 1.00781
2820530000 0.0434776 1.00926
2832528000 0.0516632 1.00886
2844526000 0.0600852 1.00782
2856524000 0.0679837 1.00652
2868522000 0.0761064 1.00363
2880520000 0.083305 0.999844
2892518000 0.0909253 0.995238
2904516000 0.0990829 0.993681
2916514000 0.107354 0.990102
2928512000 0.115546 0.986825
2940510000 0.119546 0.984561
2952508000 0.130788 0.978891
2964506000 0.141785 0.97573
2976504000 0.151806 0.974979
2988502000 0.165297 0.973864
3000500000 0.175771 0.973562
3012498000 0.189651 0.972891
3024496000 0.19412 0.971622
3036494000 0.207488 0.971596
3048492000 0.217684 0.970986
3060490000 0.227205 0.969996
3072488000 0.235083 0.968004
3084486000 0.244168 0.967308
3096484000 0.251999 0.965895
3108482000 0.259615 0.962014
3120480000 0.267555 0.96427
3132478000 0.270367 0.956508
3144476000 0.281559 0.951945
3156474000 0.289779 0.950859
3168472000 0.297156 0.947242
3180470000 0.305222 0.943455
3192468000 0.313639 0.939275
3204466000 0.323196 0.933236
3216464000 0.332762 0.928423
3228462000 0.345066 0.923393
3240460000 0.35542 0.918612
3252458000 0.36686 0.915559
3264456000 0.37822 0.911699
3276454000 0.387402 0.90878
3288452000 0.398412 0.904616
3300450000 0.40662 0.89842
3312448000 0.418958 0.893031
3324446000 0.426673 0.888211
3336444000 0.437449 0.883883
3348442000 0.445654 0.877879
3360440000 0.45488 0.872832
3372438000 0.463898 0.865576
3384436000 0.474356 0.862128
3396434000 0.482784 0.852193
3408432000 0.49201 0.848339
3420430000 0.503869 0.842769
3432428000 0.512895 0.834289
3444426000 0.524466 0.828198
3456424000 0.535448 0.82182
3468422000 0.543986 0.81452
3480420000 0.555144 0.807316
3492418000 0.565801 0.801915
3504416000 0.575117 0.794782
3516414000 0.585448 0.78806
3528412000 0.595886 0.785247
3540410000 0.601248 0.779163
3552408000 0.609149 0.772099
3564406000 0.619371 0.767552
3576404000 0.62321 0.759689
3588402000 0.631646 0.756052
3600400000 0.637971 0.7473
3612398000 0.643827 0.740322
3624396000 0.651324 0.732529
3636394000 0.658922 0.726375
3648392000 0.66643 0.718318
3660390000 0.673589 0.712879
3672388000 0.679697 0.703811
3684386000 0.690297 0.697647
3696384000 0.697166 0.687993
3708382000 0.705537 0.679136
3720380000 0.713043 0.668804
3732378000 0.720434 0.659729
3744376000 0.726545 0.651142
3756374000 0.73495 0.641255
3768372000 0.742742 0.632646
3780370000 0.750894 0.622051
3792368000 0.755668 0.616771
3804366000 0.762791 0.606
3816364000 0.767575 0.601127
3828362000 0.772313 0.596512
3840360000 0.775671 0.591141
3852358000 0.782762 0.58099
3864356000 0.784691 0.576881
3876354000 0.786918 0.570917
3888352000 0.792701 0.563493
3900350000 0.797069 0.558131
3912348000 0.800616 0.552172
3924346000 0.806032 0.546732
3936344000 0.807822 0.540961
3948342000 0.811598 0.534012
3960340000 0.809976 0.531848
3972338000 0.815661 0.523445
3984336000 0.822135 0.513724
3996334000 0.826204 0.505175
4008332000 0.831654 0.496707
4020330000 0.836988 0.489572
4032328000 0.843426 0.478756
4044326000 0.848551 0.468997
4056324000 0.852866 0.458386
4068322000 0.855036 0.445695
4080320000 0.859581 0.431645
4092318000 0.864876 0.417761
4104316000 0.870819 0.398974
4116314000 0.876557 0.378108
4128312000 0.882997 0.362927
4140310000 0.888402 0.342774
4152308000 0.894156 0.326567
4164306000 0.901089 0.309303
4176304000 0.907235 0.297939
4188302000 0.91265 0.285648
4200300000 0.916383 0.278884
4212298000 0.916026 0.273428
4224296000 0.916859 0.272448
4236294000 0.919403 0.264874
4248292000 0.919361 0.267153
4260290000 0.930315 0.256161
4272288000 0.924222 0.255463
4284286000 0.92813 0.250754
4296284000 0.927311 0.243124
4308282000 0.928082 0.230151
4320280000 0.932224 0.215488
4332278000 0.931233 0.206991
4344276000 0.927329 0.193019
4356274000 0.930915 0.177559
4368272000 0.924903 0.165447
4380270000 0.925446 0.147118
4392268000 0.921788 0.126603
4404266000 0.921881 0.110721
4416264000 0.920893 0.0870047
4428262000 0.91973 0.0689479
4440260000 0.921553 0.0513738
4452258000 0.925217 0.0330612
4464256000 0.927834 0.018708
4476254000 0.928661 0.00108576
4488252000 0.931104 -0.0108232
4500250000 0.930484 -0.0206188
4512248000 0.93074 -0.0355216
4524246000 0.933104 -0.0452878
4536244000 0.933745 -0.0552689
4548242000 0.932805 -0.0662737
4560240000 0.932721 -0.0685897
4572238000 0.92773 -0.0744633
4584236000 0.927635 -0.0841052
4596234000 0.922953 -0.0957197
4608232000 0.9151 -0.103071
4620230000 0.906917 -0.113746
4632228000 0.900098 -0.13254
4644226000 0.891552 -0.148384
4656224000 0.880793 -0.16678
4668222000 0.872648 -0.181899
4680220000 0.860954 -0.201654
4692218000 0.858371 -0.221544
4704216000 0.84458 -0.238758
4716214000 0.836243 -0.2573
4728212000 0.824898 -0.273295
4740210000 0.81354 -0.29162
4752208000 0.800395 -0.3109
4764206000 0.789979 -0.32698
4776204000 0.77979 -0.344096
4788202000 0.771732 -0.35871
4800200000 0.758745 -0.375203
4812198000 0.751592 -0.391112
4824196000 0.741208 -0.404402
4836194000 0.727699 -0.412823
4848192000 0.715208 -0.426576
4860190000 0.701142 -0.43149
4872188000 0.687076 -0.443074
4884186000 0.664652 -0.450717
4896184000 0.643106 -0.457826
4908182000 0.626199 -0.469831
4920180000 0.596524 -0.476095
4932178000 0.572045 -0.489715
4944176000 0.543097 -0.494069
4956174000 0.515826 -0.502383
4968172000 0.479698 -0.50504
4980170000 0.448112 -0.507899
4992168000 0.413428 -0.509071
5004166000 0.378468 -0.509615
5016164000 0.341198 -0.512906
5028162000 0.307237 -0.50949
5040160000 0.271355 -0.502805
5052158000 0.235958 -0.497929
5064156000 0.201748 -0.48467
5076154000 0.171236 -0.471226
5088152000 0.137856 -0.456536
5100150000 0.11014 -0.434004
5112148000 0.0881656 -0.410562
5124146000 0.0606199 -0.384989
5136144000 0.0370823 -0.351839
5148142000 0.0190102 -0.319105
5160140000 0.00191692 -0.277087
5172138000 -0.00486934 -0.238284
5184136000 -0.00980865 -0.19341
5196134000 -0.0146516 -0.145241
5208132000 -0.0114279 -0.0952735
5220130000 -0.0107003 -0.0502179
5232128000 -0.00686375 -0.00122142
5244126000 -0.00252643 0.0449914
5256124000 0.007981 0.0865467
5268122000 0.0197343 0.131286
5280120000 0.037296 0.166324
5292118000 0.0583562 0.198152
5304116000 0.09028 0.223732
5316114000 0.121337 0.243583
5328112000 0.157481 0.262588
5340110000 0.19854 0.277326
5352108000 0.228212 0.289619
5364106000 0.268836 0.299391
5376104000 0.301647 0.306731
5388102000 0.334886 0.310592
5400100000 0.365998 0.313258
5412098000 0.397529 0.311151
5424096000 0.42739 0.307239
5436094000 0.457351 0.304274
5448092000 0.483246 0.297685
5460090000 0.51095 0.290297
5472088000 0.53618 0.279625
5484086000 0.564005 0.269231
5496084000 0.589477 0.255028
5508082000 0.613623 0.242375
5520080000 0.634424 0.228518
5532078000 0.656532 0.216904
5544076000 0.675922 0.200895
5556074000 0.695158 0.187148
5568072000 0.709409 0.17778
5580070000 0.725795 0.163556
5592068000 0.738962 0.150244
5604066000 0.752931 0.137001
5616064000 0.759152 0.122474
5628062000 0.774588 0.10847
5640060000 0.778081 0.0985473
5652058000 0.781388 0.0812694
5664056000 0.790261 0.0670218
5676054000 0.796174 0.050426
5688052000 0.798188 0.0349589
5700050000 0.803288 0.0188549
5712048000 0.808475 0.00212124
5724046000 0.813254 -0.0151759
5736044000 0.819525 -0.0314687
5748042000 0.823467 -0.048062
5760040000 0.824243 -0.0636014
5772038000 0.830467 -0.0807092
5784036000 0.834705 -0.0951866
5796034000 0.838522 -0.109797
5808032000 0.844389 -0.122165
5820030000 0.847563 -0.142113
5832028000 0.854101 -0.155152
5844026000 0.855834 -0.16986
5856024000 0.858828 -0.185368
5868022000 0.858735 -0.205115
5880020000 0.855832 -0.215012
5892018000 0.858664 -0.232001
5904016000 0.853172 -0.248967
5916014000 0.855157 -0.267217
5928012000 0.85067 -0.287268
5940010000 0.843857 -0.296928
5952008000 0.841749 -0.315623
5964006000 0.828821 -0.327717
5976004000 0.827725 -0.342448
5988002000 0.819007 -0.357102
6000000000 0.809526 -0.371649
