# Hz S RI R 50
1000000 0.992383 -0.00570629
12998000 1.01455 -0.0589162
24996000 1.00932 -0.127769
36994000 0.995996 -0.193409
48992000 0.978765 -0.256727
60990000 0.958426 -0.316202
72988000 0.933289 -0.374863
84986000 0.905501 -0.431021
96984000 0.874531 -0.484727
108982000 0.840816 -0.536734
120980000 0.805457 -0.585932
132978000 0.768308 -0.632606
144976000 0.729504 -0.677292
156974000 0.688823 -0.72023
168972000 0.646937 -0.759567
180970000 0.603681 -0.796352
192968000 0.559046 -0.829476
204966000 0.513727 -0.8602
216964000 0.467949 -0.887204
228962000 0.421207 -0.910918
240960000 0.375256 -0.931126
252958000 0.328935 -0.947554
264956000 0.28246 -0.961468
276954000 0.236553 -0.972316
288952000 0.191181 -0.979481
300950000 0.146408 -0.984715
312948000 0.102803 -0.987596
324946000 0.0608532 -0.988379
336944000 0.0198146 -0.987269
348942000 -0.0202379 -0.985808
360940000 -0.0602427 -0.982347
372938000 -0.0990101 -0.979083
384936000 -0.13626 -0.975514
396934000 -0.173103 -0.971142
408932000 -0.209932 -0.96601
420930000 -0.244557 -0.96052
432928000 -0.280449 -0.952907
444926000 -0.314323 -0.94454
456924000 -0.346468 -0.935941
468922000 -0.378525 -0.926484
480920000 -0.408321 -0.915019
492918000 -0.436999 -0.902051
504916000 -0.464512 -0.888095
516914000 -0.492344 -0.873911
528912000 -0.517819 -0.857537
540910000 -0.542345 -0.840975
552908000 -0.56506 -0.82374
564906000 -0.586982 -0.806474
576904000 -0.607871 -0.789135
588902000 -0.627506 -0.771683
600900000 -0.646568 -0.753649
612898000 -0.663662 -0.737308
624896000 -0.681734 -0.720718
636894000 -0.699454 -0.703861
648892000 -0.716987 -0.687905
660890000 -0.733862 -0.672116
672888000 -0.75094 -0.655094
684886000 -0.767717 -0.639234
696884000 -0.783658 -0.62135
708882000 -0.799664 -0.604984
720880000 -0.816101 -0.587584
732878000 -0.829699 -0.568203
744876000 -0.84261 -0.549777
756874000 -0.855772 -0.530742
768872000 -0.867692 -0.510899
780870000 -0.878729 -0.491059
792868000 -0.887507 -0.471705
804866000 -0.895866 -0.451535
816864000 -0.904988 -0.432086
828862000 -0.912315 -0.414487
840860000 -0.919174 -0.395416
852858000 -0.924034 -0.378548
864856000 -0.931157 -0.360257
876854000 -0.937255 -0.342551
888852000 -0.943725 -0.325901
900850000 -0.949492 -0.309077
912848000 -0.954793 -0.293019
924846000 -0.960418 -0.277192
936844000 -0.965939 -0.261953
948842000 -0.971854 -0.247928
960840000 -0.978686 -0.233634
972838000 -0.984369 -0.21878
984836000 -0.989586 -0.202729
996834000 -0.993171 -0.187301
1008832000 -0.996455 -0.172284
1020830000 -1.00008 -0.156477
1032828000 -1.00266 -0.139995
1044826000 -1.00506 -0.123969
1056824000 -1.00718 -0.107723
1068822000 -1.00882 -0.0903879
1080820000 -1.00884 -0.0722346
1092818000 -1.00822 -0.0556097
1104816000 -1.00788 -0.0390216
1116814000 -1.00802 -0.0229711
1128812000 -1.00806 -0.00720842
1140810000 -1.00574 0.00758699
1152808000 -1.00626 0.0225832
1164806000 -1.00646 0.0366044
1176804000 -1.00897 0.0526698
1188802000 -1.00422 0.068249
1200800000 -1.00302 0.078009
1212798000 -1.0025 0.0905487
1224796000 -1.00181 0.103041
1236794000 -1.00157 0.115255
1248792000 -1.00069 0.126495
1260790000 -1.00011 0.138065
1272788000 -0.999578 0.150139
1284786000 -0.99652 0.159989
1296784000 -0.992365 0.171932
1308782000 -0.990007 0.18475
1320780000 -0.987401 0.197979
1332778000 -0.984849 0.211561
1344776000 -0.981983 0.225154
1356774000 -0.979916 0.240376
1368772000 -0.976729 0.252355
1380770000 -0.97297 0.267588
1392768000 -0.968667 0.282066
1404766000 -0.964867 0.297736
1416764000 -0.95995 0.313423
1428762000 -0.954409 0.328611
1440760000 -0.949202 0.34159
1452758000 -0.944225 0.354585
1464756000 -0.939906 0.366923
1476754000 -0.935815 0.380337
1488752000 -0.93118 0.391522
1500750000 -0.925752 0.402864
1512748000 -0.919655 0.411111
1524746000 -0.913168 0.420109
1536744000 -0.90735 0.429122
1548742000 -0.89981 0.439057
1560740000 -0.893734 0.448455
1572738000 -0.88968 0.45926
1584736000 -0.884872 0.46953
1596734000 -0.881713 0.480495
1608732000 -0.877092 0.492284
1620730000 -0.872852 0.502437
1632728000 -0.868125 0.512969
1644726000 -0.863009 0.525568
1656724000 -0.855353 0.535656
1668722000 -0.849613 0.546081
1680720000 -0.844067 0.556477
1692718000 -0.838645 0.566142
1704716000 -0.834131 0.575078
1716714000 -0.826936 0.58261
1728712000 -0.820826 0.592879
1740710000 -0.812 0.604133
1752708000 -0.80349 0.614217
1764706000 -0.793377 0.621665
1776704000 -0.783997 0.630254
1788702000 -0.77429 0.637365
1800700000 -0.764193 0.646606
1812698000 -0.751917 0.654123
1824696000 -0.744159 0.664136
1836694000 -0.734957 0.671667
1848692000 -0.726351 0.681359
1860690000 -0.717603 0.691502
1872688000 -0.709449 0.700673
1884686000 -0.701371 0.710518
1896684000 -0.69413 0.719813
1908682000 -0.6855 0.731594
1920680000 -0.678961 0.742486
1932678000 -0.671469 0.752299
1944676000 -0.662961 0.761474
1956674000 -0.657218 0.769431
1968672000 -0.654125 0.778742
1980670000 -0.645378 0.786215
1992668000 -0.642749 0.789002
2004666000 -0.637297 0.793087
2016664000 -0.633375 0.797262
2028662000 -0.627234 0.799557
2040660000 -0.620441 0.802592
2052658000 -0.612245 0.804263
2064656000 -0.604175 0.806248
2076654000 -0.593829 0.810065
2088652000 -0.582449 0.812251
2100650000 -0.571851 0.817698
2112648000 -0.556677 0.82024
2124646000 -0.543316 0.829195
2136644000 -0.528207 0.837022
2148642000 -0.514549 0.845847
2160640000 -0.501531 0.855448
2172638000 -0.491075 0.866438
2184636000 -0.480669 0.877918
2196634000 -0.470686 0.888997
2208632000 -0.46487 0.901265
2220630000 -0.458908 0.908065
2232628000 -0.457302 0.915956
2244626000 -0.455258 0.919778
2256624000 -0.452989 0.923658
2268622000 -0.448397 0.925118
2280620000 -0.447585 0.928358
2292618000 -0.444043 0.92997
2304616000 -0.438658 0.929764
2316614000 -0.432663 0.929288
2328612000 -0.420867 0.929143
2340610000 -0.408355 0.928911
2352608000 -0.391679 0.929395
2364606000 -0.375244 0.931188
2376604000 -0.359419 0.931078
2388602000 -0.344278 0.932855
2400600000 -0.324587 0.93736
2412598000 -0.308423 0.943212
2424596000 -0.292392 0.947951
2436594000 -0.277426 0.954124
2448592000 -0.26407 0.958707
2460590000 -0.249746 0.966137
2472588000 -0.239385 0.974109
2484586000 -0.231799 0.979959
2496584000 -0.223514 0.988593
2508582000 -0.213339 0.994334
2520580000 -0.206379 0.998398
2532578000 -0.199161 1.00429
2544576000 -0.193452 1.00666
2556574000 -0.186902 1.00531
2568572000 -0.179816 1.01091
2580570000 -0.170644 1.00872
2592568000 -0.163113 1.00839
2604566000 -0.152689 1.00486
2616564000 -0.145528 1.00051
2628562000 -0.13445 1.00019
2640560000 -0.12565 0.995273
2652558000 -0.113794 0.994133
2664556000 -0.102019 0.990106
2676554000 -0.0921627 0.989503
2688552000 -0.0782383 0.988491
2700550000 -0.0654659 0.988039
2712548000 -0.051655 0.985685
2724546000 -0.0393182 0.988157
2736544000 -0.0281265 0.992827
2748542000 -0.0156731 0.994676
2760540000 -0.0047667 0.997451
2772538000 0.0060858 1.00128
2784536000 0.01689 1.00472
2796534000 0.0258279 1.00628
2808532000 0.0362056 1.00797
2820530000 0.0428903 1.01005
2832528000 0.0517341 1.00874
2844526000 0.0594841 1.00842
2856524000 0.0672471 1.00621
2868522000 0.0755506 1.00381
2880520000 0.0827267 1.0008
2892518000 0.0911098 0.994807
2904516000 0.0989189 0.993436
2916514000 0.107045 0.990157
2928512000 0.114726 0.98604
2940510000 0.119815 0.984922
2952508000 0.130794 0.981073
2964506000 0.141767 0.974489
2976504000 0.153465 0.973977
2988502000 0.164708 0.972413
3000500000 0.172271 0.972155
3012498000 0.188062 0.973799
3024496000 0.193239 0.971261
3036494000 0.206873 0.972226
3048492000 0.217599 0.970914
3060490000 0.227061 0.969901
3072488000 0.234116 0.968557
3084486000 0.242925 0.967506
3096484000 0.251309 0.964187
3108482000 0.259336 0.962559
3120480000 0.266662 0.961439
3132478000 0.270573 0.956934
3144476000 0.282678 0.951582
3156474000 0.289765 0.951333
3168472000 0.29599 0.947841
3180470000 0.304983 0.942721
3192468000 0.313758 0.938705
3204466000 0.323121 0.932763
3216464000 0.332681 0.928076
3228462000 0.344541 0.92357
3240460000 0.356362 0.918572
3252458000 0.366704 0.915514
3264456000 0.377771 0.912802
3276454000 0.386 0.910235
3288452000 0.398755 0.902945
3300450000 0.405818 0.898095
3312448000 0.418586 0.894427
3324446000 0.426466 0.887952
3336444000 0.437218 0.884016
3348442000 0.445736 0.877563
3360440000 0.454589 0.872182
3372438000 0.464287 0.865338
3384436000 0.473493 0.860413
3396434000 0.481986 0.852026
3408432000 0.492877 0.844787
3420430000 0.503145 0.840232
3432428000 0.512052 0.835188
3444426000 0.52596 0.82682
3456424000 0.535685 0.821435
3468422000 0.543622 0.814653
3480420000 0.555247 0.807441
3492418000 0.565491 0.801611
3504416000 0.57586 0.795595
3516414000 0.585002 0.78769
3528412000 0.595296 0.782589
3540410000 0.602045 0.778097
3552408000 0.609132 0.772714
3564406000 0.619312 0.76799
3576404000 0.622476 0.760449
3588402000 0.630053 0.755165
3600400000 0.637285 0.747496
3612398000 0.64354 0.741195
3624396000 0.650555 0.733116
3636394000 0.658548 0.726031
3648392000 0.665004 0.719093
3660390000 0.672007 0.712392
3672388000 0.678858 0.704402
3684386000 0.686173 0.694877
3696384000 0.695529 0.685867
3708382000 0.701954 0.679819
3720380000 0.712618 0.667721
3732378000 0.720143 0.659928
3744376000 0.727001 0.649703
3756374000 0.734887 0.641002
3768372000 0.74202 0.633117
3780370000 0.7502 0.623035
3792368000 0.754675 0.618156
3804366000 0.763353 0.609347
3816364000 0.766093 0.602379
3828362000 0.772369 0.595533
3840360000 0.778343 0.59198
3852358000 0.782384 0.583585
3864356000 0.785427 0.577482
3876354000 0.788206 0.57099
3888352000 0.792446 0.564026
3900350000 0.796543 0.559137
3912348000 0.799788 0.552799
3924346000 0.805704 0.547193
3936344000 0.80889 0.541113
3948342000 0.810037 0.535523
3960340000 0.810378 0.530528
3972338000 0.814177 0.522761
3984336000 0.821573 0.512495
3996334000 0.826106 0.503885
4008332000 0.830964 0.497402
4020330000 0.835898 0.489428
4032328000 0.842717 0.478712
4044326000 0.847291 0.469626
4056324000 0.852841 0.457996
4068322000 0.855012 0.44551
4080320000 0.858553 0.431902
4092318000 0.864766 0.417756
4104316000 0.868937 0.399123
4116314000 0.87586 0.38016
4128312000 0.882615 0.363946
4140310000 0.889118 0.343295
4152308000 0.894032 0.327189
4164306000 0.902059 0.311042
4176304000 0.907222 0.298337
4188302000 0.912177 0.286171
4200300000 0.91562 0.279412
4212298000 0.915455 0.273746
4224296000 0.916834 0.272743
4236294000 0.919049 0.265699
4248292000 0.916067 0.265849
4260290000 0.927206 0.25787
4272288000 0.92546 0.257602
4284286000 0.925965 0.249191
4296284000 0.930313 0.242371
4308282000 0.929388 0.231093
4320280000 0.932162 0.217504
4332278000 0.931855 0.208149
4344276000 0.929825 0.190216
4356274000 0.930506 0.177502
4368272000 0.925055 0.164226
4380270000 0.925091 0.147197
4392268000 0.921357 0.126814
4404266000 0.92107 0.110569
4416264000 0.920426 0.0891085
4428262000 0.919879 0.0705436
4440260000 0.92045 0.0506244
4452258000 0.926264 0.0326065
4464256000 0.926614 0.0197188
4476254000 0.928863 0.00157779
4488252000 0.931068 -0.00934
4500250000 0.930381 -0.0197743
4512248000 0.930766 -0.0347348
4524246000 0.932501 -0.0440885
4536244000 0.933448 -0.0546162
4548242000 0.933893 -0.0629465
4560240000 0.93122 -0.0692274
4572238000 0.927104 -0.0786817
4584236000 0.926562 -0.0839061
4596234000 0.922312 -0.0929855
4608232000 0.915598 -0.103278
4620230000 0.905054 -0.114687
4632228000 0.900524 -0.131027
4644226000 0.89127 -0.146548
4656224000 0.880661 -0.165354
4668222000 0.872191 -0.181349
4680220000 0.860451 -0.201053
4692218000 0.858103 -0.220733
4704216000 0.844469 -0.239756
4716214000 0.836318 -0.256058
4728212000 0.823305 -0.272109
4740210000 0.813739 -0.290808
4752208000 0.800336 -0.309237
4764206000 0.791613 -0.326366
4776204000 0.779721 -0.343441
4788202000 0.77176 -0.357724
4800200000 0.758154 -0.373875
4812198000 0.751409 -0.390416
4824196000 0.742532 -0.402212
4836194000 0.727882 -0.411112
4848192000 0.714954 -0.425564
4860190000 0.70144 -0.431756
4872188000 0.684701 -0.43989
4884186000 0.662485 -0.449149
4896184000 0.643775 -0.459084
4908182000 0.626207 -0.470857
4920180000 0.597451 -0.474503
4932178000 0.572066 -0.488324
4944176000 0.542996 -0.493361
4956174000 0.51562 -0.501912
4968172000 0.480187 -0.503446
4980170000 0.447045 -0.507077
4992168000 0.413033 -0.509186
5004166000 0.378445 -0.510624
5016164000 0.341235 -0.511292
5028162000 0.307736 -0.509648
5040160000 0.270902 -0.502279
5052158000 0.236001 -0.497021
5064156000 0.201538 -0.483495
5076154000 0.170735 -0.469685
5088152000 0.139352 -0.45596
5100150000 0.109478 -0.43323
5112148000 0.0881478 -0.409296
5124146000 0.0608925 -0.383272
5136144000 0.0365206 -0.350536
5148142000 0.0189438 -0.318049
5160140000 0.00168522 -0.27611
5172138000 -0.0048168 -0.237277
5184136000 -0.00985714 -0.192493
5196134000 -0.0149437 -0.14477
5208132000 -0.0114866 -0.0943901
5220130000 -0.010527 -0.0491582
5232128000 -0.00649574 -0.000563847
5244126000 -0.00220592 0.0456791
5256124000 0.00827284 0.0872611
5268122000 0.020246 0.132001
5280120000 0.0377717 0.166668
5292118000 0.059238 0.1989
5304116000 0.0911152 0.224461
5316114000 0.122649 0.244134
5328112000 0.158379 0.262647
5340110000 0.199327 0.278263
5352108000 0.228312 0.288803
5364106000 0.26937 0.301542
5376104000 0.301396 0.306489
5388102000 0.333897 0.312032
5400100000 0.365996 0.310847
5412098000 0.397141 0.3122
5424096000 0.427821 0.307935
5436094000 0.457416 0.304568
5448092000 0.483262 0.297729
5460090000 0.511051 0.290411
5472088000 0.536715 0.28022
5484086000 0.563345 0.270059
5496084000 0.588522 0.255289
5508082000 0.614135 0.241981
5520080000 0.634191 0.229027
5532078000 0.656609 0.216111
5544076000 0.675802 0.200792
5556074000 0.694997 0.187335
5568072000 0.70849 0.178706
5580070000 0.727092 0.165411
5592068000 0.737447 0.149309
5604066000 0.754173 0.137146
5616064000 0.76067 0.123112
5628062000 0.772363 0.111052
5640060000 0.774318 0.10154
5652058000 0.783174 0.0836424
5664056000 0.791043 0.0683867
5676054000 0.799279 0.0525578
5688052000 0.799156 0.0351211
5700050000 0.803861 0.0184969
5712048000 0.807836 0.00277612
5724046000 0.81329 -0.014686
5736044000 0.820038 -0.030994
5748042000 0.822004 -0.0461435
5760040000 0.826697 -0.0635631
5772038000 0.829577 -0.0807901
5784036000 0.835265 -0.0949898
5796034000 0.839185 -0.110465
5808032000 0.844515 -0.121624
5820030000 0.847068 -0.141871
5832028000 0.853815 -0.154397
5844026000 0.855905 -0.169617
5856024000 0.858998 -0.185054
5868022000 0.858153 -0.205027
5880020000 0.854612 -0.216635
5892018000 0.856179 -0.230674
5904016000 0.85546 -0.250215
5916014000 0.856005 -0.26518
5928012000 0.849376 -0.284758
5940010000 0.843953 -0.297388
5952008000 0.838262 -0.311884
5964006000 0.830967 -0.3259
5976004000 0.826392 -0.340947
5988002000 0.818975 -0.357172
6000000000 0.809238 -0.371182
