# Hz S RI R 50
1000000 0.988286 -0.00430373
12998000 1.01448 -0.0586616
24996000 1.00951 -0.126933
36994000 0.996085 -0.192453
48992000 0.979038 -0.255906
60990000 0.95855 -0.315336
72988000 0.933679 -0.374083
84986000 0.905799 -0.430125
96984000 0.874822 -0.483911
108982000 0.841178 -0.535901
120980000 0.80566 -0.585524
132978000 0.768548 -0.632024
144976000 0.729719 -0.676482
156974000 0.689003 -0.719653
168972000 0.646756 -0.759029
180970000 0.60445 -0.795308
192968000 0.559785 -0.82846
204966000 0.514563 -0.859545
216964000 0.468413 -0.886863
228962000 0.421569 -0.91062
240960000 0.375739 -0.930727
252958000 0.329274 -0.947248
264956000 0.283178 -0.961132
276954000 0.236707 -0.972141
288952000 0.191842 -0.979481
300950000 0.147289 -0.984732
312948000 0.103352 -0.9876
324946000 0.0613819 -0.98828
336944000 0.0201032 -0.987301
348942000 -0.0196783 -0.985698
360940000 -0.0599737 -0.982282
372938000 -0.098831 -0.978899
384936000 -0.135847 -0.975317
396934000 -0.172759 -0.971014
408932000 -0.209322 -0.966152
420930000 -0.244085 -0.960365
432928000 -0.280076 -0.953026
444926000 -0.313626 -0.944687
456924000 -0.345869 -0.936118
468922000 -0.377895 -0.926472
480920000 -0.407699 -0.915132
492918000 -0.43637 -0.902103
504916000 -0.464112 -0.888104
516914000 -0.49195 -0.873987
528912000 -0.517017 -0.857499
540910000 -0.541646 -0.841346
552908000 -0.564596 -0.823744
564906000 -0.586881 -0.806738
576904000 -0.607719 -0.788821
588902000 -0.626761 -0.771638
600900000 -0.645375 -0.754486
612898000 -0.663478 -0.73748
624896000 -0.681676 -0.720493
636894000 -0.699417 -0.7036
648892000 -0.716802 -0.687912
660890000 -0.733851 -0.671996
672888000 -0.750675 -0.655801
684886000 -0.766902 -0.639552
696884000 -0.783835 -0.621213
708882000 -0.799138 -0.605085
720880000 -0.815571 -0.587611
732878000 -0.829166 -0.568544
744876000 -0.842641 -0.550159
756874000 -0.855371 -0.531696
768872000 -0.867798 -0.511421
780870000 -0.878106 -0.49134
792868000 -0.887415 -0.471786
804866000 -0.896147 -0.451768
816864000 -0.90531 -0.43243
828862000 -0.912621 -0.414444
840860000 -0.920124 -0.396533
852858000 -0.924654 -0.379068
864856000 -0.930967 -0.360673
876854000 -0.937476 -0.343017
888852000 -0.943723 -0.326204
900850000 -0.949427 -0.309006
912848000 -0.954752 -0.293206
924846000 -0.960229 -0.277461
936844000 -0.965869 -0.261917
948842000 -0.972337 -0.247186
960840000 -0.97851 -0.234112
972838000 -0.984174 -0.218683
984836000 -0.989509 -0.203196
996834000 -0.993462 -0.187698
1008832000 -0.996486 -0.172342
1020830000 -1.00051 -0.156598
1032828000 -1.00287 -0.1403
1044826000 -1.00501 -0.124237
1056824000 -1.00719 -0.107997
1068822000 -1.00902 -0.0905469
1080820000 -1.0091 -0.0726123
1092818000 -1.00926 -0.0559287
1104816000 -1.00841 -0.0393874
1116814000 -1.00739 -0.0228762
1128812000 -1.00823 -0.00797828
1140810000 -1.00606 0.00713636
1152808000 -1.00645 0.0222353
1164806000 -1.00649 0.0367726
1176804000 -1.00888 0.052978
1188802000 -1.00415 0.0682718
1200800000 -1.00321 0.0786394
1212798000 -1.00256 0.0908065
1224796000 -1.00089 0.103831
1236794000 -1.0019 0.114709
1248792000 -1.00104 0.126418
1260790000 -1.00089 0.137025
1272788000 -0.999201 0.149245
1284786000 -0.997105 0.159913
1296784000 -0.993066 0.171788
1308782000 -0.990168 0.184992
1320780000 -0.987473 0.198338
1332778000 -0.984705 0.211929
1344776000 -0.981942 0.225619
1356774000 -0.979699 0.240295
1368772000 -0.976782 0.252417
1380770000 -0.973623 0.267221
1392768000 -0.969211 0.282707
1404766000 -0.96509 0.297763
1416764000 -0.960092 0.313534
1428762000 -0.954482 0.327453
1440760000 -0.949243 0.342363
1452758000 -0.943577 0.354978
1464756000 -0.940008 0.367735
1476754000 -0.935741 0.380522
1488752000 -0.931342 0.391032
1500750000 -0.925783 0.403983
1512748000 -0.918581 0.411481
1524746000 -0.913088 0.420203
1536744000 -0.90721 0.429089
1548742000 -0.900644 0.439047
1560740000 -0.894694 0.44889
1572738000 -0.889608 0.45882
1584736000 -0.885276 0.469766
1596734000 -0.881479 0.480797
1608732000 -0.877103 0.492185
1620730000 -0.872924 0.502415
1632728000 -0.868069 0.513213
1644726000 -0.862775 0.523939
1656724000 -0.856622 0.535004
1668722000 -0.850269 0.544035
1680720000 -0.843973 0.557214
1692718000 -0.838275 0.566626
1704716000 -0.833576 0.574966
1716714000 -0.82758 0.583214
1728712000 -0.82097 0.59257
1740710000 -0.811349 0.60455
1752708000 -0.803283 0.61415
1764706000 -0.793343 0.621808
1776704000 -0.784045 0.630222
1788702000 -0.774204 0.637487
1800700000 -0.763337 0.646831
1812698000 -0.752201 0.653633
1824696000 -0.744396 0.664525
1836694000 -0.734723 0.673164
1848692000 -0.726668 0.682127
1860690000 -0.71852 0.690509
1872688000 -0.709388 0.701147
1884686000 -0.701534 0.710433
1896684000 -0.694256 0.719854
1908682000 -0.68524 0.731748
1920680000 -0.679058 0.742214
1932678000 -0.671028 0.752929
1944676000 -0.661119 0.760894
1956674000 -0.658071 0.770105
1968672000 -0.653792 0.777353
1980670000 -0.645533 0.786449
1992668000 -0.643299 0.78907
2004666000 -0.636796 0.794815
2016664000 -0.633263 0.798037
2028662000 -0.626375 0.80019
2040660000 -0.620272 0.803031
2052658000 -0.612267 0.804436
2064656000 -0.604203 0.806472
2076654000 -0.593905 0.810415
2088652000 -0.582786 0.812293
2100650000 -0.571566 0.816183
2112648000 -0.556052 0.821186
2124646000 -0.543216 0.827824
2136644000 -0.528008 0.83666
2148642000 -0.514572 0.846376
2160640000 -0.500858 0.854829
2172638000 -0.490652 0.866404
2184636000 -0.480163 0.87831
2196634000 -0.470478 0.889479
2208632000 -0.464529 0.901229
2220630000 -0.460444 0.908372
2232628000 -0.457692 0.915456
2244626000 -0.455848 0.919373
2256624000 -0.453439 0.923916
2268622000 -0.448752 0.924902
2280620000 -0.446738 0.928636
2292618000 -0.443794 0.930708
2304616000 -0.43892 0.930254
2316614000 -0.431852 0.929628
2328612000 -0.420208 0.929092
2340610000 -0.407923 0.928728
2352608000 -0.392282 0.929425
2364606000 -0.375662 0.930177
2376604000 -0.359817 0.932123
2388602000 -0.342724 0.933315
2400600000 -0.324942 0.938147
2412598000 -0.30769 0.943193
2424596000 -0.292962 0.947394
2436594000 -0.277137 0.953865
2448592000 -0.263956 0.959091
2460590000 -0.249658 0.966407
2472588000 -0.238691 0.97434
2484586000 -0.231327 0.980376
2496584000 -0.2229 0.988469
2508582000 -0.213051 0.99423
2520580000 -0.205252 0.998208
2532578000 -0.201085 1.00371
2544576000 -0.194039 1.00785
2556574000 -0.186125 1.00608
2568572000 -0.179543 1.01022
2580570000 -0.168422 1.01066
2592568000 -0.163093 1.00772
2604566000 -0.160006 1.00395
2616564000 -0.145659 1.00124
2628562000 -0.134878 0.999208
2640560000 -0.125283 0.993833
2652558000 -0.1143 0.994408
2664556000 -0.102678 0.991056
2676554000 -0.0908778 0.99036
2688552000 -0.0774457 0.987586
2700550000 -0.0648922 0.988977
2712548000 -0.0513218 0.986681
2724546000 -0.0377943 0.988489
2736544000 -0.0276079 0.992265
2748542000 -0.0155933 0.994559
2760540000 -0.00424978 0.997993
2772538000 0.00675633 1.00171
2784536000 0.0170802 1.00476
2796534000 0.0266722 1.00666
2808532000 0.033941 1.00953
2820530000 0.0437859 1.00863
2832528000 0.0520503 1.00952
2844526000 0.0611073 1.00999
2856524000 0.067861 1.00669
2868522000 0.0753247 1.00342
2880520000 0.0829965 1.00112
2892518000 0.0907599 0.99497
2904516000 0.0995841 0.993474
2916514000 0.1073 0.989944
2928512000 0.115342 0.986855
2940510000 0.119087 0.984458
2952508000 0.131933 0.980577
2964506000 0.141706 0.974759
2976504000 0.149374 0.972879
2988502000 0.165239 0.97292
3000500000 0.173747 0.970507
3012498000 0.189237 0.973003
3024496000 0.193354 0.97279
3036494000 0.206815 0.971584
3048492000 0.217949 0.970581
3060490000 0.227425 0.969904
3072488000 0.234786 0.967743
3084486000 0.243563 0.967032
3096484000 0.251515 0.964423
3108482000 0.257565 0.963422
3120480000 0.267009 0.960704
3132478000 0.271472 0.957065
3144476000 0.282396 0.951944
3156474000 0.28967 0.951138
3168472000 0.296825 0.946629
3180470000 0.304908 0.943231
3192468000 0.314377 0.938275
3204466000 0.323873 0.932822
3216464000 0.333668 0.927905
3228462000 0.344463 0.923936
3240460000 0.35444 0.919654
3252458000 0.36851 0.915602
3264456000 0.378961 0.913232
3276454000 0.385779 0.909698
3288452000 0.398174 0.904926
3300450000 0.406006 0.899472
3312448000 0.418556 0.893841
3324446000 0.426219 0.888017
3336444000 0.437251 0.883941
3348442000 0.445889 0.877805
3360440000 0.455428 0.873191
3372438000 0.465772 0.866053
3384436000 0.475537 0.860269
3396434000 0.482835 0.850914
3408432000 0.493685 0.846262
3420430000 0.503035 0.841877
3432428000 0.510767 0.834873
3444426000 0.52536 0.827138
3456424000 0.536136 0.82186
3468422000 0.544864 0.813901
3480420000 0.555475 0.807338
3492418000 0.566215 0.801485
3504416000 0.576288 0.794954
3516414000 0.585737 0.78815
3528412000 0.594564 0.783099
3540410000 0.602517 0.778439
3552408000 0.610508 0.771602
3564406000 0.619498 0.767131
3576404000 0.623906 0.761073
3588402000 0.629235 0.755924
3600400000 0.637249 0.747293
3612398000 0.643829 0.740731
3624396000 0.650977 0.732838
3636394000 0.659007 0.725722
3648392000 0.666177 0.718421
3660390000 0.671337 0.712057
3672388000 0.682577 0.704901
3684386000 0.691059 0.695897
3696384000 0.695289 0.689757
3708382000 0.704308 0.679939
3720380000 0.713836 0.668801
3732378000 0.720902 0.658477
3744376000 0.72619 0.651211
3756374000 0.735926 0.641053
3768372000 0.74255 0.632842
3780370000 0.75029 0.622624
3792368000 0.754932 0.617468
3804366000 0.764823 0.609309
3816364000 0.768179 0.601272
3828362000 0.772837 0.594471
3840360000 0.777146 0.590802
3852358000 0.779843 0.583474
3864356000 0.784471 0.575861
3876354000 0.788658 0.571506
3888352000 0.792446 0.564037
3900350000 0.797613 0.558622
3912348000 0.800493 0.552338
3924346000 0.805629 0.546757
3936344000 0.807806 0.541473
3948342000 0.80978 0.534224
3960340000 0.809767 0.531607
3972338000 0.816603 0.522949
3984336000 0.820491 0.512448
3996334000 0.825804 0.504815
4008332000 0.832067 0.497671
4020330000 0.839209 0.490395
4032328000 0.843684 0.478407
4044326000 0.847317 0.469121
4056324000 0.853062 0.457931
4068322000 0.855293 0.445557
4080320000 0.859723 0.431732
4092318000 0.865709 0.417888
4104316000 0.871875 0.399009
4116314000 0.875421 0.378446
4128312000 0.883008 0.36161
4140310000 0.890613 0.344801
4152308000 0.895782 0.327343
4164306000 0.902415 0.310013
4176304000 0.908053 0.297738
4188302000 0.913025 0.285871
4200300000 0.917674 0.280099
4212298000 0.915784 0.273456
4224296000 0.917296 0.271886
4236294000 0.920742 0.265938
4248292000 0.919325 0.266349
4260290000 0.928809 0.258245
4272288000 0.925093 0.254173
4284286000 0.92879 0.248776
4296284000 0.930631 0.24215
4308282000 0.929447 0.231612
4320280000 0.931499 0.217027
4332278000 0.930422 0.20162
4344276000 0.929105 0.19
4356274000 0.932204 0.175533
4368272000 0.924699 0.164279
4380270000 0.925308 0.1466
4392268000 0.921629 0.12612
4404266000 0.921561 0.109925
4416264000 0.920177 0.0887259
4428262000 0.920886 0.0685993
4440260000 0.921518 0.0501071
4452258000 0.925857 0.0343581
4464256000 0.927397 0.0185294
4476254000 0.929032 0.00133769
4488252000 0.931102 -0.0100646
4500250000 0.930704 -0.0194227
4512248000 0.93092 -0.0351662
4524246000 0.932988 -0.0445473
4536244000 0.933851 -0.0550607
4548242000 0.933483 -0.0644658
4560240000 0.930888 -0.0675406
4572238000 0.92947 -0.0754263
4584236000 0.928258 -0.0829254
4596234000 0.921429 -0.0909209
4608232000 0.916481 -0.100375
4620230000 0.907648 -0.114427
4632228000 0.900529 -0.1338
4644226000 0.891537 -0.147331
4656224000 0.879602 -0.165566
4668222000 0.87238 -0.181779
4680220000 0.860925 -0.201634
4692218000 0.858759 -0.220732
4704216000 0.844691 -0.239099
4716214000 0.835444 -0.256807
4728212000 0.825027 -0.272678
4740210000 0.812721 -0.290284
4752208000 0.800756 -0.310587
4764206000 0.789959 -0.326731
4776204000 0.780189 -0.34398
4788202000 0.771823 -0.358244
4800200000 0.758393 -0.374653
4812198000 0.750436 -0.390791
4824196000 0.741763 -0.402842
4836194000 0.72871 -0.413242
4848192000 0.716914 -0.423225
4860190000 0.69976 -0.432242
4872188000 0.686481 -0.441067
4884186000 0.664395 -0.447594
4896184000 0.642386 -0.457561
4908182000 0.624293 -0.470381
4920180000 0.596653 -0.475612
4932178000 0.573231 -0.488352
4944176000 0.543004 -0.493399
4956174000 0.515909 -0.502593
4968172000 0.479911 -0.504454
4980170000 0.44674 -0.508055
4992168000 0.413747 -0.508143
5004166000 0.379752 -0.509446
5016164000 0.340659 -0.511584
5028162000 0.306986 -0.509799
5040160000 0.270922 -0.502676
5052158000 0.235828 -0.497452
5064156000 0.201417 -0.48391
5076154000 0.171359 -0.470332
5088152000 0.138839 -0.457007
5100150000 0.109788 -0.433635
5112148000 0.0865311 -0.409913
5124146000 0.0608824 -0.384206
5136144000 0.0371906 -0.35094
5148142000 0.0191004 -0.318288
5160140000 0.00218207 -0.276512
5172138000 -0.00472179 -0.237596
5184136000 -0.0095584 -0.192618
5196134000 -0.0143633 -0.144874
5208132000 -0.0115169 -0.0949
5220130000 -0.0101409 -0.0495917
5232128000 -0.00664294 -0.000590497
5244126000 -0.00212941 0.0456408
5256124000 0.00837282 0.0873995
5268122000 0.0167829 0.136461
5280120000 0.0377664 0.166647
5292118000 0.0586777 0.199029
5304116000 0.0912509 0.224021
5316114000 0.122479 0.244536
5328112000 0.158177 0.262726
5340110000 0.198382 0.279175
5352108000 0.228237 0.288772
5364106000 0.2692 0.300887
5376104000 0.302119 0.305731
5388102000 0.333986 0.311742
5400100000 0.366421 0.311985
5412098000 0.397413 0.311165
5424096000 0.428102 0.307755
5436094000 0.457482 0.304278
5448092000 0.48323 0.297501
5460090000 0.511915 0.290193
5472088000 0.536535 0.279475
5484086000 0.56476 0.269789
5496084000 0.590105 0.255346
5508082000 0.614561 0.24225
5520080000 0.634441 0.227979
5532078000 0.656913 0.216522
5544076000 0.676145 0.201001
5556074000 0.695713 0.186764
5568072000 0.708292 0.178523
5580070000 0.724324 0.164982
5592068000 0.738429 0.150434
5604066000 0.754057 0.136996
5616064000 0.759066 0.125711
5628062000 0.773236 0.111711
5640060000 0.77552 0.100398
5652058000 0.783154 0.0816391
5664056000 0.78944 0.0683987
5676054000 0.794591 0.0509382
5688052000 0.798976 0.0343245
5700050000 0.804154 0.0191601
5712048000 0.808015 0.00248212
5724046000 0.813295 -0.0152211
5736044000 0.819845 -0.0316759
5748042000 0.823099 -0.0472006
5760040000 0.824437 -0.0654467
5772038000 0.829358 -0.0813744
5784036000 0.835859 -0.0955323
5796034000 0.839744 -0.110579
5808032000 0.844719 -0.121754
5820030000 0.847389 -0.141837
5832028000 0.85393 -0.154716
5844026000 0.855671 -0.168858
5856024000 0.858973 -0.185246
5868022000 0.857283 -0.20509
5880020000 0.857397 -0.218149
5892018000 0.859371 -0.230544
5904016000 0.857313 -0.248674
5916014000 0.855921 -0.265894
5928012000 0.852404 -0.284556
5940010000 0.844475 -0.300015
5952008000 0.838401 -0.313311
5964006000 0.828851 -0.325735
5976004000 0.826225 -0.340871
5988002000 0.819234 -0.357287
6000000000 0.809154 -0.371335
