# Hz S RI R 50
1000000 0.987769 -0.00033575
12998000 1.01451 -0.0588526
24996000 1.00924 -0.12738
36994000 0.995969 -0.193035
48992000 0.978727 -0.256237
60990000 0.958454 -0.31572
72988000 0.933444 -0.374548
84986000 0.905644 -0.430625
96984000 0.874574 -0.484432
108982000 0.840814 -0.536514
120980000 0.805421 -0.585784
132978000 0.768486 -0.632254
144976000 0.72938 -0.67723
156974000 0.688664 -0.719851
168972000 0.646558 -0.758921
180970000 0.603807 -0.795755
192968000 0.559274 -0.829221
204966000 0.513788 -0.860076
216964000 0.4679 -0.887015
228962000 0.421034 -0.910655
240960000 0.375118 -0.930896
252958000 0.32893 -0.947423
264956000 0.282813 -0.961155
276954000 0.236452 -0.972054
288952000 0.191601 -0.97932
300950000 0.146456 -0.984826
312948000 0.102993 -0.987384
324946000 0.0610286 -0.988263
336944000 0.019972 -0.987389
348942000 -0.0199184 -0.985644
360940000 -0.0602167 -0.982324
372938000 -0.0987967 -0.979091
384936000 -0.136268 -0.975418
396934000 -0.172972 -0.970883
408932000 -0.209546 -0.966213
420930000 -0.24471 -0.960518
432928000 -0.280264 -0.953224
444926000 -0.314617 -0.944565
456924000 -0.346246 -0.936147
468922000 -0.37828 -0.926774
480920000 -0.407757 -0.915257
492918000 -0.436303 -0.902266
504916000 -0.464089 -0.888327
516914000 -0.491669 -0.874111
528912000 -0.516972 -0.857566
540910000 -0.542305 -0.840853
552908000 -0.564486 -0.82386
564906000 -0.58681 -0.806665
576904000 -0.607641 -0.788789
588902000 -0.627333 -0.771788
600900000 -0.646055 -0.753975
612898000 -0.663415 -0.737556
624896000 -0.681247 -0.720724
636894000 -0.699303 -0.703674
648892000 -0.71642 -0.687906
660890000 -0.733402 -0.671872
672888000 -0.75049 -0.655475
684886000 -0.766883 -0.63941
696884000 -0.783553 -0.621904
708882000 -0.799398 -0.604704
720880000 -0.815472 -0.587847
732878000 -0.828987 -0.568464
744876000 -0.84226 -0.54993
756874000 -0.855222 -0.531417
768872000 -0.86763 -0.511296
780870000 -0.878173 -0.491064
792868000 -0.88731 -0.471434
804866000 -0.895636 -0.451274
816864000 -0.904937 -0.432144
828862000 -0.913134 -0.414251
840860000 -0.918593 -0.396489
852858000 -0.923974 -0.379706
864856000 -0.931443 -0.36106
876854000 -0.936357 -0.343125
888852000 -0.943704 -0.326377
900850000 -0.948728 -0.309374
912848000 -0.954667 -0.293543
924846000 -0.960275 -0.277398
936844000 -0.965609 -0.262224
948842000 -0.972293 -0.247956
960840000 -0.978073 -0.234098
972838000 -0.983725 -0.218924
984836000 -0.989261 -0.202438
996834000 -0.993067 -0.187386
1008832000 -0.996519 -0.172514
1020830000 -1.00001 -0.156629
1032828000 -1.00271 -0.14004
1044826000 -1.00488 -0.124213
1056824000 -1.00698 -0.10762
1068822000 -1.00856 -0.0906335
1080820000 -1.00796 -0.0719057
1092818000 -1.00824 -0.0553736
1104816000 -1.00797 -0.0396975
1116814000 -1.0072 -0.0230924
1128812000 -1.00783 -0.00833078
1140810000 -1.00552 0.00775073
1152808000 -1.00605 0.0220861
1164806000 -1.00591 0.0362423
1176804000 -1.00888 0.0522742
1188802000 -1.00404 0.0681615
1200800000 -1.00276 0.0793797
1212798000 -1.00276 0.0906173
1224796000 -1.00156 0.103377
1236794000 -1.00136 0.115351
1248792000 -1.00041 0.126198
1260790000 -1.00015 0.13696
1272788000 -0.999483 0.149237
1284786000 -0.996474 0.160054
1296784000 -0.992909 0.171479
1308782000 -0.989896 0.184657
1320780000 -0.987476 0.197943
1332778000 -0.984966 0.211569
1344776000 -0.982163 0.225522
1356774000 -0.980135 0.240149
1368772000 -0.977274 0.25264
1380770000 -0.973856 0.266559
1392768000 -0.96943 0.282049
1404766000 -0.964622 0.297032
1416764000 -0.959166 0.313334
1428762000 -0.953993 0.327204
1440760000 -0.949553 0.341664
1452758000 -0.944027 0.354953
1464756000 -0.939991 0.36734
1476754000 -0.93578 0.380381
1488752000 -0.930965 0.391501
1500750000 -0.927649 0.401975
1512748000 -0.918943 0.411063
1524746000 -0.913202 0.420005
1536744000 -0.906487 0.429071
1548742000 -0.900462 0.439131
1560740000 -0.895009 0.448777
1572738000 -0.889423 0.459056
1584736000 -0.885578 0.470161
1596734000 -0.881423 0.48078
1608732000 -0.877201 0.492235
1620730000 -0.873177 0.502134
1632728000 -0.868382 0.513128
1644726000 -0.862487 0.524742
1656724000 -0.85591 0.535392
1668722000 -0.849371 0.545642
1680720000 -0.843781 0.556738
1692718000 -0.838459 0.566178
1704716000 -0.833425 0.575677
1716714000 -0.828246 0.583445
1728712000 -0.820902 0.593161
1740710000 -0.812144 0.603698
1752708000 -0.803085 0.614341
1764706000 -0.793979 0.621543
1776704000 -0.784306 0.630093
1788702000 -0.774764 0.637411
1800700000 -0.76415 0.646021
1812698000 -0.751918 0.653389
1824696000 -0.744141 0.664117
1836694000 -0.734963 0.672118
1848692000 -0.726109 0.681677
1860690000 -0.718032 0.69079
1872688000 -0.709538 0.700208
1884686000 -0.701513 0.710524
1896684000 -0.69417 0.719978
1908682000 -0.685379 0.731622
1920680000 -0.678878 0.742418
1932678000 -0.672201 0.752521
1944676000 -0.662529 0.761475
1956674000 -0.658184 0.770055
1968672000 -0.652796 0.779036
1980670000 -0.64743 0.78619
1992668000 -0.641186 0.788656
2004666000 -0.638099 0.795442
2016664000 -0.632809 0.797483
2028662000 -0.626019 0.799687
2040660000 -0.620173 0.802347
2052658000 -0.612389 0.804231
2064656000 -0.603853 0.806325
2076654000 -0.593532 0.809933
2088652000 -0.582565 0.811731
2100650000 -0.570982 0.815883
2112648000 -0.5574 0.820138
2124646000 -0.545097 0.829101
2136644000 -0.529117 0.837516
2148642000 -0.515187 0.845741
2160640000 -0.500575 0.855405
2172638000 -0.490905 0.86608
2184636000 -0.480701 0.878047
2196634000 -0.47063 0.889558
2208632000 -0.465042 0.900635
2220630000 -0.460949 0.90719
2232628000 -0.457588 0.915448
2244626000 -0.454381 0.920267
2256624000 -0.45354 0.92272
2268622000 -0.449271 0.924462
2280620000 -0.445433 0.927958
2292618000 -0.444553 0.928816
2304616000 -0.439899 0.929731
2316614000 -0.43294 0.929147
2328612000 -0.420768 0.928614
2340610000 -0.408864 0.928617
2352608000 -0.39239 0.92856
2364606000 -0.377288 0.930136
2376604000 -0.360372 0.929965
2388602000 -0.342916 0.93341
2400600000 -0.326366 0.939081
2412598000 -0.309053 0.942171
2424596000 -0.29261 0.948867
2436594000 -0.27756 0.954038
2448592000 -0.263632 0.958903
2460590000 -0.249703 0.965995
2472588000 -0.239055 0.974376
2484586000 -0.232046 0.97975
2496584000 -0.222705 0.98837
2508582000 -0.214952 0.993466
2520580000 -0.2066 0.999606
2532578000 -0.201983 1.00237
2544576000 -0.195142 1.00721
2556574000 -0.186247 1.00776
2568572000 -0.178875 1.01091
2580570000 -0.169881 1.00951
2592568000 -0.163571 1.00828
2604566000 -0.152848 1.00467
2616564000 -0.145186 1.00067
2628562000 -0.135642 1.00001
2640560000 -0.127148 0.99493
2652558000 -0.113722 0.99285
2664556000 -0.103666 0.99085
2676554000 -0.0922365 0.988952
2688552000 -0.0778187 0.988627
2700550000 -0.0671821 0.98908
2712548000 -0.0516162 0.985254
2724546000 -0.0391386 0.987827
2736544000 -0.0292196 0.991978
2748542000 -0.0156506 0.994782
2760540000 -0.00461958 0.997462
2772538000 0.00659674 1.00114
2784536000 0.0169214 1.00511
2796534000 0.0260211 1.00609
2808532000 0.0354987 1.00783
2820530000 0.0427431 1.00985
2832528000 0.0518713 1.00854
2844526000 0.0600946 1.00925
2856524000 0.0679543 1.00676
2868522000 0.075417 1.00383
2880520000 0.0815364 0.999983
2892518000 0.0905123 0.995148
2904516000 0.098427 0.993661
2916514000 0.106144 0.989813
2928512000 0.115269 0.985737
2940510000 0.118149 0.984926
2952508000 0.129825 0.98012
2964506000 0.142263 0.9763
2976504000 0.154158 0.973436
2988502000 0.16525 0.972413
3000500000 0.175539 0.972416
3012498000 0.187846 0.973559
3024496000 0.193021 0.971944
3036494000 0.206543 0.971399
3048492000 0.217414 0.970655
3060490000 0.226714 0.970209
3072488000 0.235356 0.968634
3084486000 0.243091 0.966205
3096484000 0.250656 0.965345
3108482000 0.258851 0.963379
3120480000 0.266622 0.961398
3132478000 0.270611 0.957149
3144476000 0.282723 0.95185
3156474000 0.290475 0.951205
3168472000 0.295915 0.947033
3180470000 0.304254 0.942984
3192468000 0.313452 0.938982
3204466000 0.3227 0.933373
3216464000 0.332871 0.928988
3228462000 0.344834 0.92369
3240460000 0.354992 0.920071
3252458000 0.367531 0.916626
3264456000 0.376679 0.913224
3276454000 0.385317 0.910457
3288452000 0.398564 0.902989
3300450000 0.403822 0.897676
3312448000 0.417699 0.894767
3324446000 0.426527 0.888047
3336444000 0.437377 0.884078
3348442000 0.446164 0.877814
3360440000 0.455279 0.873684
3372438000 0.463457 0.866335
3384436000 0.47463 0.860572
3396434000 0.480963 0.850967
3408432000 0.491814 0.846498
3420430000 0.502705 0.843103
3432428000 0.510013 0.835204
3444426000 0.52553 0.828121
3456424000 0.536218 0.821827
3468422000 0.543243 0.814588
3480420000 0.55468 0.807572
3492418000 0.564809 0.801527
3504416000 0.575013 0.796513
3516414000 0.5851 0.787801
3528412000 0.594276 0.78135
3540410000 0.6031 0.778707
3552408000 0.6096 0.772736
3564406000 0.617176 0.7691
3576404000 0.624883 0.760376
3588402000 0.631118 0.75612
3600400000 0.636911 0.74782
3612398000 0.643118 0.741018
3624396000 0.650666 0.732948
3636394000 0.658387 0.726064
3648392000 0.6665 0.719812
3660390000 0.67235 0.710998
3672388000 0.678525 0.705319
3684386000 0.687973 0.69436
3696384000 0.695922 0.688616
3708382000 0.704549 0.675421
3720380000 0.712519 0.669391
3732378000 0.721708 0.659835
3744376000 0.726503 0.651376
3756374000 0.734825 0.641095
3768372000 0.742337 0.632866
3780370000 0.74998 0.622705
3792368000 0.75569 0.616793
3804366000 0.761836 0.609794
3816364000 0.767261 0.600691
3828362000 0.773429 0.595574
3840360000 0.778204 0.59188
3852358000 0.785027 0.582607
3864356000 0.784129 0.576044
3876354000 0.787806 0.572151
3888352000 0.792271 0.563737
3900350000 0.796858 0.559029
3912348000 0.800134 0.55297
3924346000 0.805334 0.546991
3936344000 0.8082 0.541911
3948342000 0.811292 0.535586
3960340000 0.809118 0.531087
3972338000 0.81535 0.525252
3984336000 0.822663 0.513811
3996334000 0.825818 0.505833
4008332000 0.829168 0.497429
4020330000 0.835946 0.489361
4032328000 0.842884 0.479309
4044326000 0.846735 0.469211
4056324000 0.852599 0.45875
4068322000 0.855065 0.44562
4080320000 0.858876 0.432073
4092318000 0.865627 0.417254
4104316000 0.869445 0.399581
4116314000 0.876839 0.378774
4128312000 0.883748 0.363542
4140310000 0.890555 0.344336
4152308000 0.895497 0.327965
4164306000 0.901874 0.310731
4176304000 0.907012 0.297138
4188302000 0.911856 0.286112
4200300000 0.91735 0.279757
4212298000 0.915597 0.27391
4224296000 0.91678 0.272979
4236294000 0.919167 0.265704
4248292000 0.917753 0.268344
4260290000 0.926448 0.257531
4272288000 0.925686 0.254747
4284286000 0.928558 0.247392
4296284000 0.930297 0.24142
4308282000 0.930218 0.2315
4320280000 0.931067 0.217424
4332278000 0.930753 0.203784
4344276000 0.926312 0.194071
4356274000 0.932392 0.178451
4368272000 0.925797 0.164114
4380270000 0.925119 0.147184
4392268000 0.921333 0.126619
4404266000 0.921608 0.110903
4416264000 0.920623 0.0890554
4428262000 0.920975 0.069931
4440260000 0.921311 0.0498808
4452258000 0.926487 0.03441
4464256000 0.928514 0.0190082
4476254000 0.928476 0.00240738
4488252000 0.930598 -0.0103612
4500250000 0.930418 -0.019621
4512248000 0.930601 -0.0348659
4524246000 0.932628 -0.0436197
4536244000 0.934715 -0.0542043
4548242000 0.931153 -0.0643869
4560240000 0.932111 -0.068288
4572238000 0.929557 -0.0754788
4584236000 0.926331 -0.0823381
4596234000 0.922246 -0.0960085
4608232000 0.912892 -0.102882
4620230000 0.905649 -0.115377
4632228000 0.899779 -0.13054
4644226000 0.891234 -0.147498
4656224000 0.880641 -0.165174
4668222000 0.873443 -0.181186
4680220000 0.861097 -0.201122
4692218000 0.858244 -0.220405
4704216000 0.844367 -0.238411
4716214000 0.836917 -0.255235
4728212000 0.823455 -0.27239
4740210000 0.813099 -0.289701
4752208000 0.80014 -0.308774
4764206000 0.79077 -0.326533
4776204000 0.779974 -0.342902
4788202000 0.771912 -0.357957
4800200000 0.758608 -0.374307
4812198000 0.751599 -0.389579
4824196000 0.741474 -0.403055
4836194000 0.726813 -0.411504
4848192000 0.716756 -0.426542
4860190000 0.699249 -0.432381
4872188000 0.68539 -0.442908
4884186000 0.666987 -0.450816
4896184000 0.645069 -0.457576
4908182000 0.624696 -0.470126
4920180000 0.597899 -0.475481
4932178000 0.572237 -0.488862
4944176000 0.542766 -0.493557
4956174000 0.51615 -0.502316
4968172000 0.480138 -0.50451
4980170000 0.446879 -0.508006
4992168000 0.413416 -0.509778
5004166000 0.378754 -0.510792
5016164000 0.341542 -0.511505
5028162000 0.308209 -0.509248
5040160000 0.271051 -0.502785
5052158000 0.23608 -0.497296
5064156000 0.2019 -0.48371
5076154000 0.170636 -0.470243
5088152000 0.139421 -0.456303
5100150000 0.109247 -0.434268
5112148000 0.0879544 -0.410398
5124146000 0.0603368 -0.384144
5136144000 0.0368598 -0.350703
5148142000 0.0191166 -0.31828
5160140000 0.00195168 -0.276306
5172138000 -0.00447471 -0.237767
5184136000 -0.0102104 -0.192799
5196134000 -0.014342 -0.144913
5208132000 -0.011844 -0.0943966
5220130000 -0.0105571 -0.0495272
5232128000 -0.00635335 -0.00111391
5244126000 -0.00235631 0.0454691
5256124000 0.00812993 0.0871079
5268122000 0.0200466 0.131491
5280120000 0.0375759 0.166569
5292118000 0.0588635 0.198715
5304116000 0.0905447 0.224117
5316114000 0.121525 0.243197
5328112000 0.157683 0.262138
5340110000 0.197372 0.278623
5352108000 0.228038 0.289371
5364106000 0.267953 0.300904
5376104000 0.302718 0.307477
5388102000 0.333961 0.311609
5400100000 0.368006 0.312107
5412098000 0.397267 0.312191
5424096000 0.427759 0.308276
5436094000 0.45695 0.304565
5448092000 0.482887 0.298158
5460090000 0.510724 0.290021
5472088000 0.537184 0.280312
5484086000 0.564019 0.268952
5496084000 0.588745 0.255939
5508082000 0.613559 0.243177
5520080000 0.63397 0.229358
5532078000 0.656836 0.216603
5544076000 0.676162 0.201622
5556074000 0.695046 0.18708
5568072000 0.708548 0.179025
5580070000 0.725452 0.165436
5592068000 0.738366 0.150372
5604066000 0.75327 0.136415
5616064000 0.76073 0.123335
5628062000 0.774773 0.112345
5640060000 0.775007 0.0975958
5652058000 0.783691 0.0836676
5664056000 0.789272 0.0686644
5676054000 0.794523 0.0535705
5688052000 0.799807 0.0346779
5700050000 0.804584 0.0190368
5712048000 0.807953 0.00251337
5724046000 0.813411 -0.014458
5736044000 0.819711 -0.0314045
5748042000 0.822923 -0.0468342
5760040000 0.8263 -0.0643016
5772038000 0.830839 -0.0807686
5784036000 0.836053 -0.0934699
5796034000 0.837915 -0.109668
5808032000 0.844424 -0.121402
5820030000 0.847166 -0.141891
5832028000 0.853904 -0.15473
5844026000 0.855797 -0.168633
5856024000 0.861256 -0.183715
5868022000 0.857712 -0.205538
5880020000 0.853039 -0.220706
5892018000 0.858269 -0.231165
5904016000 0.854686 -0.250632
5916014000 0.856259 -0.268394
5928012000 0.84514 -0.28551
5940010000 0.845375 -0.296282
5952008000 0.835675 -0.310353
5964006000 0.83092 -0.328196
5976004000 0.827006 -0.342282
5988002000 0.819065 -0.356699
6000000000 0.809419 -0.370898
