# Hz S RI R 50
1000000 0.987909 0.000237734
12998000 1.01473 -0.0582321
24996000 1.00948 -0.127395
36994000 0.996238 -0.193134
48992000 0.979169 -0.255805
60990000 0.958704 -0.315787
72988000 0.933544 -0.374593
84986000 0.905868 -0.43069
96984000 0.874778 -0.484504
108982000 0.841103 -0.536627
120980000 0.80551 -0.585999
132978000 0.768665 -0.632306
144976000 0.729863 -0.676913
156974000 0.689025 -0.719912
168972000 0.647035 -0.759247
180970000 0.604015 -0.795717
192968000 0.559857 -0.828912
204966000 0.514693 -0.859839
216964000 0.468518 -0.887023
228962000 0.421598 -0.910834
240960000 0.375751 -0.931178
252958000 0.329412 -0.947666
264956000 0.283073 -0.961532
276954000 0.236987 -0.972345
288952000 0.191723 -0.979774
300950000 0.147142 -0.985039
312948000 0.103176 -0.987859
324946000 0.0612299 -0.988521
336944000 0.020239 -0.987403
348942000 -0.019541 -0.985889
360940000 -0.0598224 -0.982406
372938000 -0.0986229 -0.9792
384936000 -0.135488 -0.975724
396934000 -0.172332 -0.971063
408932000 -0.209086 -0.966348
420930000 -0.244003 -0.96069
432928000 -0.27993 -0.953424
444926000 -0.313532 -0.945043
456924000 -0.346006 -0.935928
468922000 -0.377851 -0.926929
480920000 -0.407501 -0.915746
492918000 -0.436057 -0.9026
504916000 -0.46386 -0.88858
516914000 -0.491492 -0.874489
528912000 -0.517161 -0.858263
540910000 -0.541681 -0.84147
552908000 -0.564543 -0.824126
564906000 -0.586776 -0.807219
576904000 -0.608076 -0.78944
588902000 -0.627152 -0.772405
600900000 -0.646503 -0.755161
612898000 -0.663748 -0.737799
624896000 -0.681695 -0.72078
636894000 -0.699477 -0.704014
648892000 -0.716756 -0.687979
660890000 -0.733705 -0.672092
672888000 -0.750906 -0.655363
684886000 -0.767322 -0.639626
696884000 -0.783609 -0.621895
708882000 -0.799545 -0.604845
720880000 -0.815389 -0.58792
732878000 -0.829722 -0.568795
744876000 -0.842742 -0.55046
756874000 -0.855648 -0.53136
768872000 -0.867543 -0.511376
780870000 -0.878324 -0.491571
792868000 -0.887613 -0.471571
804866000 -0.895978 -0.451957
816864000 -0.905225 -0.432703
828862000 -0.913134 -0.414345
840860000 -0.918857 -0.396988
852858000 -0.92424 -0.3799
864856000 -0.931792 -0.360659
876854000 -0.937555 -0.343178
888852000 -0.943911 -0.326267
900850000 -0.949448 -0.309488
912848000 -0.95482 -0.293718
924846000 -0.960551 -0.277725
936844000 -0.96587 -0.262143
948842000 -0.972514 -0.247746
960840000 -0.978317 -0.233386
972838000 -0.98396 -0.218825
984836000 -0.989648 -0.202851
996834000 -0.993468 -0.18758
1008832000 -0.996842 -0.172636
1020830000 -1.00011 -0.156766
1032828000 -1.00281 -0.140404
1044826000 -1.00531 -0.124482
1056824000 -1.00712 -0.107952
1068822000 -1.00893 -0.0910736
1080820000 -1.00905 -0.0725264
1092818000 -1.00854 -0.0568669
1104816000 -1.00847 -0.0392086
1116814000 -1.00782 -0.0240602
1128812000 -1.00795 -0.00792312
1140810000 -1.00703 0.00781268
1152808000 -1.00647 0.022234
1164806000 -1.00647 0.036479
1176804000 -1.00851 0.0527091
1188802000 -1.00429 0.067952
1200800000 -1.00306 0.077923
1212798000 -1.00271 0.0910769
1224796000 -1.00115 0.103069
1236794000 -1.00178 0.115269
1248792000 -1.00069 0.126761
1260790000 -0.999655 0.137796
1272788000 -0.999482 0.149938
1284786000 -0.996683 0.160697
1296784000 -0.9926 0.171113
1308782000 -0.990408 0.184711
1320780000 -0.987622 0.198177
1332778000 -0.985229 0.21148
1344776000 -0.98202 0.225355
1356774000 -0.980322 0.239706
1368772000 -0.977394 0.252408
1380770000 -0.973628 0.267685
1392768000 -0.9697 0.282263
1404766000 -0.96539 0.297205
1416764000 -0.959656 0.31391
1428762000 -0.954498 0.327798
1440760000 -0.948721 0.342327
1452758000 -0.944527 0.354635
1464756000 -0.940161 0.367423
1476754000 -0.93607 0.38052
1488752000 -0.931312 0.391127
1500750000 -0.926984 0.402646
1512748000 -0.91903 0.41114
1524746000 -0.913435 0.420881
1536744000 -0.907113 0.429366
1548742000 -0.900007 0.440164
1560740000 -0.894509 0.449614
1572738000 -0.889469 0.45965
1584736000 -0.884687 0.470217
1596734000 -0.881555 0.4811
1608732000 -0.877201 0.492342
1620730000 -0.873131 0.502034
1632728000 -0.868311 0.513222
1644726000 -0.862798 0.524909
1656724000 -0.856515 0.535714
1668722000 -0.849581 0.545493
1680720000 -0.845129 0.557362
1692718000 -0.839058 0.565998
1704716000 -0.834129 0.576028
1716714000 -0.828458 0.583817
1728712000 -0.821175 0.592718
1740710000 -0.81301 0.605063
1752708000 -0.803227 0.614686
1764706000 -0.793648 0.621843
1776704000 -0.783963 0.630199
1788702000 -0.774632 0.637703
1800700000 -0.764585 0.647028
1812698000 -0.751682 0.653298
1824696000 -0.743294 0.663911
1836694000 -0.736234 0.672319
1848692000 -0.727028 0.682271
1860690000 -0.717704 0.690544
1872688000 -0.709842 0.700584
1884686000 -0.701537 0.710845
1896684000 -0.694363 0.719916
1908682000 -0.685416 0.731545
1920680000 -0.67885 0.741494
1932678000 -0.670598 0.752571
1944676000 -0.663249 0.762303
1956674000 -0.658213 0.769844
1968672000 -0.653799 0.778
1980670000 -0.645803 0.784414
1992668000 -0.643196 0.790251
2004666000 -0.637101 0.793768
2016664000 -0.633124 0.797588
2028662000 -0.625941 0.798844
2040660000 -0.620627 0.80282
2052658000 -0.613154 0.804176
2064656000 -0.604792 0.806239
2076654000 -0.594286 0.809986
2088652000 -0.583755 0.812217
2100650000 -0.570512 0.81548
2112648000 -0.556504 0.820893
2124646000 -0.543746 0.828932
2136644000 -0.528882 0.837804
2148642000 -0.516339 0.846192
2160640000 -0.502337 0.856299
2172638000 -0.491085 0.866222
2184636000 -0.480856 0.878259
2196634000 -0.470922 0.889521
2208632000 -0.464998 0.900584
2220630000 -0.460287 0.907497
2232628000 -0.458741 0.915926
2244626000 -0.455792 0.918783
2256624000 -0.454221 0.922548
2268622000 -0.448786 0.92607
2280620000 -0.448415 0.928925
2292618000 -0.444448 0.929843
2304616000 -0.439757 0.930152
2316614000 -0.433042 0.929758
2328612000 -0.421304 0.929224
2340610000 -0.409186 0.929015
2352608000 -0.393224 0.929382
2364606000 -0.377395 0.930528
2376604000 -0.360698 0.931318
2388602000 -0.342146 0.93185
2400600000 -0.325163 0.938594
2412598000 -0.309331 0.943741
2424596000 -0.292926 0.948178
2436594000 -0.277861 0.954671
2448592000 -0.264044 0.95847
2460590000 -0.250017 0.966049
2472588000 -0.239338 0.974344
2484586000 -0.231336 0.980832
2496584000 -0.222829 0.987667
2508582000 -0.214305 0.994676
2520580000 -0.205267 0.997909
2532578000 -0.201024 1.00268
2544576000 -0.194406 1.00746
2556574000 -0.189564 1.00856
2568572000 -0.17894 1.0107
2580570000 -0.169558 1.01111
2592568000 -0.164292 1.00827
2604566000 -0.160752 1.00445
2616564000 -0.146634 1.00061
2628562000 -0.135743 0.999411
2640560000 -0.126716 0.993802
2652558000 -0.116129 0.99327
2664556000 -0.103013 0.991309
2676554000 -0.0908147 0.988331
2688552000 -0.0797281 0.986202
2700550000 -0.0663938 0.987817
2712548000 -0.052147 0.986331
2724546000 -0.0384132 0.9884
2736544000 -0.0288481 0.992763
2748542000 -0.0163171 0.995445
2760540000 -0.00450852 0.998124
2772538000 0.00683831 1.00161
2784536000 0.0170713 1.00518
2796534000 0.0272138 1.00658
2808532000 0.0350815 1.00741
2820530000 0.0426513 1.0093
2832528000 0.051256 1.00871
2844526000 0.0601207 1.00842
2856524000 0.0685608 1.0056
2868522000 0.0747877 1.00394
2880520000 0.0827717 1.00093
2892518000 0.0909641 0.995703
2904516000 0.0988734 0.99398
2916514000 0.10688 0.990122
2928512000 0.114321 0.987308
2940510000 0.119213 0.984984
2952508000 0.130685 0.980645
2964506000 0.141585 0.97495
2976504000 0.15324 0.972338
2988502000 0.165443 0.974978
3000500000 0.173375 0.968496
3012498000 0.188408 0.974187
3024496000 0.193034 0.973237
3036494000 0.206611 0.971968
3048492000 0.21761 0.971233
3060490000 0.226892 0.970173
3072488000 0.234224 0.968701
3084486000 0.244272 0.967386
3096484000 0.251512 0.965263
3108482000 0.257798 0.964905
3120480000 0.264365 0.963104
3132478000 0.271713 0.956371
3144476000 0.280968 0.951405
3156474000 0.289549 0.950611
3168472000 0.296818 0.947541
3180470000 0.304843 0.943085
3192468000 0.313362 0.939275
3204466000 0.32279 0.933264
3216464000 0.333089 0.929074
3228462000 0.344861 0.925141
3240460000 0.354846 0.920223
3252458000 0.368567 0.916756
3264456000 0.376648 0.91277
3276454000 0.388276 0.910271
3288452000 0.396765 0.906321
3300450000 0.403261 0.898219
3312448000 0.417652 0.894853
3324446000 0.426483 0.888016
3336444000 0.436826 0.884552
3348442000 0.44519 0.878526
3360440000 0.455546 0.874219
3372438000 0.46388 0.866886
3384436000 0.473446 0.861705
3396434000 0.481446 0.85255
3408432000 0.491986 0.84606
3420430000 0.503142 0.842993
3432428000 0.511899 0.835137
3444426000 0.525551 0.828283
3456424000 0.535722 0.821503
3468422000 0.544134 0.81477
3480420000 0.55484 0.807818
3492418000 0.564838 0.802449
3504416000 0.574656 0.796896
3516414000 0.58501 0.787211
3528412000 0.594126 0.783775
3540410000 0.600647 0.778971
3552408000 0.609143 0.772653
3564406000 0.618979 0.767517
3576404000 0.624204 0.760896
3588402000 0.63264 0.757033
3600400000 0.636021 0.747762
3612398000 0.643343 0.741604
3624396000 0.65069 0.733397
3636394000 0.659386 0.726517
3648392000 0.665596 0.72037
3660390000 0.672762 0.713063
3672388000 0.67938 0.704259
3684386000 0.689208 0.693763
3696384000 0.696236 0.686888
3708382000 0.703442 0.678598
3720380000 0.714051 0.669179
3732378000 0.719618 0.659818
3744376000 0.726694 0.651537
3756374000 0.735355 0.641774
3768372000 0.742515 0.633632
3780370000 0.750331 0.623223
3792368000 0.755175 0.617774
3804366000 0.762095 0.610176
3816364000 0.767571 0.600346
3828362000 0.773534 0.595558
3840360000 0.777349 0.59292
3852358000 0.781028 0.580785
3864356000 0.786309 0.577321
3876354000 0.789141 0.570505
3888352000 0.79285 0.564634
3900350000 0.79661 0.558828
3912348000 0.80031 0.553043
3924346000 0.805649 0.547364
3936344000 0.807991 0.540523
3948342000 0.808891 0.534427
3960340000 0.809675 0.529959
3972338000 0.815368 0.523408
3984336000 0.820403 0.514467
3996334000 0.825991 0.505496
4008332000 0.831945 0.496283
4020330000 0.839845 0.489319
4032328000 0.843108 0.479397
4044326000 0.847344 0.469422
4056324000 0.852826 0.459029
4068322000 0.855242 0.446097
4080320000 0.85953 0.432726
4092318000 0.865671 0.418836
4104316000 0.87139 0.399793
4116314000 0.876907 0.379511
4128312000 0.881328 0.364584
4140310000 0.889943 0.345894
4152308000 0.89617 0.326205
4164306000 0.90187 0.310963
4176304000 0.908026 0.297402
4188302000 0.912212 0.286271
4200300000 0.918191 0.279467
4212298000 0.915761 0.273872
4224296000 0.917525 0.273029
4236294000 0.920952 0.265388
4248292000 0.920092 0.264455
4260290000 0.929307 0.257569
4272288000 0.925809 0.255908
4284286000 0.928928 0.251095
4296284000 0.92867 0.241919
4308282000 0.930813 0.230925
4320280000 0.929553 0.219903
4332278000 0.930409 0.203616
4344276000 0.928792 0.191275
4356274000 0.930208 0.179696
4368272000 0.925142 0.165143
4380270000 0.925523 0.147559
4392268000 0.921999 0.127248
4404266000 0.921493 0.111342
4416264000 0.920286 0.0886437
4428262000 0.920496 0.0706053
4440260000 0.923237 0.0508059
4452258000 0.925468 0.0341175
4464256000 0.928058 0.0175924
4476254000 0.930376 0.00201671
4488252000 0.930713 -0.00974942
4500250000 0.931061 -0.018994
4512248000 0.930884 -0.0344006
4524246000 0.932758 -0.043834
4536244000 0.934284 -0.0540232
4548242000 0.932552 -0.0628966
4560240000 0.932782 -0.0656697
4572238000 0.927582 -0.0739483
4584236000 0.929619 -0.0842027
4596234000 0.921874 -0.0928474
4608232000 0.912791 -0.1011
4620230000 0.906782 -0.114268
4632228000 0.899324 -0.130354
4644226000 0.891241 -0.146784
4656224000 0.880599 -0.164366
4668222000 0.872716 -0.181457
4680220000 0.861455 -0.201041
4692218000 0.858229 -0.220334
4704216000 0.844677 -0.239642
4716214000 0.836595 -0.255585
4728212000 0.824778 -0.273814
4740210000 0.813544 -0.292678
4752208000 0.801041 -0.309175
4764206000 0.791012 -0.327378
4776204000 0.780346 -0.342848
4788202000 0.772229 -0.357755
4800200000 0.759161 -0.374499
4812198000 0.752153 -0.39062
4824196000 0.741829 -0.401899
4836194000 0.728302 -0.414402
4848192000 0.715375 -0.424505
4860190000 0.703583 -0.429761
4872188000 0.686636 -0.441695
4884186000 0.665784 -0.448139
4896184000 0.643074 -0.457779
4908182000 0.625469 -0.470789
4920180000 0.598518 -0.474734
4932178000 0.573068 -0.487786
4944176000 0.543533 -0.493232
4956174000 0.51678 -0.50202
4968172000 0.481606 -0.503793
4980170000 0.447238 -0.509578
4992168000 0.412874 -0.509366
5004166000 0.379142 -0.510144
5016164000 0.343068 -0.511976
5028162000 0.308453 -0.51014
5040160000 0.271643 -0.503169
5052158000 0.236322 -0.497486
5064156000 0.201854 -0.484006
5076154000 0.170768 -0.470582
5088152000 0.138729 -0.456755
5100150000 0.109372 -0.43474
5112148000 0.0875501 -0.410521
5124146000 0.0618684 -0.385084
5136144000 0.037968 -0.35168
5148142000 0.0196745 -0.318864
5160140000 0.00264528 -0.277058
5172138000 -0.00414636 -0.237762
5184136000 -0.00944911 -0.193154
5196134000 -0.0138614 -0.145059
5208132000 -0.0111854 -0.0952875
5220130000 -0.0101972 -0.0494065
5232128000 -0.00649944 -0.000911127
5244126000 -0.0022431 0.0455808
5256124000 0.00814747 0.087237
5268122000 0.0163271 0.136632
5280120000 0.0371212 0.166696
5292118000 0.0584206 0.19902
5304116000 0.090574 0.224031
5316114000 0.121532 0.244456
5328112000 0.157328 0.262998
5340110000 0.198458 0.27877
5352108000 0.228685 0.289983
5364106000 0.268399 0.301115
5376104000 0.302655 0.30623
5388102000 0.335004 0.311412
5400100000 0.367223 0.313468
5412098000 0.396497 0.312063
5424096000 0.427884 0.307535
5436094000 0.457163 0.304617
5448092000 0.483192 0.297947
5460090000 0.511333 0.290276
5472088000 0.537552 0.280241
5484086000 0.56321 0.268902
5496084000 0.590156 0.257571
5508082000 0.614365 0.243455
5520080000 0.63431 0.229163
5532078000 0.657257 0.217168
5544076000 0.676004 0.201734
5556074000 0.695302 0.187455
5568072000 0.709369 0.179079
5580070000 0.726036 0.165498
5592068000 0.738733 0.152503
5604066000 0.754101 0.137463
5616064000 0.758067 0.125133
5628062000 0.770525 0.109942
5640060000 0.77592 0.0999151
5652058000 0.783333 0.0846619
5664056000 0.789216 0.0690795
5676054000 0.79523 0.0502516
5688052000 0.798897 0.0359465
5700050000 0.803588 0.0190997
5712048000 0.808307 0.00244699
5724046000 0.813397 -0.0146335
5736044000 0.81984 -0.0312521
5748042000 0.82311 -0.0481509
5760040000 0.826789 -0.0635481
5772038000 0.829915 -0.0807765
5784036000 0.836714 -0.0951663
5796034000 0.839083 -0.111313
5808032000 0.844555 -0.121469
5820030000 0.847749 -0.141592
5832028000 0.854359 -0.153681
5844026000 0.856631 -0.168732
5856024000 0.860049 -0.183178
5868022000 0.859276 -0.204553
5880020000 0.853423 -0.213768
5892018000 0.859551 -0.226987
5904016000 0.855946 -0.246769
5916014000 0.854115 -0.263551
5928012000 0.84912 -0.283053
5940010000 0.848433 -0.298925
5952008000 0.841259 -0.313916
5964006000 0.826863 -0.326592
5976004000 0.826027 -0.344059
5988002000 0.819829 -0.35646
6000000000 0.80956 -0.370633
