# Hz S RI R 50
1000000 0.989264 -0.00643351
12998000 1.01504 -0.0589136
24996000 1.00968 -0.127957
36994000 0.996422 -0.193153
48992000 0.979337 -0.256574
60990000 0.958795 -0.316195
72988000 0.933564 -0.375001
84986000 0.905866 -0.430986
96984000 0.874892 -0.484694
108982000 0.841218 -0.536649
120980000 0.805718 -0.58607
132978000 0.768717 -0.632509
144976000 0.72994 -0.677241
156974000 0.689157 -0.720079
168972000 0.647047 -0.75936
180970000 0.604296 -0.795771
192968000 0.559459 -0.829391
204966000 0.514423 -0.860241
216964000 0.468324 -0.887313
228962000 0.421827 -0.911104
240960000 0.375931 -0.931199
252958000 0.329172 -0.947974
264956000 0.28283 -0.961626
276954000 0.236643 -0.972666
288952000 0.191648 -0.979849
300950000 0.14683 -0.984948
312948000 0.102949 -0.988031
324946000 0.0608651 -0.988597
336944000 0.0196976 -0.987526
348942000 -0.0199223 -0.986017
360940000 -0.0601163 -0.982512
372938000 -0.0984668 -0.979201
384936000 -0.135996 -0.975618
396934000 -0.172743 -0.971208
408932000 -0.209459 -0.966424
420930000 -0.244223 -0.960694
432928000 -0.279769 -0.953558
444926000 -0.313446 -0.944998
456924000 -0.345773 -0.936162
468922000 -0.378321 -0.92705
480920000 -0.408014 -0.915738
492918000 -0.436394 -0.902775
504916000 -0.464308 -0.888614
516914000 -0.492053 -0.874441
528912000 -0.51726 -0.858303
540910000 -0.542089 -0.841626
552908000 -0.564858 -0.824248
564906000 -0.587326 -0.806924
576904000 -0.607758 -0.789534
588902000 -0.627872 -0.772413
600900000 -0.645973 -0.754462
612898000 -0.663647 -0.737935
624896000 -0.681616 -0.720884
636894000 -0.699527 -0.704151
648892000 -0.716818 -0.688052
660890000 -0.733867 -0.672604
672888000 -0.751055 -0.655823
684886000 -0.767339 -0.639672
696884000 -0.784262 -0.621523
708882000 -0.799943 -0.60522
720880000 -0.815774 -0.58776
732878000 -0.829759 -0.568561
744876000 -0.842946 -0.550332
756874000 -0.855667 -0.531707
768872000 -0.867876 -0.511395
780870000 -0.878714 -0.491388
792868000 -0.887564 -0.471837
804866000 -0.896273 -0.451724
816864000 -0.904862 -0.432984
828862000 -0.913343 -0.415086
840860000 -0.918933 -0.397638
852858000 -0.924546 -0.379035
864856000 -0.931363 -0.360413
876854000 -0.937085 -0.343082
888852000 -0.944155 -0.326288
900850000 -0.949216 -0.309399
912848000 -0.954948 -0.293395
924846000 -0.96062 -0.277469
936844000 -0.966253 -0.262011
948842000 -0.97239 -0.247538
960840000 -0.978528 -0.233352
972838000 -0.984065 -0.2184
984836000 -0.989946 -0.202011
996834000 -0.993666 -0.186709
1008832000 -0.996713 -0.17239
1020830000 -1.00047 -0.156647
1032828000 -1.00309 -0.140137
1044826000 -1.00528 -0.12396
1056824000 -1.00755 -0.107719
1068822000 -1.00945 -0.0906147
1080820000 -1.00871 -0.0725196
1092818000 -1.00901 -0.0568835
1104816000 -1.00858 -0.0391003
1116814000 -1.00818 -0.0229704
1128812000 -1.00778 -0.00824134
1140810000 -1.00655 0.00756282
1152808000 -1.00706 0.0218325
1164806000 -1.0068 0.0363066
1176804000 -1.00912 0.0525585
1188802000 -1.00432 0.0682721
1200800000 -1.00289 0.0781476
1212798000 -1.00292 0.0911908
1224796000 -1.00201 0.103117
1236794000 -1.00204 0.114722
1248792000 -1.00082 0.126198
1260790000 -1.00118 0.138213
1272788000 -0.999812 0.149329
1284786000 -0.997242 0.160292
1296784000 -0.993212 0.17168
1308782000 -0.99037 0.184586
1320780000 -0.987715 0.198127
1332778000 -0.985224 0.211537
1344776000 -0.982555 0.225833
1356774000 -0.980044 0.240249
1368772000 -0.977241 0.251716
1380770000 -0.973964 0.266787
1392768000 -0.969839 0.28149
1404766000 -0.964432 0.297311
1416764000 -0.960457 0.313483
1428762000 -0.954096 0.327997
1440760000 -0.949395 0.341736
1452758000 -0.944245 0.354965
1464756000 -0.940078 0.367609
1476754000 -0.935983 0.380218
1488752000 -0.931193 0.391295
1500750000 -0.926803 0.40351
1512748000 -0.918717 0.411275
1524746000 -0.913874 0.419951
1536744000 -0.906325 0.429289
1548742000 -0.900402 0.439971
1560740000 -0.896008 0.449928
1572738000 -0.889448 0.459279
1584736000 -0.885108 0.470001
1596734000 -0.881533 0.480935
1608732000 -0.877186 0.492382
1620730000 -0.873179 0.502488
1632728000 -0.868493 0.513357
1644726000 -0.862607 0.525305
1656724000 -0.856336 0.535489
1668722000 -0.851089 0.544936
1680720000 -0.844262 0.557049
1692718000 -0.839833 0.566552
1704716000 -0.833528 0.575167
1716714000 -0.828029 0.584103
1728712000 -0.820625 0.593049
1740710000 -0.812478 0.60435
1752708000 -0.803431 0.61434
1764706000 -0.793653 0.621706
1776704000 -0.784258 0.630285
1788702000 -0.775179 0.636812
1800700000 -0.765077 0.645455
1812698000 -0.751677 0.653427
1824696000 -0.743942 0.664445
1836694000 -0.734638 0.672434
1848692000 -0.726274 0.682466
1860690000 -0.718012 0.691389
1872688000 -0.709552 0.701217
1884686000 -0.701409 0.710797
1896684000 -0.694042 0.720295
1908682000 -0.684924 0.731775
1920680000 -0.678695 0.742658
1932678000 -0.67057 0.752193
1944676000 -0.662823 0.761636
1956674000 -0.657054 0.770481
1968672000 -0.652006 0.778463
1980670000 -0.645651 0.78522
1992668000 -0.643 0.789233
2004666000 -0.638673 0.796393
2016664000 -0.633161 0.797461
2028662000 -0.626137 0.800865
2040660000 -0.620273 0.802838
2052658000 -0.612125 0.804342
2064656000 -0.60388 0.806442
2076654000 -0.593692 0.810448
2088652000 -0.583042 0.811792
2100650000 -0.572502 0.816065
2112648000 -0.557007 0.821658
2124646000 -0.543658 0.830075
2136644000 -0.528799 0.835616
2148642000 -0.515142 0.845347
2160640000 -0.500498 0.856532
2172638000 -0.491038 0.867071
2184636000 -0.480495 0.878362
2196634000 -0.470376 0.889668
2208632000 -0.464316 0.901148
2220630000 -0.459233 0.908061
2232628000 -0.456815 0.914968
2244626000 -0.455585 0.919967
2256624000 -0.453216 0.924116
2268622000 -0.44849 0.925478
2280620000 -0.445915 0.928997
2292618000 -0.44349 0.929924
2304616000 -0.439509 0.929973
2316614000 -0.431959 0.929654
2328612000 -0.421194 0.929238
2340610000 -0.408908 0.929635
2352608000 -0.392265 0.929342
2364606000 -0.37762 0.929639
2376604000 -0.360343 0.930958
2388602000 -0.343411 0.934961
2400600000 -0.325816 0.93795
2412598000 -0.309188 0.943658
2424596000 -0.293411 0.947366
2436594000 -0.276758 0.953813
2448592000 -0.263187 0.959583
2460590000 -0.249469 0.966272
2472588000 -0.238883 0.974668
2484586000 -0.230989 0.980731
2496584000 -0.222296 0.990006
2508582000 -0.214596 0.99403
2520580000 -0.204451 1.00045
2532578000 -0.199491 1.00166
2544576000 -0.194109 1.00771
2556574000 -0.186121 1.00815
2568572000 -0.179473 1.01089
2580570000 -0.169659 1.01039
2592568000 -0.163455 1.00833
2604566000 -0.152407 1.00541
2616564000 -0.145522 1.00129
2628562000 -0.135765 1.0012
2640560000 -0.126524 0.995234
2652558000 -0.11238 0.993977
2664556000 -0.101787 0.991404
2676554000 -0.0897331 0.988249
2688552000 -0.0785094 0.987734
2700550000 -0.0642254 0.98791
2712548000 -0.0523952 0.986707
2724546000 -0.0385129 0.988305
2736544000 -0.0278154 0.992596
2748542000 -0.0155413 0.995272
2760540000 -0.00420243 0.998025
2772538000 0.00662378 1.00179
2784536000 0.0172431 1.00483
2796534000 0.0272056 1.00654
2808532000 0.0346175 1.00926
2820530000 0.0442617 1.00879
2832528000 0.0524273 1.00985
2844526000 0.0609714 1.00979
2856524000 0.0685285 1.00661
2868522000 0.0758685 1.00402
2880520000 0.0821898 1.00063
2892518000 0.0912558 0.995709
2904516000 0.0995065 0.993922
2916514000 0.106817 0.990754
2928512000 0.114902 0.986052
2940510000 0.119202 0.98502
2952508000 0.130855 0.978766
2964506000 0.140221 0.976077
2976504000 0.151825 0.973409
2988502000 0.165743 0.973524
3000500000 0.172489 0.96936
3012498000 0.189364 0.973998
3024496000 0.19311 0.972936
3036494000 0.206876 0.972104
3048492000 0.217945 0.971349
3060490000 0.227743 0.970519
3072488000 0.234763 0.968688
3084486000 0.24357 0.967716
3096484000 0.250834 0.966443
3108482000 0.259207 0.964443
3120480000 0.268192 0.961753
3132478000 0.271662 0.956706
3144476000 0.281834 0.951117
3156474000 0.289461 0.951295
3168472000 0.295473 0.946512
3180470000 0.30563 0.943649
3192468000 0.313969 0.938831
3204466000 0.323457 0.933316
3216464000 0.333451 0.928473
3228462000 0.345608 0.924152
3240460000 0.35604 0.918942
3252458000 0.366892 0.916534
3264456000 0.37787 0.912652
3276454000 0.386805 0.909838
3288452000 0.39812 0.905786
3300450000 0.403807 0.898282
3312448000 0.418354 0.893502
3324446000 0.426918 0.888387
3336444000 0.437473 0.884704
3348442000 0.446048 0.878726
3360440000 0.456079 0.87306
3372438000 0.465122 0.866431
3384436000 0.473782 0.861473
3396434000 0.483035 0.853395
3408432000 0.49316 0.846048
3420430000 0.503681 0.84314
3432428000 0.512987 0.83505
3444426000 0.52605 0.827897
3456424000 0.535775 0.822582
3468422000 0.544908 0.814612
3480420000 0.555658 0.807726
3492418000 0.566267 0.802207
3504416000 0.576709 0.79641
3516414000 0.586211 0.788014
3528412000 0.594611 0.78534
3540410000 0.60384 0.778391
3552408000 0.609233 0.771451
3564406000 0.619351 0.769918
3576404000 0.624768 0.760051
3588402000 0.631546 0.756682
3600400000 0.638186 0.748347
3612398000 0.644224 0.741638
3624396000 0.651051 0.733207
3636394000 0.659352 0.726198
3648392000 0.666022 0.71919
3660390000 0.67298 0.712038
3672388000 0.6793 0.70455
3684386000 0.687159 0.694378
3696384000 0.696054 0.687655
3708382000 0.704837 0.677424
3720380000 0.712579 0.667028
3732378000 0.719654 0.659062
3744376000 0.726129 0.652139
3756374000 0.735416 0.640021
3768372000 0.742854 0.632775
3780370000 0.750657 0.622833
3792368000 0.754682 0.616768
3804366000 0.764297 0.610092
3816364000 0.767444 0.600389
3828362000 0.772496 0.596095
3840360000 0.777584 0.591293
3852358000 0.781099 0.583102
3864356000 0.785149 0.577107
3876354000 0.78797 0.571504
3888352000 0.792711 0.564401
3900350000 0.797376 0.558501
3912348000 0.800452 0.552667
3924346000 0.805929 0.547079
3936344000 0.808045 0.540699
3948342000 0.811336 0.53542
3960340000 0.809148 0.533097
3972338000 0.815048 0.523287
3984336000 0.822829 0.513301
3996334000 0.825986 0.505379
4008332000 0.831059 0.497482
4020330000 0.838428 0.487361
4032328000 0.843429 0.478799
4044326000 0.847797 0.469464
4056324000 0.85308 0.458193
4068322000 0.855478 0.445265
4080320000 0.859478 0.432079
4092318000 0.866091 0.417808
4104316000 0.870918 0.396937
4116314000 0.876034 0.379945
4128312000 0.882265 0.362816
4140310000 0.888593 0.344663
4152308000 0.893831 0.325537
4164306000 0.901508 0.309342
4176304000 0.907276 0.298365
4188302000 0.913041 0.286184
4200300000 0.916078 0.279221
4212298000 0.916015 0.273451
4224296000 0.917067 0.271779
4236294000 0.920808 0.265654
4248292000 0.919269 0.267508
4260290000 0.926886 0.257084
4272288000 0.926131 0.255126
4284286000 0.924005 0.250108
4296284000 0.930178 0.24136
4308282000 0.930626 0.232025
4320280000 0.933308 0.218622
4332278000 0.930336 0.205486
4344276000 0.926592 0.191902
4356274000 0.929891 0.178244
4368272000 0.92558 0.164219
4380270000 0.925463 0.146869
4392268000 0.921511 0.126028
4404266000 0.921848 0.111045
4416264000 0.920743 0.087596
4428262000 0.921638 0.0679936
4440260000 0.922896 0.0504644
4452258000 0.925371 0.0335529
4464256000 0.928313 0.0164844
4476254000 0.929617 0.00130978
4488252000 0.931311 -0.00954924
4500250000 0.931058 -0.0198571
4512248000 0.931212 -0.0349995
4524246000 0.933036 -0.0443907
4536244000 0.934477 -0.0550448
4548242000 0.932755 -0.0640718
4560240000 0.93267 -0.0696851
4572238000 0.927576 -0.0720117
4584236000 0.928887 -0.0859708
4596234000 0.922613 -0.0911669
4608232000 0.913532 -0.101322
4620230000 0.908267 -0.114115
4632228000 0.898907 -0.132766
4644226000 0.892639 -0.147635
4656224000 0.880793 -0.165272
4668222000 0.872809 -0.182077
4680220000 0.861158 -0.20147
4692218000 0.858673 -0.221409
4704216000 0.844734 -0.239901
4716214000 0.835956 -0.256935
4728212000 0.825116 -0.272976
4740210000 0.81395 -0.289077
4752208000 0.799799 -0.310846
4764206000 0.791336 -0.327473
4776204000 0.780032 -0.343369
4788202000 0.772077 -0.358766
4800200000 0.758899 -0.374948
4812198000 0.751871 -0.391081
4824196000 0.740977 -0.403264
4836194000 0.727761 -0.411043
4848192000 0.715403 -0.426022
4860190000 0.699933 -0.431334
4872188000 0.684067 -0.441684
4884186000 0.663699 -0.449463
4896184000 0.645201 -0.457868
4908182000 0.626842 -0.469851
4920180000 0.597029 -0.476656
4932178000 0.573032 -0.489381
4944176000 0.543143 -0.493672
4956174000 0.51619 -0.50248
4968172000 0.480994 -0.504029
4980170000 0.445993 -0.508213
4992168000 0.413765 -0.508648
5004166000 0.379258 -0.51103
5016164000 0.341436 -0.512085
5028162000 0.306972 -0.510132
5040160000 0.271399 -0.502961
5052158000 0.235771 -0.497667
5064156000 0.201502 -0.484324
5076154000 0.170664 -0.470984
5088152000 0.139739 -0.457598
5100150000 0.10926 -0.433943
5112148000 0.0872551 -0.409863
5124146000 0.060622 -0.385202
5136144000 0.0379945 -0.351935
5148142000 0.0197921 -0.319112
5160140000 0.00232174 -0.277014
5172138000 -0.00434829 -0.237846
5184136000 -0.00940391 -0.193504
5196134000 -0.0142283 -0.145418
5208132000 -0.0109941 -0.0948759
5220130000 -0.00995198 -0.0498425
5232128000 -0.00656853 -0.000905839
5244126000 -0.00241884 0.0456108
5256124000 0.00811798 0.0873333
5268122000 0.0197585 0.131964
5280120000 0.0370528 0.166887
5292118000 0.0584148 0.199078
5304116000 0.0903547 0.224328
5316114000 0.121405 0.244825
5328112000 0.157094 0.262656
5340110000 0.19933 0.279334
5352108000 0.228622 0.288867
5364106000 0.266721 0.300821
5376104000 0.30329 0.305578
5388102000 0.334522 0.311182
5400100000 0.366893 0.312046
5412098000 0.397291 0.311055
5424096000 0.427789 0.306962
5436094000 0.457164 0.304307
5448092000 0.483013 0.297462
5460090000 0.51098 0.289226
5472088000 0.536419 0.279232
5484086000 0.563434 0.269102
5496084000 0.589681 0.254967
5508082000 0.613665 0.242288
5520080000 0.63489 0.227373
5532078000 0.657544 0.216957
5544076000 0.676357 0.201022
5556074000 0.695431 0.186882
5568072000 0.709265 0.179077
5580070000 0.724485 0.16486
5592068000 0.738943 0.150508
5604066000 0.754637 0.134514
5616064000 0.759088 0.121585
5628062000 0.769725 0.111512
5640060000 0.774912 0.0996996
5652058000 0.78615 0.0825522
5664056000 0.790002 0.0677062
5676054000 0.794177 0.0529713
5688052000 0.799542 0.0348756
5700050000 0.804391 0.0188656
5712048000 0.808363 0.00202514
5724046000 0.813359 -0.0152513
5736044000 0.819901 -0.0313935
5748042000 0.823755 -0.047015
5760040000 0.826202 -0.0635306
5772038000 0.83063 -0.0815227
5784036000 0.835958 -0.0947504
5796034000 0.838987 -0.1113
5808032000 0.844149 -0.121858
5820030000 0.848053 -0.141961
5832028000 0.854521 -0.154764
5844026000 0.856451 -0.169475
5856024000 0.861217 -0.185179
5868022000 0.856745 -0.206468
5880020000 0.850347 -0.211911
5892018000 0.859976 -0.230018
5904016000 0.857653 -0.248026
5916014000 0.855129 -0.264993
5928012000 0.850011 -0.282448
5940010000 0.847688 -0.301023
5952008000 0.839924 -0.312845
5964006000 0.830329 -0.326544
5976004000 0.826845 -0.341155
5988002000 0.819143 -0.356487
6000000000 0.809749 -0.371414
