# Hz S RI R 50
2300000000 0.69881 0.328533
2303000000 0.715228 0.290349
2306000000 0.729897 0.251235
2309000000 0.742812 0.211544
2312000000 0.754388 0.171396
2315000000 0.76312 0.130251
2318000000 0.770069 0.0890144
2321000000 0.774355 0.0474559
2324000000 0.77659 0.00563985
2327000000 0.776376 -0.0362771
2330000000 0.774197 -0.078026
2333000000 0.769519 -0.119503
2336000000 0.762766 -0.160922
2339000000 0.753359 -0.202261
2342000000 0.741499 -0.24245
2345000000 0.727397 -0.282421
2348000000 0.710953 -0.321541
2351000000 0.692818 -0.360104
2354000000 0.6721 -0.39753
2357000000 0.648946 -0.433472
2360000000 0.623819 -0.469062
2363000000 0.596119 -0.503038
2366000000 0.566545 -0.535189
2369000000 0.535211 -0.565762
2372000000 0.501579 -0.594691
2375000000 0.466316 -0.622348
2378000000 0.428966 -0.64745
2381000000 0.390053 -0.671229
2384000000 0.349074 -0.692678
2387000000 0.306319 -0.710693
2390000000 0.262496 -0.727005
2393000000 0.21721 -0.740457
2396000000 0.170034 -0.751517
2399000000 0.121708 -0.759079
2402000000 0.0725604 -0.764465
2405000000 0.0231451 -0.765292
2408000000 -0.0279206 -0.763338
2411000000 -0.0789207 -0.758374
2414000000 -0.129116 -0.749224
2417000000 -0.180178 -0.73733
2420000000 -0.230319 -0.720362
2423000000 -0.280007 -0.69993
2426000000 -0.329248 -0.675948
2429000000 -0.376811 -0.648241
2432000000 -0.423377 -0.615735
2435000000 -0.466836 -0.579763
2438000000 -0.508633 -0.540178
2441000000 -0.547087 -0.497602
2444000000 -0.583038 -0.451065
2447000000 -0.615131 -0.401165
2450000000 -0.64292 -0.348364
2453000000 -0.667112 -0.293358
2456000000 -0.686079 -0.236127
2459000000 -0.70108 -0.177391
2462000000 -0.710375 -0.116933
2465000000 -0.714885 -0.0557587
2468000000 -0.713945 0.00566165
2471000000 -0.707914 0.0665954
2474000000 -0.696284 0.126861
2477000000 -0.679782 0.185821
2480000000 -0.658325 0.242868
2483000000 -0.631904 0.297544
2486000000 -0.601084 0.349173
2489000000 -0.566673 0.39761
2492000000 -0.528268 0.442458
2495000000 -0.485306 0.483905
2498000000 -0.442539 0.520455
2501000000 -0.396198 0.553242
2504000000 -0.347385 0.58043
2507000000 -0.298563 0.604956
2510000000 -0.248762 0.623947
2513000000 -0.19864 0.638601
2516000000 -0.14809 0.648813
2519000000 -0.097348 0.655374
2522000000 -0.0487838 0.659041
2525000000 0.000816968 0.658082
2528000000 0.0466585 0.654763
2531000000 0.092167 0.647299
2534000000 0.136367 0.637305
2537000000 0.17813 0.624186
2540000000 0.218504 0.609046
2543000000 0.257639 0.591474
2546000000 0.293161 0.572589
2549000000 0.327882 0.551337
2552000000 0.359602 0.529067
2555000000 0.389223 0.504897
2558000000 0.41801 0.479662
2561000000 0.443321 0.453679
2564000000 0.467136 0.426796
2567000000 0.489105 0.399586
2570000000 0.508516 0.371494
2573000000 0.526889 0.34236
2576000000 0.542654 0.313546
2579000000 0.557281 0.284489
2582000000 0.570391 0.255418
2585000000 0.581342 0.225867
2588000000 0.590985 0.19623
2591000000 0.599095 0.166618
2594000000 0.605846 0.136916
2597000000 0.611032 0.107119
2600000000 0.615091 0.0776742
