!Keysight Technologies N9926A: A.08.19
!Date: Sunday, 01 March 2026 13:41:56
!Timezone: (GMT-06:00) Central Time (US & Canada)
!Model: N9926A
!Serial: MY53102721
!GPS Latitude: 
!GPS Longitude: 
!GPS TimeStamp: 0001-01-01 00:00:00Z
!GPS Seconds Since Last Read: 0
!CHECKSUM:0867895835
!Correction: S11()S21(ON U)S12()S22()
!S2P File: Measurements:S11,S21,S12,S22:
# Hz S DB R 50
1000000000	0	0	-75.9373211797994	80.8484856795655	0	0	0	0	
1025000000	0	0	-69.8801559044959	119.576107414716	0	0	0	0	
1050000000	0	0	-64.3399755368964	38.3254684924595	0	0	0	0	
1075000000	0	0	-74.9838001916025	-136.438467542505	0	0	0	0	
1100000000	0	0	-70.0842733493425	18.2080936384737	0	0	0	0	
1125000000	0	0	-66.2825155951087	87.0410523341855	0	0	0	0	
1150000000	0	0	-61.0406856125849	-123.217647505706	0	0	0	0	
1175000000	0	0	-72.3574455913527	-106.55933704504	0	0	0	0	
1200000000	0	0	-69.3726709198461	-33.6316462442429	0	0	0	0	
1225000000	0	0	-60.445841381636	-47.1286739711462	0	0	0	0	
1250000000	0	0	-60.1842988005304	49.291657043744	0	0	0	0	
1275000000	0	0	-57.5687596295371	105.103088878859	0	0	0	0	
1300000000	0	0	-54.5840576247799	7.72660183784522	0	0	0	0	
1325000000	0	0	-57.3336858995973	-56.4881105841193	0	0	0	0	
1350000000	0	0	-60.5804642957684	42.6247988995296	0	0	0	0	
1375000000	0	0	-56.3365794840723	-138.581347204255	0	0	0	0	
1400000000	0	0	-51.7335889574569	-93.476141159887	0	0	0	0	
1425000000	0	0	-61.2438696186924	177.199919654308	0	0	0	0	
1450000000	0	0	-54.1157169505299	118.604326547041	0	0	0	0	
1475000000	0	0	-50.6001986380095	-37.8256879417527	0	0	0	0	
1500000000	0	0	-55.0119934755854	16.5344861675921	0	0	0	0	
1525000000	0	0	-62.3682852757938	-3.19978396523183	0	0	0	0	
1550000000	0	0	-53.7167127036967	-129.975238996769	0	0	0	0	
1575000000	0	0	-62.6028096332967	-49.459613697883	0	0	0	0	
1600000000	0	0	-56.7211271081967	94.9442716221313	0	0	0	0	
1625000000	0	0	-56.6716517671148	-94.0850974692495	0	0	0	0	
1650000000	0	0	-60.2070586719599	97.7730009268537	0	0	0	0	
1675000000	0	0	-66.720738052378	16.7321937757815	0	0	0	0	
1700000000	0	0	-66.7035252979083	80.756447003252	0	0	0	0	
1725000000	0	0	-79.558168553208	-79.5981770209571	0	0	0	0	
1750000000	0	0	-67.3503292445068	54.5792937235752	0	0	0	0	
1775000000	0	0	-61.6543102147112	56.3195943491726	0	0	0	0	
1800000000	0	0	-56.6721811350527	-103.569164509733	0	0	0	0	
1825000000	0	0	-62.1070290098725	-26.6145245081889	0	0	0	0	
1850000000	0	0	-67.4588730373091	-144.901554790002	0	0	0	0	
1875000000	0	0	-63.2180078913026	-31.5357156924923	0	0	0	0	
1900000000	0	0	-59.4009533063585	-147.825555339826	0	0	0	0	
1925000000	0	0	-77.8941706012168	-1.08144996358759	0	0	0	0	
1950000000	0	0	-64.8056288988841	85.9677160947414	0	0	0	0	
1975000000	0	0	-69.0002678320907	87.1076782716628	0	0	0	0	
2000000000	0	0	-60.9882682333022	166.431714363926	0	0	0	0	
2025000000	0	0	-70.1001030273522	-100.725021788074	0	0	0	0	
2050000000	0	0	-71.1724641895004	95.4448551959384	0	0	0	0	
2075000000	0	0	-67.2783749946585	-74.5062794880419	0	0	0	0	
2100000000	0	0	-59.0296604705316	-63.3508009243538	0	0	0	0	
2125000000	0	0	-65.0082736269921	-70.4735276509776	0	0	0	0	
2150000000	0	0	-68.9418266819303	-87.9837036718128	0	0	0	0	
2175000000	0	0	-71.9137383068988	1.54871610698737	0	0	0	0	
2200000000	0	0	-68.8945558248173	-43.150226123225	0	0	0	0	
2225000000	0	0	-61.6582112709041	150.962998239359	0	0	0	0	
2250000000	0	0	-77.3362348080996	80.8428665011796	0	0	0	0	
2275000000	0	0	-74.460254054989	11.0694481680022	0	0	0	0	
2300000000	0	0	-64.6816657011073	-72.4741489863639	0	0	0	0	
2325000000	0	0	-74.1234595047702	16.6891556125268	0	0	0	0	
2350000000	0	0	-72.1166900678261	40.9869372541756	0	0	0	0	
2375000000	0	0	-69.6726270278112	-178.710488787944	0	0	0	0	
2400000000	0	0	-69.7606451372625	168.142152582115	0	0	0	0	
2425000000	0	0	-83.5593635512916	69.9827963615381	0	0	0	0	
2450000000	0	0	-68.5563462519503	-85.123726808116	0	0	0	0	
2475000000	0	0	-73.1991575318679	-74.9083966103698	0	0	0	0	
2500000000	0	0	-74.5015199593938	120.985378489876	0	0	0	0	
2525000000	0	0	-62.0864433866731	-94.4183781606306	0	0	0	0	
2550000000	0	0	-66.5521005214255	-108.230628198051	0	0	0	0	
2575000000	0	0	-69.3589008297552	139.278632991883	0	0	0	0	
2600000000	0	0	-86.9649867503837	179.1923734111	0	0	0	0	
2625000000	0	0	-76.2834961672528	34.8195995935286	0	0	0	0	
2650000000	0	0	-74.0340497045135	110.797644105549	0	0	0	0	
2675000000	0	0	-69.9586927339426	50.4453834778773	0	0	0	0	
2700000000	0	0	-66.9077516746111	123.998292736282	0	0	0	0	
2725000000	0	0	-74.5736950955442	-0.136508078524287	0	0	0	0	
2750000000	0	0	-61.3074772725462	35.9729900705072	0	0	0	0	
2775000000	0	0	-68.5718423263519	160.857222185454	0	0	0	0	
2800000000	0	0	-69.615596256097	64.9177460448914	0	0	0	0	
2825000000	0	0	-73.1519177748253	128.936168314759	0	0	0	0	
2850000000	0	0	-64.6975762724389	166.101365520729	0	0	0	0	
2875000000	0	0	-80.9930384056773	-51.342613851142	0	0	0	0	
2900000000	0	0	-77.7923807274223	-56.7935853259494	0	0	0	0	
2925000000	0	0	-69.0532686399863	3.11454525061629	0	0	0	0	
2950000000	0	0	-74.4816821689503	-74.1049540092061	0	0	0	0	
2975000000	0	0	-63.7157136667119	-43.1344810293647	0	0	0	0	
3000000000	0	0	-69.5641437960664	-58.5397362470892	0	0	0	0	
3025000000	0	0	-68.1494327773297	-79.1467894202422	0	0	0	0	
3050000000	0	0	-69.5653169457155	-168.486368826715	0	0	0	0	
3075000000	0	0	-67.983906481719	-134.624849200765	0	0	0	0	
3100000000	0	0	-66.3129806803189	125.798586674311	0	0	0	0	
3125000000	0	0	-72.1572541568874	-129.670580623936	0	0	0	0	
3150000000	0	0	-70.222266021485	-21.4291283678631	0	0	0	0	
3175000000	0	0	-72.6294252337607	-14.6069025159791	0	0	0	0	
3200000000	0	0	-83.6491712191916	85.6030328825751	0	0	0	0	
3225000000	0	0	-67.8699501114728	0.0144806815824379	0	0	0	0	
3250000000	0	0	-84.0623329876405	-12.8165337730513	0	0	0	0	
3275000000	0	0	-71.4570178320744	96.7614719866436	0	0	0	0	
3300000000	0	0	-69.6697140430246	124.066030089636	0	0	0	0	
3325000000	0	0	-66.8255585613281	-57.3663957387043	0	0	0	0	
3350000000	0	0	-72.9180282741078	124.544869348061	0	0	0	0	
3375000000	0	0	-67.8525366789463	-14.2300833303816	0	0	0	0	
3400000000	0	0	-68.8958835444743	-52.5850680368916	0	0	0	0	
3425000000	0	0	-71.4855370734475	-55.9234084858859	0	0	0	0	
3450000000	0	0	-64.9453007188314	-79.8478788108897	0	0	0	0	
3475000000	0	0	-67.0630890047288	134.605416576913	0	0	0	0	
3500000000	0	0	-62.4161814299419	-87.8995454680468	0	0	0	0	
3525000000	0	0	-63.1125292549912	94.4751251830009	0	0	0	0	
3550000000	0	0	-70.2160365238465	-44.2470979841998	0	0	0	0	
3575000000	0	0	-69.1091067295484	-43.3022620574899	0	0	0	0	
3600000000	0	0	-69.4574618954971	8.57239213898261	0	0	0	0	
3625000000	0	0	-69.7453556985138	-20.9098883238197	0	0	0	0	
3650000000	0	0	-72.0739965933354	-96.0623455711874	0	0	0	0	
3675000000	0	0	-64.5358982967407	-173.443637350571	0	0	0	0	
3700000000	0	0	-68.6032270365275	-147.692214365123	0	0	0	0	
3725000000	0	0	-66.1939099580394	120.37976527109	0	0	0	0	
3750000000	0	0	-67.3576423664173	120.932595341086	0	0	0	0	
3775000000	0	0	-67.5298842671542	79.8450892260868	0	0	0	0	
3800000000	0	0	-72.1303499595405	67.7809349817983	0	0	0	0	
3825000000	0	0	-65.7304827167718	-11.2168404861591	0	0	0	0	
3850000000	0	0	-71.263146953532	143.691942256673	0	0	0	0	
3875000000	0	0	-64.9401977359869	-124.564586071903	0	0	0	0	
3900000000	0	0	-69.6318403967749	174.663078919875	0	0	0	0	
3925000000	0	0	-61.8293375678204	149.063734203307	0	0	0	0	
3950000000	0	0	-66.0508488255778	-139.032837145333	0	0	0	0	
3975000000	0	0	-67.2738474039849	128.182863080975	0	0	0	0	
4000000000	0	0	-68.8526628963984	97.786070306846	0	0	0	0	
4025000000	0	0	-68.543924703347	65.36731952121	0	0	0	0	
4050000000	0	0	-75.6539724131212	62.2325792612196	0	0	0	0	
4075000000	0	0	-63.2345930094699	-42.8331559465692	0	0	0	0	
4100000000	0	0	-60.2542127244623	-60.578013154911	0	0	0	0	
4125000000	0	0	-61.3418622296665	-96.6477244204697	0	0	0	0	
4150000000	0	0	-61.9976667665002	-155.891703066192	0	0	0	0	
4175000000	0	0	-59.8908726359189	173.864380957558	0	0	0	0	
4200000000	0	0	-64.2391260389356	101.949736927097	0	0	0	0	
4225000000	0	0	-62.5001316742308	73.1961681447683	0	0	0	0	
4250000000	0	0	-62.5556778641358	47.1774020384266	0	0	0	0	
4275000000	0	0	-61.9476349982937	22.2571006764102	0	0	0	0	
4300000000	0	0	-65.3475184588133	-28.0381001936854	0	0	0	0	
4325000000	0	0	-60.7209252509984	-59.8134451652894	0	0	0	0	
4350000000	0	0	-60.5110943175709	-124.935681801896	0	0	0	0	
4375000000	0	0	-59.7803910543303	179.002944208661	0	0	0	0	
4400000000	0	0	-65.2563649683426	-156.560499926768	0	0	0	0	
4425000000	0	0	-61.2318127148203	147.964542457658	0	0	0	0	
4450000000	0	0	-58.165549612197	92.8795706861903	0	0	0	0	
4475000000	0	0	-55.0928783388657	52.0651982395669	0	0	0	0	
4500000000	0	0	-55.0493286989034	-4.5257751262463	0	0	0	0	
4525000000	0	0	-55.7397571145706	-42.869411510426	0	0	0	0	
4550000000	0	0	-53.7089354282882	-81.2377791530713	0	0	0	0	
4575000000	0	0	-53.0049349364824	-128.885420218458	0	0	0	0	
4600000000	0	0	-54.0087144164633	-162.835390502001	0	0	0	0	
4625000000	0	0	-52.2249834445556	145.438836523731	0	0	0	0	
4650000000	0	0	-51.6235860593351	105.696360400956	0	0	0	0	
4675000000	0	0	-51.8614532304685	56.7816888409845	0	0	0	0	
4700000000	0	0	-50.9659963478713	30.2813109717785	0	0	0	0	
4725000000	0	0	-52.0923060367515	-6.74145032513129	0	0	0	0	
4750000000	0	0	-50.240711027228	-65.4386308220876	0	0	0	0	
4775000000	0	0	-49.7326291357892	-94.8623851622573	0	0	0	0	
4800000000	0	0	-51.2117723736418	-129.138876857417	0	0	0	0	
4825000000	0	0	-48.1824865173053	176.062926930604	0	0	0	0	
4850000000	0	0	-46.2469240254551	143.90418155729	0	0	0	0	
4875000000	0	0	-45.1382352373722	83.7337985812316	0	0	0	0	
4900000000	0	0	-45.1412905625641	39.8988610723866	0	0	0	0	
4925000000	0	0	-44.5249797336576	-0.523028544264594	0	0	0	0	
4950000000	0	0	-42.0873427423372	-47.3287112783043	0	0	0	0	
4975000000	0	0	-41.382614895864	-98.0233368139662	0	0	0	0	
5000000000	0	0	-41.4845866291364	-158.540311941218	0	0	0	0	
5025000000	0	0	-41.3549532997703	158.255957106743	0	0	0	0	
5050000000	0	0	-41.8467403242746	117.606109129681	0	0	0	0	
5075000000	0	0	-41.294081379277	70.5393132644282	0	0	0	0	
5100000000	0	0	-40.3573866052548	26.1277932419451	0	0	0	0	
5125000000	0	0	-40.5952169971667	-19.4844536339863	0	0	0	0	
5150000000	0	0	-39.8144806984119	-63.3459753661291	0	0	0	0	
5175000000	0	0	-39.6676777489764	-112.87030024044	0	0	0	0	
5200000000	0	0	-39.4384720529075	-157.733481904833	0	0	0	0	
5225000000	0	0	-38.9266035943252	153.943156931506	0	0	0	0	
5250000000	0	0	-38.8560042393841	109.096557573248	0	0	0	0	
5275000000	0	0	-38.1399712232732	57.8613853866787	0	0	0	0	
5300000000	0	0	-37.9950463512856	4.97341136705161	0	0	0	0	
5325000000	0	0	-38.2434264671488	-46.839180887356	0	0	0	0	
5350000000	0	0	-39.58643193524	-99.557326239936	0	0	0	0	
5375000000	0	0	-40.7914134402792	-147.870963778014	0	0	0	0	
5400000000	0	0	-41.4812374156894	168.237562221376	0	0	0	0	
5425000000	0	0	-41.9532051219392	119.355903040087	0	0	0	0	
5450000000	0	0	-43.8976522730272	71.0711991122546	0	0	0	0	
5475000000	0	0	-45.2238865229589	38.4940006171694	0	0	0	0	
5500000000	0	0	-44.5774198362268	-8.48468973527671	0	0	0	0	
5525000000	0	0	-45.9254830631154	-50.6841934198009	0	0	0	0	
5550000000	0	0	-46.7365916783004	-90.3027191295172	0	0	0	0	
5575000000	0	0	-46.7206708384541	-125.929683880854	0	0	0	0	
5600000000	0	0	-46.8860805483239	-168.151918591111	0	0	0	0	
5625000000	0	0	-46.0081261181406	142.692872791454	0	0	0	0	
5650000000	0	0	-45.5295960750643	98.7640964439675	0	0	0	0	
5675000000	0	0	-48.1409296440817	40.4734782712128	0	0	0	0	
5700000000	0	0	-47.1929482270874	5.89922694002456	0	0	0	0	
5725000000	0	0	-48.1442705757365	-41.5953333967562	0	0	0	0	
5750000000	0	0	-48.9301880719286	-83.8238297517767	0	0	0	0	
5775000000	0	0	-50.3913171738319	-125.68679928235	0	0	0	0	
5800000000	0	0	-50.877300260068	-172.106731125622	0	0	0	0	
5825000000	0	0	-52.1713395503526	143.076331943958	0	0	0	0	
5850000000	0	0	-52.08740108589	105.455926811363	0	0	0	0	
5875000000	0	0	-56.3909260449303	94.945283531892	0	0	0	0	
5900000000	0	0	-52.686452277375	52.3188170180129	0	0	0	0	
5925000000	0	0	-54.0390214710948	16.0530120869512	0	0	0	0	
5950000000	0	0	-52.5147479616443	-36.0338221720558	0	0	0	0	
5975000000	0	0	-54.1395257357329	-76.0560769229242	0	0	0	0	
6000000000	0	0	-53.2445523997886	-117.329955565853	0	0	0	0	
