!Keysight Technologies N9926A: A.08.19
!Date: Sunday, 01 March 2026 13:44:37
!Timezone: (GMT-06:00) Central Time (US & Canada)
!Model: N9926A
!Serial: MY53102721
!GPS Latitude: 
!GPS Longitude: 
!GPS TimeStamp: 0001-01-01 00:00:00Z
!GPS Seconds Since Last Read: 0
!CHECKSUM:1729334959
!Correction: S11()S21(ON U)S12()S22()
!S2P File: Measurements:S11,S21,S12,S22:
# Hz S DB R 50
1000000000	0	0	-80.356373887211	152.907290782731	0	0	0	0	
1025000000	0	0	-65.7499552372416	-54.8632476096471	0	0	0	0	
1050000000	0	0	-65.4640492082288	-165.99609202575	0	0	0	0	
1075000000	0	0	-58.5968510278582	-162.657648271125	0	0	0	0	
1100000000	0	0	-67.0323025426077	-118.848520091575	0	0	0	0	
1125000000	0	0	-69.1155656791349	150.43157339467	0	0	0	0	
1150000000	0	0	-62.3188748769519	165.936162530793	0	0	0	0	
1175000000	0	0	-69.7451767083067	-107.48892428266	0	0	0	0	
1200000000	0	0	-57.5860657092436	30.6555876999666	0	0	0	0	
1225000000	0	0	-70.722058294326	-92.0653719433763	0	0	0	0	
1250000000	0	0	-56.0008300674584	-19.5123496510035	0	0	0	0	
1275000000	0	0	-65.6099577148317	9.37152537311157	0	0	0	0	
1300000000	0	0	-58.936594940251	-119.546376609117	0	0	0	0	
1325000000	0	0	-57.7182090130374	127.511059859566	0	0	0	0	
1350000000	0	0	-52.7783916375909	-137.137964486209	0	0	0	0	
1375000000	0	0	-46.7544182668947	-149.218113306538	0	0	0	0	
1400000000	0	0	-56.0980455679781	-153.432309781957	0	0	0	0	
1425000000	0	0	-59.9702510984096	-133.252876181918	0	0	0	0	
1450000000	0	0	-53.635249979872	-3.53571293494254	0	0	0	0	
1475000000	0	0	-50.9502196857723	-120.907347697506	0	0	0	0	
1500000000	0	0	-64.006874144269	-53.9218837323245	0	0	0	0	
1525000000	0	0	-59.4355270216734	126.714967201923	0	0	0	0	
1550000000	0	0	-65.1037928301673	40.5961718430238	0	0	0	0	
1575000000	0	0	-66.9864728051365	84.617924954211	0	0	0	0	
1600000000	0	0	-57.1691966737335	-134.523489340965	0	0	0	0	
1625000000	0	0	-62.2375555219487	173.810598993249	0	0	0	0	
1650000000	0	0	-67.681669996758	-91.7208132622974	0	0	0	0	
1675000000	0	0	-68.5566113175533	-134.486621883389	0	0	0	0	
1700000000	0	0	-60.8112554108247	-76.4908657177637	0	0	0	0	
1725000000	0	0	-74.0381101918414	3.0939804290389	0	0	0	0	
1750000000	0	0	-63.9649479662127	111.12608837262	0	0	0	0	
1775000000	0	0	-73.6909347685364	93.5085443073494	0	0	0	0	
1800000000	0	0	-65.8334562756451	-66.8459530270342	0	0	0	0	
1825000000	0	0	-68.2201503306652	-2.79162987713082	0	0	0	0	
1850000000	0	0	-66.2679492823877	164.189660512597	0	0	0	0	
1875000000	0	0	-61.7329285173641	26.0799131367079	0	0	0	0	
1900000000	0	0	-62.2140835270032	-38.5898295601278	0	0	0	0	
1925000000	0	0	-60.9993954399698	125.751249484344	0	0	0	0	
1950000000	0	0	-64.4893194714994	169.222568624659	0	0	0	0	
1975000000	0	0	-63.5270938841348	142.573320668721	0	0	0	0	
2000000000	0	0	-75.5718091727058	97.2636813621928	0	0	0	0	
2025000000	0	0	-66.7460676009746	-42.1898499939679	0	0	0	0	
2050000000	0	0	-79.8866143582447	-168.529128747072	0	0	0	0	
2075000000	0	0	-71.0645063391932	-90.9371567217447	0	0	0	0	
2100000000	0	0	-73.0719379471768	-92.7396196488574	0	0	0	0	
2125000000	0	0	-64.1369194476726	-50.8063405253298	0	0	0	0	
2150000000	0	0	-69.8504917568691	164.693753530114	0	0	0	0	
2175000000	0	0	-66.2592074237998	-62.0381851161081	0	0	0	0	
2200000000	0	0	-61.7322516657849	-4.3904015027746	0	0	0	0	
2225000000	0	0	-63.9421062728976	-104.899804216898	0	0	0	0	
2250000000	0	0	-69.852424271123	126.497588942335	0	0	0	0	
2275000000	0	0	-71.0234635943119	-69.1711338721784	0	0	0	0	
2300000000	0	0	-64.7628201562399	154.299686502556	0	0	0	0	
2325000000	0	0	-64.4339320393738	78.3736702069366	0	0	0	0	
2350000000	0	0	-65.5561200690499	-64.7472243735542	0	0	0	0	
2375000000	0	0	-68.3631785367066	71.0787295458727	0	0	0	0	
2400000000	0	0	-85.1677034890086	-8.88488769414408	0	0	0	0	
2425000000	0	0	-64.0887712683984	-146.717993537786	0	0	0	0	
2450000000	0	0	-68.7676114097504	175.479370289262	0	0	0	0	
2475000000	0	0	-69.333577061983	-121.175097217395	0	0	0	0	
2500000000	0	0	-63.0673601643295	-21.1643018572039	0	0	0	0	
2525000000	0	0	-74.8331291004573	-73.0906037683599	0	0	0	0	
2550000000	0	0	-70.4218886430048	82.8745386844975	0	0	0	0	
2575000000	0	0	-75.7077154639142	2.74457657567509	0	0	0	0	
2600000000	0	0	-64.4536927945505	134.669266137165	0	0	0	0	
2625000000	0	0	-65.4841949559427	35.3768983684669	0	0	0	0	
2650000000	0	0	-68.2103515682154	-163.614022076791	0	0	0	0	
2675000000	0	0	-76.7460833764688	-2.65782439380522	0	0	0	0	
2700000000	0	0	-80.3620648484446	119.050043808071	0	0	0	0	
2725000000	0	0	-64.3506522065278	-77.0813416917194	0	0	0	0	
2750000000	0	0	-69.4427316952734	-161.193730866196	0	0	0	0	
2775000000	0	0	-67.5953404082965	-138.060573963445	0	0	0	0	
2800000000	0	0	-74.9218565205655	-105.181220461166	0	0	0	0	
2825000000	0	0	-71.4847429293101	-151.53476241537	0	0	0	0	
2850000000	0	0	-61.2553250144766	52.9803087129941	0	0	0	0	
2875000000	0	0	-64.6708112333834	-160.966038853057	0	0	0	0	
2900000000	0	0	-72.1365438845483	65.6647998887023	0	0	0	0	
2925000000	0	0	-72.1190064746287	102.030330068838	0	0	0	0	
2950000000	0	0	-71.3551076479566	-59.8618926676269	0	0	0	0	
2975000000	0	0	-70.6113085222836	-25.1572220087359	0	0	0	0	
3000000000	0	0	-69.1482550544024	-71.2111321665255	0	0	0	0	
3025000000	0	0	-76.8572298133432	170.030541595293	0	0	0	0	
3050000000	0	0	-73.0676998986422	177.373917070516	0	0	0	0	
3075000000	0	0	-68.8852987812256	-89.0972991290079	0	0	0	0	
3100000000	0	0	-69.8052985003513	-21.4084341097839	0	0	0	0	
3125000000	0	0	-76.1509908190743	102.771872358785	0	0	0	0	
3150000000	0	0	-67.585307574756	-107.754317033075	0	0	0	0	
3175000000	0	0	-80.2084918565197	134.501877028562	0	0	0	0	
3200000000	0	0	-75.4506644650173	-169.603792320936	0	0	0	0	
3225000000	0	0	-74.5643202957737	-148.705274030052	0	0	0	0	
3250000000	0	0	-68.5132074424115	145.040262491518	0	0	0	0	
3275000000	0	0	-68.1077341350141	177.768252828345	0	0	0	0	
3300000000	0	0	-71.8491653951089	-16.1438693643952	0	0	0	0	
3325000000	0	0	-70.4412996978189	4.41527389953067	0	0	0	0	
3350000000	0	0	-75.8245212973499	-50.2104016202664	0	0	0	0	
3375000000	0	0	-94.4858835637499	-38.2065563459885	0	0	0	0	
3400000000	0	0	-67.8935530803768	-145.030822547186	0	0	0	0	
3425000000	0	0	-70.8967948252569	-146.446783192917	0	0	0	0	
3450000000	0	0	-78.0458779079486	17.6485374675032	0	0	0	0	
3475000000	0	0	-80.0858154992414	93.6861025062687	0	0	0	0	
3500000000	0	0	-65.3554638144855	68.4986168644062	0	0	0	0	
3525000000	0	0	-84.6895622048265	-60.7806464630044	0	0	0	0	
3550000000	0	0	-77.8363561980386	79.0376281546961	0	0	0	0	
3575000000	0	0	-71.3310824453815	-130.196585495117	0	0	0	0	
3600000000	0	0	-71.7890277299341	-153.684825185547	0	0	0	0	
3625000000	0	0	-70.9243138914249	128.202037653081	0	0	0	0	
3650000000	0	0	-70.1460821406839	116.090925647794	0	0	0	0	
3675000000	0	0	-72.2404101311132	49.9495241930999	0	0	0	0	
3700000000	0	0	-68.4624281149608	56.6200206029548	0	0	0	0	
3725000000	0	0	-68.7199523220915	-19.0027235431505	0	0	0	0	
3750000000	0	0	-66.2014479583814	-32.5562740254923	0	0	0	0	
3775000000	0	0	-66.8024957945436	11.228403590487	0	0	0	0	
3800000000	0	0	-66.5468958990898	176.157319684403	0	0	0	0	
3825000000	0	0	-61.4388393139268	126.021035567973	0	0	0	0	
3850000000	0	0	-63.1762830934407	122.157222858526	0	0	0	0	
3875000000	0	0	-70.8921252697621	104.450814357954	0	0	0	0	
3900000000	0	0	-65.3808297067567	-14.6395271410587	0	0	0	0	
3925000000	0	0	-73.20488777738	-22.9049750427715	0	0	0	0	
3950000000	0	0	-67.0244212296099	-33.6481981338386	0	0	0	0	
3975000000	0	0	-68.1808491229784	-52.6483845559493	0	0	0	0	
4000000000	0	0	-64.58466354813	-141.292660749122	0	0	0	0	
4025000000	0	0	-75.0535525587091	-148.883766810902	0	0	0	0	
4050000000	0	0	-68.5589146995568	65.892890090899	0	0	0	0	
4075000000	0	0	-65.4615821191729	61.4557099615828	0	0	0	0	
4100000000	0	0	-68.7064068656288	5.04081422686877	0	0	0	0	
4125000000	0	0	-77.0617158376949	58.8719540599894	0	0	0	0	
4150000000	0	0	-64.2572528001281	-118.383918816779	0	0	0	0	
4175000000	0	0	-63.5158977902866	-92.0372176873284	0	0	0	0	
4200000000	0	0	-59.803596250701	-164.133922618437	0	0	0	0	
4225000000	0	0	-61.7830035192529	177.50015047029	0	0	0	0	
4250000000	0	0	-64.2063548265773	145.818695427188	0	0	0	0	
4275000000	0	0	-64.6265641986576	32.8458928993693	0	0	0	0	
4300000000	0	0	-63.9967487783509	22.8294645015495	0	0	0	0	
4325000000	0	0	-62.1914588655121	-72.5067320007793	0	0	0	0	
4350000000	0	0	-59.8227819737293	-93.7122590865448	0	0	0	0	
4375000000	0	0	-58.5713989207585	-158.961478873466	0	0	0	0	
4400000000	0	0	-62.7006269665451	-149.515039305825	0	0	0	0	
4425000000	0	0	-63.1564238708466	126.134410551277	0	0	0	0	
4450000000	0	0	-55.3112950111864	82.7855060914613	0	0	0	0	
4475000000	0	0	-57.323373699214	50.3612602586298	0	0	0	0	
4500000000	0	0	-58.2092938402609	4.94700790101921	0	0	0	0	
4525000000	0	0	-59.6309770869671	-43.5348365397175	0	0	0	0	
4550000000	0	0	-57.4096753167698	-96.0971506780119	0	0	0	0	
4575000000	0	0	-52.6247995625109	-147.27232731715	0	0	0	0	
4600000000	0	0	-54.5384206800195	148.379959393717	0	0	0	0	
4625000000	0	0	-55.581159734646	105.525476966733	0	0	0	0	
4650000000	0	0	-53.7291168936137	76.3307062652495	0	0	0	0	
4675000000	0	0	-56.3416203960836	20.1883189593818	0	0	0	0	
4700000000	0	0	-51.384353245758	-29.5452886478695	0	0	0	0	
4725000000	0	0	-53.020525177753	-71.5441258701498	0	0	0	0	
4750000000	0	0	-50.6334040316822	-137.914052757141	0	0	0	0	
4775000000	0	0	-50.7007412714893	-175.019695134902	0	0	0	0	
4800000000	0	0	-50.213790148432	149.294187455322	0	0	0	0	
4825000000	0	0	-49.2918085824117	88.8307296628076	0	0	0	0	
4850000000	0	0	-48.7527234406371	56.4534502455116	0	0	0	0	
4875000000	0	0	-48.0130453675587	-1.33057011735072	0	0	0	0	
4900000000	0	0	-47.0543637158469	-48.4015529860915	0	0	0	0	
4925000000	0	0	-44.5686316045336	-97.7680149626514	0	0	0	0	
4950000000	0	0	-42.8584856078302	-149.841490079621	0	0	0	0	
4975000000	0	0	-43.2872325763442	149.974135699059	0	0	0	0	
5000000000	0	0	-42.8261992820465	89.2118754195178	0	0	0	0	
5025000000	0	0	-41.9742747705523	36.3539140819995	0	0	0	0	
5050000000	0	0	-42.2352669118238	-7.19869922808696	0	0	0	0	
5075000000	0	0	-41.5343063382246	-66.9587021592279	0	0	0	0	
5100000000	0	0	-40.1041664804934	-124.109060312442	0	0	0	0	
5125000000	0	0	-40.6985112761918	-176.579452569599	0	0	0	0	
5150000000	0	0	-40.87643149477	125.185853373065	0	0	0	0	
5175000000	0	0	-40.3188350292456	72.227402704704	0	0	0	0	
5200000000	0	0	-41.3192287985657	20.9530929210495	0	0	0	0	
5225000000	0	0	-42.0679200958429	-29.5147820790558	0	0	0	0	
5250000000	0	0	-41.6756883952843	-76.9022141697881	0	0	0	0	
5275000000	0	0	-40.7628503485887	-125.579225877141	0	0	0	0	
5300000000	0	0	-40.3058333420058	179.929491291746	0	0	0	0	
5325000000	0	0	-40.4568970393101	125.396695432922	0	0	0	0	
5350000000	0	0	-40.9601611624549	66.4652960067589	0	0	0	0	
5375000000	0	0	-40.8689984377067	11.0157862537234	0	0	0	0	
5400000000	0	0	-41.7227009552068	-40.0031359655143	0	0	0	0	
5425000000	0	0	-41.7318844683018	-98.4877883672134	0	0	0	0	
5450000000	0	0	-43.5635287927122	-151.898476468915	0	0	0	0	
5475000000	0	0	-44.076288510792	156.971193817512	0	0	0	0	
5500000000	0	0	-44.7414277176107	101.227441498693	0	0	0	0	
5525000000	0	0	-46.4879819332908	53.3031630879041	0	0	0	0	
5550000000	0	0	-45.9669526984479	1.30532792694373	0	0	0	0	
5575000000	0	0	-48.4175765287094	-43.3559956151738	0	0	0	0	
5600000000	0	0	-49.9556418111484	-79.0511244533676	0	0	0	0	
5625000000	0	0	-48.4352738600621	-127.772333036831	0	0	0	0	
5650000000	0	0	-48.1664439636846	-176.846654979273	0	0	0	0	
5675000000	0	0	-51.1963400044354	128.006996427107	0	0	0	0	
5700000000	0	0	-52.6533520141572	79.7471198065094	0	0	0	0	
5725000000	0	0	-51.034009268892	31.177842244038	0	0	0	0	
5750000000	0	0	-51.265720921297	-13.3259443412292	0	0	0	0	
5775000000	0	0	-50.0534241095129	-46.2783600432763	0	0	0	0	
5800000000	0	0	-51.8113121743149	-107.75443334224	0	0	0	0	
5825000000	0	0	-49.7463034728782	-157.078917049643	0	0	0	0	
5850000000	0	0	-50.6462800941457	137.562028357613	0	0	0	0	
5875000000	0	0	-53.8156871676003	88.6201607447539	0	0	0	0	
5900000000	0	0	-52.9382803232976	35.0662540985755	0	0	0	0	
5925000000	0	0	-55.6295952473749	2.28265503869157	0	0	0	0	
5950000000	0	0	-58.9733126766981	-56.1617495105228	0	0	0	0	
5975000000	0	0	-60.8383674036176	-103.735676199096	0	0	0	0	
6000000000	0	0	-55.5052331156263	-134.253375999512	0	0	0	0	
