!Keysight Technologies N9926A: A.08.19
!Date: Sunday, 01 March 2026 13:51:34
!Timezone: (GMT-06:00) Central Time (US & Canada)
!Model: N9926A
!Serial: MY53102721
!GPS Latitude: 
!GPS Longitude: 
!GPS TimeStamp: 0001-01-01 00:00:00Z
!GPS Seconds Since Last Read: 0
!CHECKSUM:0619951294
!Correction: S11()S21(ON U)S12()S22()
!S2P File: Measurements:S11,S21,S12,S22:
# Hz S DB R 50
1000000000	0	0	-73.8816656702448	55.8725195758825	0	0	0	0	
1025000000	0	0	-66.346447445666	124.123364505888	0	0	0	0	
1050000000	0	0	-61.5083399512518	131.942001971514	0	0	0	0	
1075000000	0	0	-70.6691678410452	36.5432183721682	0	0	0	0	
1100000000	0	0	-67.8911039687449	-106.825378657213	0	0	0	0	
1125000000	0	0	-60.921789547128	145.577208291099	0	0	0	0	
1150000000	0	0	-66.4354464285727	-76.0061969570727	0	0	0	0	
1175000000	0	0	-62.9018418673896	92.2468455958944	0	0	0	0	
1200000000	0	0	-60.6579984293931	-162.823485287054	0	0	0	0	
1225000000	0	0	-61.8406242106424	62.5621366225342	0	0	0	0	
1250000000	0	0	-70.9958761851049	-174.621650992225	0	0	0	0	
1275000000	0	0	-61.2544449497315	-45.417273601987	0	0	0	0	
1300000000	0	0	-59.3379457678977	130.952559275505	0	0	0	0	
1325000000	0	0	-55.3703965037294	-157.01677089615	0	0	0	0	
1350000000	0	0	-55.5535705027926	177.186871727451	0	0	0	0	
1375000000	0	0	-56.8116373016356	68.551028649983	0	0	0	0	
1400000000	0	0	-53.3274533132884	157.886124027139	0	0	0	0	
1425000000	0	0	-56.7255716651952	-167.620155771766	0	0	0	0	
1450000000	0	0	-53.8865345567706	77.1369317740528	0	0	0	0	
1475000000	0	0	-50.5807813952466	129.75851243071	0	0	0	0	
1500000000	0	0	-56.8816986484966	-97.2558947536497	0	0	0	0	
1525000000	0	0	-68.6835339792541	-172.381735338279	0	0	0	0	
1550000000	0	0	-54.3793925283007	-105.302026093007	0	0	0	0	
1575000000	0	0	-59.6777065467319	165.148989807843	0	0	0	0	
1600000000	0	0	-61.6326270862662	-165.920798799816	0	0	0	0	
1625000000	0	0	-62.004712417267	-63.0827312481468	0	0	0	0	
1650000000	0	0	-65.4510187632391	-82.0443346378537	0	0	0	0	
1675000000	0	0	-60.2308285285034	-109.03455427623	0	0	0	0	
1700000000	0	0	-54.1608440324798	-50.8346554660365	0	0	0	0	
1725000000	0	0	-66.0067472033367	-150.207140542561	0	0	0	0	
1750000000	0	0	-62.7736606963093	-144.772818436411	0	0	0	0	
1775000000	0	0	-67.2645539414245	-87.6436406569761	0	0	0	0	
1800000000	0	0	-57.3840819256563	141.022265972103	0	0	0	0	
1825000000	0	0	-68.0293743032214	16.3412186295127	0	0	0	0	
1850000000	0	0	-65.3385200819906	23.5335802319836	0	0	0	0	
1875000000	0	0	-77.164582305773	120.351151746873	0	0	0	0	
1900000000	0	0	-74.6199027325454	122.926257533576	0	0	0	0	
1925000000	0	0	-75.4513687592921	159.215412529472	0	0	0	0	
1950000000	0	0	-69.5538049602183	173.327587040808	0	0	0	0	
1975000000	0	0	-67.3554087175639	129.235905852371	0	0	0	0	
2000000000	0	0	-64.8258904981446	43.9276224369241	0	0	0	0	
2025000000	0	0	-68.6741196813332	176.34350292691	0	0	0	0	
2050000000	0	0	-66.4497097800163	59.5289064657274	0	0	0	0	
2075000000	0	0	-64.4169813261468	-174.844141170441	0	0	0	0	
2100000000	0	0	-62.9758294394091	110.999621867442	0	0	0	0	
2125000000	0	0	-67.9811679382061	-6.07128023925526	0	0	0	0	
2150000000	0	0	-68.3545418303078	80.4080435650428	0	0	0	0	
2175000000	0	0	-71.2647911567837	89.1601706796081	0	0	0	0	
2200000000	0	0	-68.3990081378161	10.6681474518276	0	0	0	0	
2225000000	0	0	-73.3796111846241	90.6295839578531	0	0	0	0	
2250000000	0	0	-70.9854873326912	-87.7779541178899	0	0	0	0	
2275000000	0	0	-70.2921725145387	-4.68278006512918	0	0	0	0	
2300000000	0	0	-71.6661011519158	-87.9763839157466	0	0	0	0	
2325000000	0	0	-65.5956736688134	98.1778609094491	0	0	0	0	
2350000000	0	0	-67.0099282263233	-56.3383522814782	0	0	0	0	
2375000000	0	0	-65.6505009575427	-148.510534869443	0	0	0	0	
2400000000	0	0	-66.9913973114821	22.2086572045954	0	0	0	0	
2425000000	0	0	-79.5330748868867	-25.3410787314634	0	0	0	0	
2450000000	0	0	-72.3028026955721	162.443578683309	0	0	0	0	
2475000000	0	0	-66.3478797395907	-92.7841758210866	0	0	0	0	
2500000000	0	0	-64.7900810915691	-116.168149170745	0	0	0	0	
2525000000	0	0	-64.7404784225006	-50.7551407605409	0	0	0	0	
2550000000	0	0	-67.1150435569256	-93.9665262585478	0	0	0	0	
2575000000	0	0	-69.0210827699417	176.582932579176	0	0	0	0	
2600000000	0	0	-67.502327964223	-79.6493672438737	0	0	0	0	
2625000000	0	0	-70.7312807493024	-166.767832532316	0	0	0	0	
2650000000	0	0	-66.1735230787913	-81.3520742462453	0	0	0	0	
2675000000	0	0	-72.5265917390589	-123.546403177047	0	0	0	0	
2700000000	0	0	-76.4376850441469	-140.319199606446	0	0	0	0	
2725000000	0	0	-62.7531569656559	169.346615770535	0	0	0	0	
2750000000	0	0	-65.5366450790602	-125.813767782889	0	0	0	0	
2775000000	0	0	-68.0078120150683	82.7529558547634	0	0	0	0	
2800000000	0	0	-66.3577977958978	178.624994809878	0	0	0	0	
2825000000	0	0	-66.6194300391949	126.37316226039	0	0	0	0	
2850000000	0	0	-64.3395797970153	150.438688695191	0	0	0	0	
2875000000	0	0	-66.4887370104664	144.620236739542	0	0	0	0	
2900000000	0	0	-62.9900196726903	87.359986135345	0	0	0	0	
2925000000	0	0	-60.5052341050073	127.899437800381	0	0	0	0	
2950000000	0	0	-73.9512044027097	110.147401315559	0	0	0	0	
2975000000	0	0	-69.8665714384427	129.01829423905	0	0	0	0	
3000000000	0	0	-61.7634046822365	38.1399560576236	0	0	0	0	
3025000000	0	0	-65.0686811310921	74.494772741897	0	0	0	0	
3050000000	0	0	-69.9015431011162	33.8900852221006	0	0	0	0	
3075000000	0	0	-69.8008780923711	150.351399911905	0	0	0	0	
3100000000	0	0	-65.7843475455846	-11.4809613052516	0	0	0	0	
3125000000	0	0	-63.5482381880387	27.0294364963855	0	0	0	0	
3150000000	0	0	-64.6521535605012	10.276315310048	0	0	0	0	
3175000000	0	0	-66.2073050206222	-13.9486635414637	0	0	0	0	
3200000000	0	0	-61.8887556603585	-23.7655724357658	0	0	0	0	
3225000000	0	0	-61.1709669072645	-8.28122979634536	0	0	0	0	
3250000000	0	0	-68.5516146673069	-29.1095765649662	0	0	0	0	
3275000000	0	0	-68.72870766992	-81.9471075299784	0	0	0	0	
3300000000	0	0	-63.0214722020785	-79.4721252690164	0	0	0	0	
3325000000	0	0	-63.9848163235854	-69.699073972393	0	0	0	0	
3350000000	0	0	-59.952431893369	-73.9813412692724	0	0	0	0	
3375000000	0	0	-59.0037203824236	-67.5452893659328	0	0	0	0	
3400000000	0	0	-66.287473649975	-91.269751536354	0	0	0	0	
3425000000	0	0	-68.4207620670415	-113.735465967001	0	0	0	0	
3450000000	0	0	-60.6354607341867	-119.164017068931	0	0	0	0	
3475000000	0	0	-61.0294727351076	-142.706447914555	0	0	0	0	
3500000000	0	0	-63.7612854677852	-135.507859093063	0	0	0	0	
3525000000	0	0	-63.6554836036218	-167.667336836283	0	0	0	0	
3550000000	0	0	-57.9561049858371	-162.279643361713	0	0	0	0	
3575000000	0	0	-58.5940929049181	178.241409022823	0	0	0	0	
3600000000	0	0	-58.8397054025439	173.85565445817	0	0	0	0	
3625000000	0	0	-59.9837608566898	148.753873803191	0	0	0	0	
3650000000	0	0	-58.0404215851996	173.64441847317	0	0	0	0	
3675000000	0	0	-57.2908650336328	120.004406369866	0	0	0	0	
3700000000	0	0	-57.9680000648709	157.660637886022	0	0	0	0	
3725000000	0	0	-60.099462318929	105.245320939114	0	0	0	0	
3750000000	0	0	-57.8021627691557	104.171116983057	0	0	0	0	
3775000000	0	0	-60.4297839916276	94.4957621276756	0	0	0	0	
3800000000	0	0	-56.0912666686391	101.512706388481	0	0	0	0	
3825000000	0	0	-54.819013987029	69.2962032691894	0	0	0	0	
3850000000	0	0	-56.5304367691864	57.734492055597	0	0	0	0	
3875000000	0	0	-55.8878945483959	46.4280695608321	0	0	0	0	
3900000000	0	0	-55.3683595132475	49.0887730386836	0	0	0	0	
3925000000	0	0	-57.9754382672647	32.4619273896986	0	0	0	0	
3950000000	0	0	-53.8644845147366	30.2148811845266	0	0	0	0	
3975000000	0	0	-52.200250250173	11.9011757319231	0	0	0	0	
4000000000	0	0	-54.8663212280501	14.4166789728791	0	0	0	0	
4025000000	0	0	-54.7277369638246	10.1395296086229	0	0	0	0	
4050000000	0	0	-52.7509710800389	-17.9653492947244	0	0	0	0	
4075000000	0	0	-52.6028226835931	-24.2266922771309	0	0	0	0	
4100000000	0	0	-53.5008268483941	-30.5357657396739	0	0	0	0	
4125000000	0	0	-51.4487501776867	-50.2180977405822	0	0	0	0	
4150000000	0	0	-51.5707087109946	-57.6167923341536	0	0	0	0	
4175000000	0	0	-53.3971381610383	-66.7786480527164	0	0	0	0	
4200000000	0	0	-50.9458774260838	-68.897865482977	0	0	0	0	
4225000000	0	0	-49.7006038511531	-76.6595023399913	0	0	0	0	
4250000000	0	0	-49.6868518801808	-96.9817324658459	0	0	0	0	
4275000000	0	0	-48.7134890163173	-114.165145203668	0	0	0	0	
4300000000	0	0	-48.7613765037601	-109.696419907309	0	0	0	0	
4325000000	0	0	-46.6442875503397	-136.445711203582	0	0	0	0	
4350000000	0	0	-47.2772169916651	-148.924178797414	0	0	0	0	
4375000000	0	0	-47.3077489947573	-163.606844092037	0	0	0	0	
4400000000	0	0	-48.4457723348506	-154.666132117649	0	0	0	0	
4425000000	0	0	-47.1984603373736	-165.338461774955	0	0	0	0	
4450000000	0	0	-44.9271863816799	-172.997085874509	0	0	0	0	
4475000000	0	0	-44.2676775807055	170.37784313552	0	0	0	0	
4500000000	0	0	-45.618755550217	149.737201589561	0	0	0	0	
4525000000	0	0	-45.4180645086538	152.321628670227	0	0	0	0	
4550000000	0	0	-42.0537844970443	144.216369758564	0	0	0	0	
4575000000	0	0	-42.0038395613785	124.934705460573	0	0	0	0	
4600000000	0	0	-42.306227416496	112.470468804949	0	0	0	0	
4625000000	0	0	-41.7236147567861	104.367931574765	0	0	0	0	
4650000000	0	0	-40.5882298483327	95.6723901246883	0	0	0	0	
4675000000	0	0	-41.1974838016112	75.3370293475811	0	0	0	0	
4700000000	0	0	-39.2024167589052	73.1169302143164	0	0	0	0	
4725000000	0	0	-38.8452914796716	60.5913126065919	0	0	0	0	
4750000000	0	0	-38.3700836096116	38.9362345219132	0	0	0	0	
4775000000	0	0	-37.4704058698892	27.2537222320609	0	0	0	0	
4800000000	0	0	-38.257230640655	25.4208838643899	0	0	0	0	
4825000000	0	0	-36.3572905796166	10.0357878502942	0	0	0	0	
4850000000	0	0	-34.9396731511369	-0.163584378945243	0	0	0	0	
4875000000	0	0	-34.1615825431639	-19.8135759918677	0	0	0	0	
4900000000	0	0	-33.9990972390855	-30.5859776540738	0	0	0	0	
4925000000	0	0	-33.4836512794737	-46.0535012070431	0	0	0	0	
4950000000	0	0	-31.2389818287465	-58.5452972631265	0	0	0	0	
4975000000	0	0	-31.5711911892929	-76.7641200952728	0	0	0	0	
5000000000	0	0	-30.5545314674451	-98.4191053417735	0	0	0	0	
5025000000	0	0	-30.2898237768183	-109.456672204497	0	0	0	0	
5050000000	0	0	-29.8951945233302	-117.743636725666	0	0	0	0	
5075000000	0	0	-28.2169179160255	-137.290746644937	0	0	0	0	
5100000000	0	0	-26.9739460085059	-157.645826484992	0	0	0	0	
5125000000	0	0	-26.9424995589934	-174.508828981245	0	0	0	0	
5150000000	0	0	-26.5062790007147	165.820340604786	0	0	0	0	
5175000000	0	0	-26.2033127714676	145.109972994854	0	0	0	0	
5200000000	0	0	-26.0079915330704	127.180886153561	0	0	0	0	
5225000000	0	0	-25.9208486157538	107.431119694442	0	0	0	0	
5250000000	0	0	-26.0823699693065	88.7151816717315	0	0	0	0	
5275000000	0	0	-26.2109684822206	70.6746538323389	0	0	0	0	
5300000000	0	0	-26.2946949770584	50.5805213275724	0	0	0	0	
5325000000	0	0	-26.6729193492974	31.8894034479192	0	0	0	0	
5350000000	0	0	-27.6051257738164	13.5019897160133	0	0	0	0	
5375000000	0	0	-27.9757101906897	-2.75731559593588	0	0	0	0	
5400000000	0	0	-28.3193069608542	-17.1114626239648	0	0	0	0	
5425000000	0	0	-28.9165218041442	-38.6416922561131	0	0	0	0	
5450000000	0	0	-30.1535801652151	-57.4500639738479	0	0	0	0	
5475000000	0	0	-31.1843661627209	-63.9973455082623	0	0	0	0	
5500000000	0	0	-31.3095023373693	-80.9763019869684	0	0	0	0	
5525000000	0	0	-32.1426728118527	-94.7071978900345	0	0	0	0	
5550000000	0	0	-32.5647223583094	-109.737202169398	0	0	0	0	
5575000000	0	0	-33.2270128017963	-122.48775554817	0	0	0	0	
5600000000	0	0	-33.8825552248421	-133.37286003746	0	0	0	0	
5625000000	0	0	-34.0273062823148	-148.528980580531	0	0	0	0	
5650000000	0	0	-33.5296627491626	-159.406322186483	0	0	0	0	
5675000000	0	0	-35.6531598174619	178.926209693439	0	0	0	0	
5700000000	0	0	-35.2927886041255	167.215994517058	0	0	0	0	
5725000000	0	0	-36.615341477127	158.594550718385	0	0	0	0	
5750000000	0	0	-37.2562274951019	141.634581897765	0	0	0	0	
5775000000	0	0	-37.9636929985341	134.577394438017	0	0	0	0	
5800000000	0	0	-38.4286831868761	119.244375761777	0	0	0	0	
5825000000	0	0	-38.448827710114	111.204531871354	0	0	0	0	
5850000000	0	0	-38.9081651955334	95.016735051747	0	0	0	0	
5875000000	0	0	-41.2477620696023	81.5108216640438	0	0	0	0	
5900000000	0	0	-39.6164287503983	79.5357241634835	0	0	0	0	
5925000000	0	0	-40.4685254955369	65.1131921638356	0	0	0	0	
5950000000	0	0	-42.2315261118977	43.1737120726451	0	0	0	0	
5975000000	0	0	-43.4104674655676	43.7885164368686	0	0	0	0	
6000000000	0	0	-42.151966143575	41.7457788125598	0	0	0	0	
