!Keysight Technologies N9926A: A.08.19
!Date: Sunday, 01 March 2026 14:31:02
!Timezone: (GMT-06:00) Central Time (US & Canada)
!Model: N9926A
!Serial: MY53102721
!GPS Latitude: 
!GPS Longitude: 
!GPS TimeStamp: 0001-01-01 00:00:00Z
!GPS Seconds Since Last Read: 0
!CHECKSUM:0989667333
!Correction: S11()S21(ON U)S12()S22()
!S2P File: Measurements:S11,S21,S12,S22:
# Hz S DB R 50
1000000000	0	0	-75.0106079153932	-49.3444216395361	0	0	0	0	
1025000000	0	0	-64.8930697521882	25.0557107257796	0	0	0	0	
1050000000	0	0	-69.1029372077344	-100.754669797089	0	0	0	0	
1075000000	0	0	-65.3527113581207	162.577929131977	0	0	0	0	
1100000000	0	0	-72.8808088879379	143.173513786404	0	0	0	0	
1125000000	0	0	-64.1255112089023	-87.4780902318733	0	0	0	0	
1150000000	0	0	-64.153422051666	-114.998638074985	0	0	0	0	
1175000000	0	0	-66.9003715350284	-88.7680059076975	0	0	0	0	
1200000000	0	0	-64.6264705737142	63.7753578605173	0	0	0	0	
1225000000	0	0	-66.1149712442419	-58.4788431440305	0	0	0	0	
1250000000	0	0	-55.6494646475776	-28.4965068055379	0	0	0	0	
1275000000	0	0	-55.581427097733	82.1527033126881	0	0	0	0	
1300000000	0	0	-61.2167419286125	120.814964220091	0	0	0	0	
1325000000	0	0	-57.8012530927934	174.820329234746	0	0	0	0	
1350000000	0	0	-55.0352066518528	-36.0322529761671	0	0	0	0	
1375000000	0	0	-52.4689189490914	-33.4474289935302	0	0	0	0	
1400000000	0	0	-53.7406985321734	-126.267653607117	0	0	0	0	
1425000000	0	0	-58.9338239565652	32.1292539270483	0	0	0	0	
1450000000	0	0	-53.9582410724319	121.038744894584	0	0	0	0	
1475000000	0	0	-61.1879338231457	-47.6882572615922	0	0	0	0	
1500000000	0	0	-55.2179548751364	147.063557051471	0	0	0	0	
1525000000	0	0	-57.1101163162757	29.0787709685259	0	0	0	0	
1550000000	0	0	-54.8748561824805	-65.2789590597213	0	0	0	0	
1575000000	0	0	-58.3167821448239	131.030106539259	0	0	0	0	
1600000000	0	0	-72.0139085264821	-85.6412395289036	0	0	0	0	
1625000000	0	0	-60.5994704021354	127.907903876394	0	0	0	0	
1650000000	0	0	-62.9885634368884	93.7008056506365	0	0	0	0	
1675000000	0	0	-59.6495149372465	-107.45276621117	0	0	0	0	
1700000000	0	0	-59.7744289622572	-141.962095853172	0	0	0	0	
1725000000	0	0	-58.4751006068228	-135.117427296388	0	0	0	0	
1750000000	0	0	-64.5867424124028	-174.302456175079	0	0	0	0	
1775000000	0	0	-66.3640640198476	-95.8847718492507	0	0	0	0	
1800000000	0	0	-68.7061161174862	117.553512028082	0	0	0	0	
1825000000	0	0	-67.1886277919916	-101.519075628406	0	0	0	0	
1850000000	0	0	-68.1525319141882	-170.928141926253	0	0	0	0	
1875000000	0	0	-83.7896490075959	-124.597771779418	0	0	0	0	
1900000000	0	0	-72.0215888816047	-114.293686573702	0	0	0	0	
1925000000	0	0	-62.6760720293513	-60.8048111462256	0	0	0	0	
1950000000	0	0	-69.0975305303587	-4.76850960714231	0	0	0	0	
1975000000	0	0	-82.1069136347796	120.700121569521	0	0	0	0	
2000000000	0	0	-66.1566217801724	53.58844120666	0	0	0	0	
2025000000	0	0	-66.5637965954094	-91.9672627072225	0	0	0	0	
2050000000	0	0	-63.5209554291878	43.5674929977852	0	0	0	0	
2075000000	0	0	-86.9174899849774	-128.243919323053	0	0	0	0	
2100000000	0	0	-60.1128072217724	67.5396930951448	0	0	0	0	
2125000000	0	0	-61.7024111041938	20.4724489613896	0	0	0	0	
2150000000	0	0	-67.3135931429715	138.745168762164	0	0	0	0	
2175000000	0	0	-66.7592529216683	133.161275026527	0	0	0	0	
2200000000	0	0	-71.2913100673236	61.4978972821416	0	0	0	0	
2225000000	0	0	-68.4819475408401	-152.482924899637	0	0	0	0	
2250000000	0	0	-69.7410885103734	167.660145271344	0	0	0	0	
2275000000	0	0	-78.8563525246957	-115.807773199488	0	0	0	0	
2300000000	0	0	-62.3230639658671	64.9877050590948	0	0	0	0	
2325000000	0	0	-74.9273212805137	-163.342280357649	0	0	0	0	
2350000000	0	0	-67.5868012220761	-98.5152991270924	0	0	0	0	
2375000000	0	0	-76.3229732111399	-31.8547743902225	0	0	0	0	
2400000000	0	0	-66.7405742331386	-149.326270654696	0	0	0	0	
2425000000	0	0	-63.5465868313833	-53.1973851072956	0	0	0	0	
2450000000	0	0	-96.1450473791961	-84.4556527267413	0	0	0	0	
2475000000	0	0	-74.2157638330595	-52.1733428171925	0	0	0	0	
2500000000	0	0	-72.8372997080015	-25.9077686663766	0	0	0	0	
2525000000	0	0	-70.9203911655863	-60.1376892922696	0	0	0	0	
2550000000	0	0	-67.9442986605044	-175.33194761695	0	0	0	0	
2575000000	0	0	-73.5094798440756	-79.9757636809771	0	0	0	0	
2600000000	0	0	-79.1985029912123	-22.2619390858636	0	0	0	0	
2625000000	0	0	-65.4546963729076	-144.961820120995	0	0	0	0	
2650000000	0	0	-61.9890884856424	48.9133132077995	0	0	0	0	
2675000000	0	0	-70.6878213635446	-27.3768251520995	0	0	0	0	
2700000000	0	0	-71.2628951973761	-107.887932384202	0	0	0	0	
2725000000	0	0	-76.3592369837849	-97.1774146419735	0	0	0	0	
2750000000	0	0	-65.1331084139673	123.522390505332	0	0	0	0	
2775000000	0	0	-71.7366414870298	176.252641398908	0	0	0	0	
2800000000	0	0	-66.3394973347795	124.228875786648	0	0	0	0	
2825000000	0	0	-71.2392424225696	24.9904254843295	0	0	0	0	
2850000000	0	0	-79.0345085831186	108.774270783697	0	0	0	0	
2875000000	0	0	-77.3992854403302	9.9438920087646	0	0	0	0	
2900000000	0	0	-66.2161744133663	-17.2001754491946	0	0	0	0	
2925000000	0	0	-70.8422607815953	-5.3854209261259	0	0	0	0	
2950000000	0	0	-75.5599371525686	-4.8288228364679	0	0	0	0	
2975000000	0	0	-77.4564948288001	137.276569701513	0	0	0	0	
3000000000	0	0	-72.3350967057788	-136.368959286899	0	0	0	0	
3025000000	0	0	-72.8083036438371	-66.7254725913443	0	0	0	0	
3050000000	0	0	-61.1324368922758	49.5280075359861	0	0	0	0	
3075000000	0	0	-70.6236056304473	7.06635133522358	0	0	0	0	
3100000000	0	0	-71.8121102766166	-102.579256373738	0	0	0	0	
3125000000	0	0	-71.7121092099968	-8.62667981676656	0	0	0	0	
3150000000	0	0	-64.4647103523405	164.786657664836	0	0	0	0	
3175000000	0	0	-65.7229877986798	179.972566691304	0	0	0	0	
3200000000	0	0	-72.2823352029601	-120.869799010862	0	0	0	0	
3225000000	0	0	-77.1426908409088	-96.7966102795778	0	0	0	0	
3250000000	0	0	-67.3365269221666	127.502805887557	0	0	0	0	
3275000000	0	0	-63.8421581492896	137.740024564049	0	0	0	0	
3300000000	0	0	-67.0185949438827	163.326163420251	0	0	0	0	
3325000000	0	0	-67.6324863938019	136.648557937607	0	0	0	0	
3350000000	0	0	-70.1049689889347	-116.634687505365	0	0	0	0	
3375000000	0	0	-77.1905932140497	-134.974631434798	0	0	0	0	
3400000000	0	0	-68.2734369029798	-160.190634358774	0	0	0	0	
3425000000	0	0	-63.5623708445314	7.80330905754141	0	0	0	0	
3450000000	0	0	-69.6452626826587	-20.5586752730429	0	0	0	0	
3475000000	0	0	-76.2664434547633	-99.5543861043695	0	0	0	0	
3500000000	0	0	-67.0819158829474	68.879026942478	0	0	0	0	
3525000000	0	0	-69.0889385410938	-109.671335159376	0	0	0	0	
3550000000	0	0	-69.2974820749224	-31.0651908067366	0	0	0	0	
3575000000	0	0	-72.443584487544	103.728648570587	0	0	0	0	
3600000000	0	0	-69.8755403458451	-20.4199413168871	0	0	0	0	
3625000000	0	0	-70.0468859315751	-169.156535477653	0	0	0	0	
3650000000	0	0	-79.9210291708128	154.437992219684	0	0	0	0	
3675000000	0	0	-67.5009524693501	-25.1235816939004	0	0	0	0	
3700000000	0	0	-64.2941802577086	-131.37989411937	0	0	0	0	
3725000000	0	0	-78.7480941942754	23.2693705784523	0	0	0	0	
3750000000	0	0	-68.2525030813966	75.3525712565653	0	0	0	0	
3775000000	0	0	-78.059055739767	112.158993673476	0	0	0	0	
3800000000	0	0	-70.1968292363349	-146.592829421677	0	0	0	0	
3825000000	0	0	-68.9005100533579	102.897699363181	0	0	0	0	
3850000000	0	0	-67.1034841837399	147.500518065438	0	0	0	0	
3875000000	0	0	-69.825387742964	88.6741966471397	0	0	0	0	
3900000000	0	0	-76.1219701741883	-32.7884136313836	0	0	0	0	
3925000000	0	0	-69.0181976264893	153.875394746497	0	0	0	0	
3950000000	0	0	-90.4895121404491	7.43520109677563	0	0	0	0	
3975000000	0	0	-76.1822182497357	68.2093503267066	0	0	0	0	
4000000000	0	0	-68.7104411513015	-49.9636076701261	0	0	0	0	
4025000000	0	0	-72.2088720597293	47.9405475630455	0	0	0	0	
4050000000	0	0	-70.7231130921075	59.4930982806052	0	0	0	0	
4075000000	0	0	-78.7059306541808	-114.348550651194	0	0	0	0	
4100000000	0	0	-63.5395416741026	-3.73135934713139	0	0	0	0	
4125000000	0	0	-64.2539889781502	-44.7126114856746	0	0	0	0	
4150000000	0	0	-65.9917476430873	-29.2165848858404	0	0	0	0	
4175000000	0	0	-61.6587060946679	-53.9580194114102	0	0	0	0	
4200000000	0	0	-77.5616287958988	-28.6389015879475	0	0	0	0	
4225000000	0	0	-69.3117165932603	-108.376630121916	0	0	0	0	
4250000000	0	0	-66.723280729809	-93.605601932918	0	0	0	0	
4275000000	0	0	-66.2496514070677	-164.138855707749	0	0	0	0	
4300000000	0	0	-69.7099314222505	165.397032287087	0	0	0	0	
4325000000	0	0	-63.0402455996263	-174.546781671599	0	0	0	0	
4350000000	0	0	-75.8679594484373	-120.96569963873	0	0	0	0	
4375000000	0	0	-64.1134632162651	126.79021914593	0	0	0	0	
4400000000	0	0	-63.6310299518856	141.385873662277	0	0	0	0	
4425000000	0	0	-60.6815121910047	90.963909410088	0	0	0	0	
4450000000	0	0	-63.525002913592	101.963775676673	0	0	0	0	
4475000000	0	0	-62.0852747888063	45.7046074107468	0	0	0	0	
4500000000	0	0	-69.2258640658061	42.3184606525458	0	0	0	0	
4525000000	0	0	-66.2116358901556	62.3470582362241	0	0	0	0	
4550000000	0	0	-61.7389101497337	8.69635926091406	0	0	0	0	
4575000000	0	0	-66.7589852053081	-62.2813601861273	0	0	0	0	
4600000000	0	0	-64.2197751429938	-36.239701199516	0	0	0	0	
4625000000	0	0	-61.1709355385707	-37.9257791099078	0	0	0	0	
4650000000	0	0	-66.47209664252	-110.501719303882	0	0	0	0	
4675000000	0	0	-63.6642914998164	-107.24763789576	0	0	0	0	
4700000000	0	0	-72.5246255040469	-129.239895882468	0	0	0	0	
4725000000	0	0	-71.3619783211809	-57.1517740060269	0	0	0	0	
4750000000	0	0	-62.8568556315754	-154.6889585799	0	0	0	0	
4775000000	0	0	-64.4261899447772	-121.083775341974	0	0	0	0	
4800000000	0	0	-68.8745164778072	-128.518900246452	0	0	0	0	
4825000000	0	0	-64.4489096553439	-128.478713241575	0	0	0	0	
4850000000	0	0	-63.5308832288213	157.33559795379	0	0	0	0	
4875000000	0	0	-64.0213304460753	171.428465134369	0	0	0	0	
4900000000	0	0	-59.3173149389642	173.108891121932	0	0	0	0	
4925000000	0	0	-62.2576426756639	164.050728440598	0	0	0	0	
4950000000	0	0	-57.3581514525931	126.698756961003	0	0	0	0	
4975000000	0	0	-59.8754501710705	122.450203324994	0	0	0	0	
5000000000	0	0	-61.1892208955404	23.8150378140079	0	0	0	0	
5025000000	0	0	-58.8748370583083	47.3138610566499	0	0	0	0	
5050000000	0	0	-58.3400724745047	33.5582345593087	0	0	0	0	
5075000000	0	0	-54.567067304989	6.61026947952281	0	0	0	0	
5100000000	0	0	-52.2491759448258	-31.7167401350368	0	0	0	0	
5125000000	0	0	-58.8592370882706	-74.3194932391774	0	0	0	0	
5150000000	0	0	-58.8498724473679	-33.7449202524731	0	0	0	0	
5175000000	0	0	-54.2356847217033	-44.4860658290407	0	0	0	0	
5200000000	0	0	-51.7423983267406	-99.6957806625599	0	0	0	0	
5225000000	0	0	-52.4590404191416	-144.060466876283	0	0	0	0	
5250000000	0	0	-58.7191742921603	175.73303831266	0	0	0	0	
5275000000	0	0	-64.3335057530155	-172.555560459111	0	0	0	0	
5300000000	0	0	-55.977888065568	-172.083341565106	0	0	0	0	
5325000000	0	0	-58.5648881701887	153.328333284768	0	0	0	0	
5350000000	0	0	-60.7227424425781	89.4329924125403	0	0	0	0	
5375000000	0	0	-60.1945584349163	149.419143614398	0	0	0	0	
5400000000	0	0	-58.0909869251887	135.977699816329	0	0	0	0	
5425000000	0	0	-53.8907333183276	92.9431693173995	0	0	0	0	
5450000000	0	0	-60.3006016405872	67.858121609319	0	0	0	0	
5475000000	0	0	-60.2081706606337	57.7200093853954	0	0	0	0	
5500000000	0	0	-58.360667223238	53.2800621527518	0	0	0	0	
5525000000	0	0	-58.3384730518962	28.8551752601746	0	0	0	0	
5550000000	0	0	-54.5893166398233	-25.1879926300058	0	0	0	0	
5575000000	0	0	-59.0865134583602	-36.1671762823966	0	0	0	0	
5600000000	0	0	-62.7544442976013	-63.0340213957047	0	0	0	0	
5625000000	0	0	-57.1669888283973	-73.6608991922367	0	0	0	0	
5650000000	0	0	-56.3188047554793	-101.025178462917	0	0	0	0	
5675000000	0	0	-56.7694917491329	-133.882248662288	0	0	0	0	
5700000000	0	0	-60.7168403015887	-144.311799509006	0	0	0	0	
5725000000	0	0	-60.7294007690557	-159.10114671899	0	0	0	0	
5750000000	0	0	-62.0367196995039	173.341722117266	0	0	0	0	
5775000000	0	0	-63.4704572210116	172.651220361481	0	0	0	0	
5800000000	0	0	-66.7351592908293	97.3883710443947	0	0	0	0	
5825000000	0	0	-62.6665011432537	166.436478767195	0	0	0	0	
5850000000	0	0	-64.507242926163	127.546749777114	0	0	0	0	
5875000000	0	0	-67.1662004208705	143.425725771494	0	0	0	0	
5900000000	0	0	-59.4245077254176	76.5605328891703	0	0	0	0	
5925000000	0	0	-58.8740665734962	85.9156232640968	0	0	0	0	
5950000000	0	0	-64.393831912014	39.2864147570927	0	0	0	0	
5975000000	0	0	-68.3387334629826	50.2883577011382	0	0	0	0	
6000000000	0	0	-67.1095611994859	38.117516045439	0	0	0	0	
