!Keysight Technologies N9926A: A.08.19
!Date: Sunday, 01 March 2026 14:25:27
!Timezone: (GMT-06:00) Central Time (US & Canada)
!Model: N9926A
!Serial: MY53102721
!GPS Latitude: 
!GPS Longitude: 
!GPS TimeStamp: 0001-01-01 00:00:00Z
!GPS Seconds Since Last Read: 0
!CHECKSUM:0994162871
!Correction: S11()S21(ON U)S12()S22()
!S2P File: Measurements:S11,S21,S12,S22:
# Hz S DB R 50
1000000000	0	0	-68.5596513362554	-10.4001805599602	0	0	0	0	
1025000000	0	0	-79.1859164786564	49.5747823257037	0	0	0	0	
1050000000	0	0	-65.7734507324339	-76.6757583823906	0	0	0	0	
1075000000	0	0	-67.3786705588672	-49.6948855842366	0	0	0	0	
1100000000	0	0	-65.2703550870561	18.56942315756	0	0	0	0	
1125000000	0	0	-59.9031682048474	-72.8709211659615	0	0	0	0	
1150000000	0	0	-74.3745249485889	-90.1143317607525	0	0	0	0	
1175000000	0	0	-68.0852388630115	99.3448660682078	0	0	0	0	
1200000000	0	0	-64.4697737817104	12.025811097836	0	0	0	0	
1225000000	0	0	-69.7435449927024	-101.461297575365	0	0	0	0	
1250000000	0	0	-52.7665462517453	-48.2225161983646	0	0	0	0	
1275000000	0	0	-54.8330537609971	174.567324503489	0	0	0	0	
1300000000	0	0	-51.9171060080479	-16.8199497110457	0	0	0	0	
1325000000	0	0	-57.9307785534329	-114.777289688037	0	0	0	0	
1350000000	0	0	-52.8415145679355	-33.5995621194793	0	0	0	0	
1375000000	0	0	-58.5183834800384	88.4703663760977	0	0	0	0	
1400000000	0	0	-56.9537461243111	-25.9594316184393	0	0	0	0	
1425000000	0	0	-54.3155657143365	-155.650536850421	0	0	0	0	
1450000000	0	0	-51.6151723378909	54.1308361675615	0	0	0	0	
1475000000	0	0	-55.8465756751121	58.1181908886528	0	0	0	0	
1500000000	0	0	-54.5589537591695	164.1846224516	0	0	0	0	
1525000000	0	0	-70.904766158691	17.8245672503579	0	0	0	0	
1550000000	0	0	-58.1067487325004	27.7192650156321	0	0	0	0	
1575000000	0	0	-54.7597310747091	84.0016810069648	0	0	0	0	
1600000000	0	0	-61.6429221821486	-138.352141250661	0	0	0	0	
1625000000	0	0	-62.2903697399483	74.0168429847407	0	0	0	0	
1650000000	0	0	-63.8472363812686	-6.37126205947632	0	0	0	0	
1675000000	0	0	-58.6727746786465	66.9814209045421	0	0	0	0	
1700000000	0	0	-61.2998436210433	-72.7092952067633	0	0	0	0	
1725000000	0	0	-70.4911983858094	-32.9805079126381	0	0	0	0	
1750000000	0	0	-61.5807267739308	153.223177548002	0	0	0	0	
1775000000	0	0	-72.943869798258	-117.039970175855	0	0	0	0	
1800000000	0	0	-68.3966442832225	-166.987128733003	0	0	0	0	
1825000000	0	0	-65.1442888999571	-94.705327030974	0	0	0	0	
1850000000	0	0	-67.0006484173557	41.216357633195	0	0	0	0	
1875000000	0	0	-64.1387555986451	-157.980521061362	0	0	0	0	
1900000000	0	0	-62.0907040340178	115.296555018128	0	0	0	0	
1925000000	0	0	-63.7873508504906	-149.980514967736	0	0	0	0	
1950000000	0	0	-59.0580066498531	1.34098568321783	0	0	0	0	
1975000000	0	0	-70.7069386425319	144.087060185104	0	0	0	0	
2000000000	0	0	-62.4591213434429	123.787610274362	0	0	0	0	
2025000000	0	0	-72.3098358025391	171.838540552453	0	0	0	0	
2050000000	0	0	-67.1806727983432	-130.686795734	0	0	0	0	
2075000000	0	0	-67.9958514240734	170.773332123359	0	0	0	0	
2100000000	0	0	-72.2508671338071	177.461507213861	0	0	0	0	
2125000000	0	0	-61.8066606131211	-59.3272769534294	0	0	0	0	
2150000000	0	0	-76.0526570685971	-75.1776336470301	0	0	0	0	
2175000000	0	0	-66.2537292808311	-61.5513013495794	0	0	0	0	
2200000000	0	0	-62.6931891317218	-9.91268861168814	0	0	0	0	
2225000000	0	0	-67.5996490048361	50.6531804142249	0	0	0	0	
2250000000	0	0	-70.9639529274321	142.86012962278	0	0	0	0	
2275000000	0	0	-85.0888146409931	-11.5564473083217	0	0	0	0	
2300000000	0	0	-73.5295182733318	-22.9973916726305	0	0	0	0	
2325000000	0	0	-65.6628211363244	89.6790647987919	0	0	0	0	
2350000000	0	0	-66.1724620964821	62.6602120264441	0	0	0	0	
2375000000	0	0	-68.9754771035024	-67.8336557473713	0	0	0	0	
2400000000	0	0	-67.178002868357	-2.20955539296166	0	0	0	0	
2425000000	0	0	-65.9058566326031	30.5812496609507	0	0	0	0	
2450000000	0	0	-65.2256208602185	-101.767654601228	0	0	0	0	
2475000000	0	0	-67.222057549223	-119.401587139002	0	0	0	0	
2500000000	0	0	-68.8411680336661	-15.4997617438391	0	0	0	0	
2525000000	0	0	-67.1820480176873	49.5057964331651	0	0	0	0	
2550000000	0	0	-65.1510101393248	-64.3336176336021	0	0	0	0	
2575000000	0	0	-67.4584686815136	-6.61198114144994	0	0	0	0	
2600000000	0	0	-75.2191715448388	-136.008676303336	0	0	0	0	
2625000000	0	0	-77.693317553642	-150.054916657472	0	0	0	0	
2650000000	0	0	-66.4150977842926	-84.6929478252637	0	0	0	0	
2675000000	0	0	-80.5520242756174	19.8888999271625	0	0	0	0	
2700000000	0	0	-71.9794176867917	-158.418262910533	0	0	0	0	
2725000000	0	0	-62.2376418436846	-157.815940165448	0	0	0	0	
2750000000	0	0	-72.2130764207511	-90.8940419366917	0	0	0	0	
2775000000	0	0	-68.4305988172731	-63.1233375698127	0	0	0	0	
2800000000	0	0	-65.3278687091732	-47.9955068676465	0	0	0	0	
2825000000	0	0	-64.834448333755	-106.022099786844	0	0	0	0	
2850000000	0	0	-71.0323569739879	-55.0366047447719	0	0	0	0	
2875000000	0	0	-74.9837473692707	13.9288330044791	0	0	0	0	
2900000000	0	0	-75.8848828935013	13.4043983960665	0	0	0	0	
2925000000	0	0	-65.4224624621362	-113.110281830473	0	0	0	0	
2950000000	0	0	-67.9143865330282	-156.849016572814	0	0	0	0	
2975000000	0	0	-71.2818470478573	106.601726498965	0	0	0	0	
3000000000	0	0	-65.356870489778	140.813557758799	0	0	0	0	
3025000000	0	0	-69.2190229326374	-107.250812037827	0	0	0	0	
3050000000	0	0	-81.5047079841769	164.331788299865	0	0	0	0	
3075000000	0	0	-66.0463481274035	14.7607633223556	0	0	0	0	
3100000000	0	0	-65.9625155393758	-3.4249204941512	0	0	0	0	
3125000000	0	0	-68.8921854804405	36.051049711102	0	0	0	0	
3150000000	0	0	-75.6815522887904	83.7626269669744	0	0	0	0	
3175000000	0	0	-61.5283158252953	-1.27969549009346	0	0	0	0	
3200000000	0	0	-62.5623381991477	-69.4307720417756	0	0	0	0	
3225000000	0	0	-67.9333058338626	27.9905182281544	0	0	0	0	
3250000000	0	0	-65.9807847922012	129.802916789523	0	0	0	0	
3275000000	0	0	-77.9292036956781	1.61487191400531	0	0	0	0	
3300000000	0	0	-66.2409484541505	-114.257052940603	0	0	0	0	
3325000000	0	0	-67.799752490251	-163.680713319434	0	0	0	0	
3350000000	0	0	-68.7613423273711	-81.5640608467458	0	0	0	0	
3375000000	0	0	-67.9613562671679	-23.3483704626252	0	0	0	0	
3400000000	0	0	-81.1971958837843	91.748958140253	0	0	0	0	
3425000000	0	0	-68.668017543624	145.108955329624	0	0	0	0	
3450000000	0	0	-71.7982492987157	-167.903948669609	0	0	0	0	
3475000000	0	0	-69.2834356264111	-8.7742105807332	0	0	0	0	
3500000000	0	0	-75.7255575906899	23.7188122145707	0	0	0	0	
3525000000	0	0	-76.2049146547308	41.7716621990686	0	0	0	0	
3550000000	0	0	-67.3976730135661	177.892522819937	0	0	0	0	
3575000000	0	0	-64.7136063913219	151.828536758646	0	0	0	0	
3600000000	0	0	-66.7697109520045	109.656130192025	0	0	0	0	
3625000000	0	0	-65.6468228068237	167.901197634493	0	0	0	0	
3650000000	0	0	-64.2132532217209	119.023250296709	0	0	0	0	
3675000000	0	0	-73.8569329621402	3.93670803353159	0	0	0	0	
3700000000	0	0	-66.3375948801371	85.2128569604968	0	0	0	0	
3725000000	0	0	-74.1930873427688	162.185226436533	0	0	0	0	
3750000000	0	0	-69.6692346417037	41.2317490044662	0	0	0	0	
3775000000	0	0	-68.2606007540763	8.11208449035401	0	0	0	0	
3800000000	0	0	-70.0974397472958	94.1022955480555	0	0	0	0	
3825000000	0	0	-72.871316372174	-1.36427294410439	0	0	0	0	
3850000000	0	0	-68.2795155263073	-45.3403963705165	0	0	0	0	
3875000000	0	0	-74.1725870120827	68.0962807499974	0	0	0	0	
3900000000	0	0	-68.4533027378775	-43.2486270431144	0	0	0	0	
3925000000	0	0	-63.3173134242835	-165.426047970324	0	0	0	0	
3950000000	0	0	-63.4496459120027	-61.6766668723095	0	0	0	0	
3975000000	0	0	-68.6707342013353	-111.004563472937	0	0	0	0	
4000000000	0	0	-71.3677928118246	-98.74813287898	0	0	0	0	
4025000000	0	0	-69.0437843048413	127.625105655089	0	0	0	0	
4050000000	0	0	-76.4792765735094	-90.2337127445983	0	0	0	0	
4075000000	0	0	-68.7117300595481	-77.9543956388394	0	0	0	0	
4100000000	0	0	-64.5689087401965	140.082629728807	0	0	0	0	
4125000000	0	0	-77.3357576663507	61.938843184596	0	0	0	0	
4150000000	0	0	-73.2893216940114	-172.821735553826	0	0	0	0	
4175000000	0	0	-68.0751239934312	-50.4260175390356	0	0	0	0	
4200000000	0	0	-66.7846120905456	103.788164666872	0	0	0	0	
4225000000	0	0	-70.4144603558298	93.9477165975548	0	0	0	0	
4250000000	0	0	-64.8692479848534	66.3991147452769	0	0	0	0	
4275000000	0	0	-67.4022826146248	7.49784537418198	0	0	0	0	
4300000000	0	0	-67.0448552413547	11.1830611066123	0	0	0	0	
4325000000	0	0	-72.2765610908298	100.488695763819	0	0	0	0	
4350000000	0	0	-71.398684163742	95.6398045807408	0	0	0	0	
4375000000	0	0	-65.5712706269738	51.5566240617753	0	0	0	0	
4400000000	0	0	-70.0281950454931	6.4302533150412	0	0	0	0	
4425000000	0	0	-64.5950554387149	87.3689811707548	0	0	0	0	
4450000000	0	0	-63.9245926498251	-44.6337307003126	0	0	0	0	
4475000000	0	0	-67.4879322316303	-5.03539716458962	0	0	0	0	
4500000000	0	0	-65.6786048135465	-13.0630340952868	0	0	0	0	
4525000000	0	0	-66.9559805943619	-50.6829789231087	0	0	0	0	
4550000000	0	0	-60.8557935269896	-70.3887647628765	0	0	0	0	
4575000000	0	0	-77.4798338233421	-101.952456952266	0	0	0	0	
4600000000	0	0	-63.82712561794	-60.4106932986426	0	0	0	0	
4625000000	0	0	-62.2168801713676	-107.96500898485	0	0	0	0	
4650000000	0	0	-59.5401773066024	-120.498274335902	0	0	0	0	
4675000000	0	0	-69.4199469566076	-179.943094405268	0	0	0	0	
4700000000	0	0	-60.3234340009718	-138.942504534472	0	0	0	0	
4725000000	0	0	-62.0470166327813	-163.600959029972	0	0	0	0	
4750000000	0	0	-62.7181228972314	167.15901451922	0	0	0	0	
4775000000	0	0	-62.9094495565636	-179.507966994601	0	0	0	0	
4800000000	0	0	-63.520692968259	115.303422289945	0	0	0	0	
4825000000	0	0	-59.6044532321109	-158.568390561863	0	0	0	0	
4850000000	0	0	-54.4481882550297	159.354047607241	0	0	0	0	
4875000000	0	0	-56.4356422282681	92.4075821864578	0	0	0	0	
4900000000	0	0	-57.0844360673257	95.0081189201599	0	0	0	0	
4925000000	0	0	-55.9298726364975	98.3016502090291	0	0	0	0	
4950000000	0	0	-49.6982750799481	82.7166360955753	0	0	0	0	
4975000000	0	0	-49.7728724715483	42.5553797086312	0	0	0	0	
5000000000	0	0	-50.8357112668988	9.76664829791961	0	0	0	0	
5025000000	0	0	-51.1523665489059	3.11569445859933	0	0	0	0	
5050000000	0	0	-48.9241222860816	0.713751326546148	0	0	0	0	
5075000000	0	0	-45.7518955122138	-31.4766868855028	0	0	0	0	
5100000000	0	0	-44.1900689171263	-65.9385228403799	0	0	0	0	
5125000000	0	0	-46.1587407078901	-88.1606533699312	0	0	0	0	
5150000000	0	0	-45.7985004469756	-108.885839555961	0	0	0	0	
5175000000	0	0	-45.6694786533642	-124.549572712893	0	0	0	0	
5200000000	0	0	-43.6817770872215	-148.700254551538	0	0	0	0	
5225000000	0	0	-42.8939731296163	177.683891712064	0	0	0	0	
5250000000	0	0	-44.4572270603153	154.110582409523	0	0	0	0	
5275000000	0	0	-44.6851459835786	139.95527364888	0	0	0	0	
5300000000	0	0	-43.8762937499906	113.728294776322	0	0	0	0	
5325000000	0	0	-43.7421547565359	88.0257864898886	0	0	0	0	
5350000000	0	0	-44.9586798761162	59.003870175501	0	0	0	0	
5375000000	0	0	-46.2403166690676	41.9249280530356	0	0	0	0	
5400000000	0	0	-46.2170603201698	26.8483183541154	0	0	0	0	
5425000000	0	0	-45.4150046713826	0.130698989968022	0	0	0	0	
5450000000	0	0	-47.0516616425754	-19.0774450265644	0	0	0	0	
5475000000	0	0	-47.8528859253875	-39.6298080691166	0	0	0	0	
5500000000	0	0	-51.1910101282971	-59.6129215093012	0	0	0	0	
5525000000	0	0	-50.4998794503947	-72.4005946375962	0	0	0	0	
5550000000	0	0	-49.7215453501982	-85.6224292913257	0	0	0	0	
5575000000	0	0	-50.3920562669392	-108.795210649053	0	0	0	0	
5600000000	0	0	-51.6493625698446	-131.277622491744	0	0	0	0	
5625000000	0	0	-51.0932404759913	-139.92778609541	0	0	0	0	
5650000000	0	0	-49.6656873251983	-165.784532891634	0	0	0	0	
5675000000	0	0	-52.6351203974546	177.840466673109	0	0	0	0	
5700000000	0	0	-52.5163832475617	167.107103213168	0	0	0	0	
5725000000	0	0	-52.6456662794954	153.334666161776	0	0	0	0	
5750000000	0	0	-52.510099134355	125.286415689391	0	0	0	0	
5775000000	0	0	-52.3702928476859	112.969682378364	0	0	0	0	
5800000000	0	0	-52.4472591433411	91.2171143666663	0	0	0	0	
5825000000	0	0	-53.1955581955093	73.3056808974323	0	0	0	0	
5850000000	0	0	-52.430939111745	66.2450417919478	0	0	0	0	
5875000000	0	0	-56.0197990895881	45.0394720860833	0	0	0	0	
5900000000	0	0	-55.283653052238	20.8131009392944	0	0	0	0	
5925000000	0	0	-54.2907002137674	18.2056203968632	0	0	0	0	
5950000000	0	0	-55.441668683197	1.04609769403674	0	0	0	0	
5975000000	0	0	-58.0026307914037	-22.3281603571062	0	0	0	0	
6000000000	0	0	-56.9661324703019	-19.639235884669	0	0	0	0	
