!Keysight Technologies N9926A: A.08.19
!Date: Sunday, 01 March 2026 14:21:51
!Timezone: (GMT-06:00) Central Time (US & Canada)
!Model: N9926A
!Serial: MY53102721
!GPS Latitude: 
!GPS Longitude: 
!GPS TimeStamp: 0001-01-01 00:00:00Z
!GPS Seconds Since Last Read: 0
!CHECKSUM:1782695575
!Correction: S11()S21(ON U)S12()S22()
!S2P File: Measurements:S11,S21,S12,S22:
# Hz S DB R 50
1000000000	0	0	-65.7240237236367	172.479504863945	0	0	0	0	
1025000000	0	0	-70.5510961297232	11.0643703092	0	0	0	0	
1050000000	0	0	-60.4380073945807	169.349695306801	0	0	0	0	
1075000000	0	0	-66.9896840155161	92.838798241506	0	0	0	0	
1100000000	0	0	-73.9340764600279	-104.305445212629	0	0	0	0	
1125000000	0	0	-69.2236975662835	5.99995167143851	0	0	0	0	
1150000000	0	0	-73.0473145436322	157.526161223948	0	0	0	0	
1175000000	0	0	-67.2938486964218	173.853366304006	0	0	0	0	
1200000000	0	0	-63.9585636341793	74.1349127126669	0	0	0	0	
1225000000	0	0	-63.4828715469292	-126.54198669232	0	0	0	0	
1250000000	0	0	-59.6450035827421	-81.1952947932562	0	0	0	0	
1275000000	0	0	-53.4643259811411	-17.2724925557747	0	0	0	0	
1300000000	0	0	-58.4521326831781	-131.640473943392	0	0	0	0	
1325000000	0	0	-57.9076080660417	-8.22704847590737	0	0	0	0	
1350000000	0	0	-58.7427328158726	-128.905212981564	0	0	0	0	
1375000000	0	0	-53.1473533053594	89.8846336005263	0	0	0	0	
1400000000	0	0	-62.9296580208389	-131.432892774891	0	0	0	0	
1425000000	0	0	-55.9664997298545	-110.21081437197	0	0	0	0	
1450000000	0	0	-52.9606257960562	83.9788087443766	0	0	0	0	
1475000000	0	0	-53.474684897666	63.4629811224591	0	0	0	0	
1500000000	0	0	-54.9050283088963	173.86608133928	0	0	0	0	
1525000000	0	0	-62.9238386199953	50.184905982733	0	0	0	0	
1550000000	0	0	-57.2995551447394	110.762032842514	0	0	0	0	
1575000000	0	0	-51.4266022582166	133.340431653927	0	0	0	0	
1600000000	0	0	-62.3944889519534	-70.7858711218552	0	0	0	0	
1625000000	0	0	-55.1798729059566	-82.6337686215275	0	0	0	0	
1650000000	0	0	-59.2583098670363	-91.6913746187344	0	0	0	0	
1675000000	0	0	-65.4647011331703	-173.591086901923	0	0	0	0	
1700000000	0	0	-58.7132045786727	-144.540185003781	0	0	0	0	
1725000000	0	0	-63.8637102424154	99.1170363249777	0	0	0	0	
1750000000	0	0	-63.6465319383966	-37.2038244888449	0	0	0	0	
1775000000	0	0	-70.8657827859931	87.9119513844552	0	0	0	0	
1800000000	0	0	-60.2704129073718	-37.2215719276043	0	0	0	0	
1825000000	0	0	-66.5849649967847	-175.756167565224	0	0	0	0	
1850000000	0	0	-83.3722141538623	88.0194493194487	0	0	0	0	
1875000000	0	0	-66.0689996609441	156.825682664741	0	0	0	0	
1900000000	0	0	-59.0059675847229	-113.966787896224	0	0	0	0	
1925000000	0	0	-62.5043921213347	-168.333776334906	0	0	0	0	
1950000000	0	0	-63.0637198654002	-55.4912957512264	0	0	0	0	
1975000000	0	0	-74.3322232944995	-126.874167727393	0	0	0	0	
2000000000	0	0	-73.0042434228439	48.1980884791673	0	0	0	0	
2025000000	0	0	-65.1362131264848	43.5062491378191	0	0	0	0	
2050000000	0	0	-64.6734780044484	30.4927825077074	0	0	0	0	
2075000000	0	0	-67.9589042188428	-121.271726929186	0	0	0	0	
2100000000	0	0	-64.1413212976847	-59.1465987437071	0	0	0	0	
2125000000	0	0	-64.4802013518125	65.9630931847751	0	0	0	0	
2150000000	0	0	-65.6002424903201	-169.25735380185	0	0	0	0	
2175000000	0	0	-61.714998628713	151.26648753248	0	0	0	0	
2200000000	0	0	-73.0424001611976	88.2317876448792	0	0	0	0	
2225000000	0	0	-76.5467428746077	72.4591468716923	0	0	0	0	
2250000000	0	0	-62.6741534538057	-32.6684527556203	0	0	0	0	
2275000000	0	0	-64.4148695788225	-0.592493403733413	0	0	0	0	
2300000000	0	0	-70.8566097129815	-59.9321921702122	0	0	0	0	
2325000000	0	0	-71.6152112746479	61.886280919817	0	0	0	0	
2350000000	0	0	-78.2673533101444	-84.0204246775619	0	0	0	0	
2375000000	0	0	-72.8846200029844	-26.8632835561884	0	0	0	0	
2400000000	0	0	-67.5396300977282	23.7140423380273	0	0	0	0	
2425000000	0	0	-62.1328031081775	-169.348203150954	0	0	0	0	
2450000000	0	0	-71.1356417647799	-26.4262540409189	0	0	0	0	
2475000000	0	0	-73.6007895310867	-168.302836556195	0	0	0	0	
2500000000	0	0	-68.0429566743761	-59.7509863211962	0	0	0	0	
2525000000	0	0	-63.5110817986684	-14.1248577762763	0	0	0	0	
2550000000	0	0	-68.6640109067249	57.8639029430366	0	0	0	0	
2575000000	0	0	-71.4312170583529	17.6450309812186	0	0	0	0	
2600000000	0	0	-69.4010569737584	-153.585426725807	0	0	0	0	
2625000000	0	0	-71.9568775087222	74.5695398058962	0	0	0	0	
2650000000	0	0	-67.4446030731883	79.0691307603192	0	0	0	0	
2675000000	0	0	-70.1584841748891	-96.7311685734545	0	0	0	0	
2700000000	0	0	-74.1394025112101	177.516034253782	0	0	0	0	
2725000000	0	0	-71.1149823229008	2.70629643279053	0	0	0	0	
2750000000	0	0	-71.3446962910829	70.9389170901165	0	0	0	0	
2775000000	0	0	-79.563778564029	2.17716033536594	0	0	0	0	
2800000000	0	0	-70.4809218305882	68.4666670479106	0	0	0	0	
2825000000	0	0	-66.1711929627602	-76.935281026836	0	0	0	0	
2850000000	0	0	-70.9198890872326	-27.7172105926409	0	0	0	0	
2875000000	0	0	-76.7126772938414	-164.975057152326	0	0	0	0	
2900000000	0	0	-71.8427174929262	-16.4201218235404	0	0	0	0	
2925000000	0	0	-69.39804546615	56.5884918255654	0	0	0	0	
2950000000	0	0	-64.3870413102276	-86.0860597272573	0	0	0	0	
2975000000	0	0	-65.5700861152541	-39.0927845858374	0	0	0	0	
3000000000	0	0	-73.0305736296419	148.620099971365	0	0	0	0	
3025000000	0	0	-70.9173211726781	-88.2723656915934	0	0	0	0	
3050000000	0	0	-70.0917908543858	-118.074575873507	0	0	0	0	
3075000000	0	0	-75.2036731062958	64.8061547678931	0	0	0	0	
3100000000	0	0	-81.4348814875652	-43.8975059043559	0	0	0	0	
3125000000	0	0	-71.3344654821298	-70.3746444233136	0	0	0	0	
3150000000	0	0	-63.9631573890744	20.0946613273242	0	0	0	0	
3175000000	0	0	-67.3879372548988	157.315127971096	0	0	0	0	
3200000000	0	0	-72.2875131779021	-84.9157798670019	0	0	0	0	
3225000000	0	0	-69.3795402620284	69.6295593943262	0	0	0	0	
3250000000	0	0	-74.0767445375769	-29.8223252255096	0	0	0	0	
3275000000	0	0	-64.1711087523582	10.1744075175638	0	0	0	0	
3300000000	0	0	-67.4732348795238	-121.615297387268	0	0	0	0	
3325000000	0	0	-65.997827540466	-6.01922383927302	0	0	0	0	
3350000000	0	0	-62.2272678776828	63.1642044382963	0	0	0	0	
3375000000	0	0	-82.4569680601652	42.7467283792124	0	0	0	0	
3400000000	0	0	-75.3593986237733	127.957211188212	0	0	0	0	
3425000000	0	0	-66.9162745824264	-32.0525983894922	0	0	0	0	
3450000000	0	0	-63.3176495849231	11.122536721987	0	0	0	0	
3475000000	0	0	-67.5954459798287	138.88787613235	0	0	0	0	
3500000000	0	0	-66.6396276543953	-4.61460400364611	0	0	0	0	
3525000000	0	0	-65.0804900793848	-11.6699884183863	0	0	0	0	
3550000000	0	0	-68.3762745076404	-65.2879755480748	0	0	0	0	
3575000000	0	0	-67.7377313828469	-26.4755072473639	0	0	0	0	
3600000000	0	0	-61.5009357231959	-123.768232431044	0	0	0	0	
3625000000	0	0	-68.5950865289458	-164.657882831578	0	0	0	0	
3650000000	0	0	-69.8693314139571	-19.0922964604229	0	0	0	0	
3675000000	0	0	-69.3628018770699	-155.816948449098	0	0	0	0	
3700000000	0	0	-72.4655387070525	163.31097657889	0	0	0	0	
3725000000	0	0	-71.7509096860315	-112.976805878005	0	0	0	0	
3750000000	0	0	-73.8146065229846	-50.4555081508066	0	0	0	0	
3775000000	0	0	-73.7587424921567	56.9153843444679	0	0	0	0	
3800000000	0	0	-64.30161208386	-98.7576622615971	0	0	0	0	
3825000000	0	0	-64.5978793365321	124.626763816183	0	0	0	0	
3850000000	0	0	-67.9767039961006	-173.31337138848	0	0	0	0	
3875000000	0	0	-62.5985928468701	176.565557631163	0	0	0	0	
3900000000	0	0	-71.5216154297788	106.387310398583	0	0	0	0	
3925000000	0	0	-66.8908984457765	105.641825371235	0	0	0	0	
3950000000	0	0	-69.6182778762331	114.486064338176	0	0	0	0	
3975000000	0	0	-70.5612922542842	96.860212490756	0	0	0	0	
4000000000	0	0	-73.5830329794354	23.46584199835	0	0	0	0	
4025000000	0	0	-63.22831905778	66.5563285261726	0	0	0	0	
4050000000	0	0	-66.2581928136093	116.290310811041	0	0	0	0	
4075000000	0	0	-68.22088547042	10.1185899269751	0	0	0	0	
4100000000	0	0	-70.8532000885187	-132.874982520653	0	0	0	0	
4125000000	0	0	-60.3841205576232	44.5951912658221	0	0	0	0	
4150000000	0	0	-62.3666404074855	-14.396995522739	0	0	0	0	
4175000000	0	0	-67.6063599273927	-36.1915019401717	0	0	0	0	
4200000000	0	0	-62.0176389187087	-14.9262534490621	0	0	0	0	
4225000000	0	0	-65.8058565077113	-78.037878712407	0	0	0	0	
4250000000	0	0	-64.0579185252019	-15.6975608745726	0	0	0	0	
4275000000	0	0	-61.9687352096791	-68.8110108008762	0	0	0	0	
4300000000	0	0	-61.3619979056929	-78.6854328756832	0	0	0	0	
4325000000	0	0	-61.7018417439571	-100.735248877328	0	0	0	0	
4350000000	0	0	-64.3504345547382	-85.5291257526188	0	0	0	0	
4375000000	0	0	-61.6213364727952	-153.79916452989	0	0	0	0	
4400000000	0	0	-66.4029214554667	-141.393466691237	0	0	0	0	
4425000000	0	0	-60.5858209619298	-153.401718077515	0	0	0	0	
4450000000	0	0	-60.0819174688993	-152.067420444361	0	0	0	0	
4475000000	0	0	-63.4840752831335	-167.200835045589	0	0	0	0	
4500000000	0	0	-61.1705660650118	-173.410986731066	0	0	0	0	
4525000000	0	0	-62.662736976353	141.43516237853	0	0	0	0	
4550000000	0	0	-55.4987980239543	130.232875879991	0	0	0	0	
4575000000	0	0	-60.1664492282348	132.425661156552	0	0	0	0	
4600000000	0	0	-58.6708059084961	105.413125588388	0	0	0	0	
4625000000	0	0	-58.6370383446153	112.057924381823	0	0	0	0	
4650000000	0	0	-56.6433033973907	90.5659319451088	0	0	0	0	
4675000000	0	0	-55.4906717258408	44.7543121462013	0	0	0	0	
4700000000	0	0	-55.4501768806246	64.5521447954648	0	0	0	0	
4725000000	0	0	-54.7274568995692	51.714428209268	0	0	0	0	
4750000000	0	0	-50.7358895858064	28.4379705611805	0	0	0	0	
4775000000	0	0	-53.5386581604557	10.4626827812909	0	0	0	0	
4800000000	0	0	-52.1745369902663	2.04350754679287	0	0	0	0	
4825000000	0	0	-50.5240293655125	-25.1158542704677	0	0	0	0	
4850000000	0	0	-48.453713353353	-25.8203635938669	0	0	0	0	
4875000000	0	0	-48.0482942758826	-58.9349286964839	0	0	0	0	
4900000000	0	0	-49.0965031553242	-77.3583276154529	0	0	0	0	
4925000000	0	0	-49.1556352627726	-96.941541373979	0	0	0	0	
4950000000	0	0	-46.9638626263959	-99.4726382657875	0	0	0	0	
4975000000	0	0	-48.0313990562305	-126.477800121452	0	0	0	0	
5000000000	0	0	-45.3624010039475	-150.979885319525	0	0	0	0	
5025000000	0	0	-45.6170780949474	-171.204878804471	0	0	0	0	
5050000000	0	0	-45.3745277057566	-175.001105522386	0	0	0	0	
5075000000	0	0	-43.9305830374111	165.203315550523	0	0	0	0	
5100000000	0	0	-42.2476436849537	139.36709814326	0	0	0	0	
5125000000	0	0	-41.9591362344311	116.850063081422	0	0	0	0	
5150000000	0	0	-41.6014927489107	91.7884952631206	0	0	0	0	
5175000000	0	0	-41.5899229088398	75.3661196622488	0	0	0	0	
5200000000	0	0	-40.8860078598842	56.6883993955888	0	0	0	0	
5225000000	0	0	-40.3248424470875	31.428945599579	0	0	0	0	
5250000000	0	0	-40.0577426311057	1.00097874206554	0	0	0	0	
5275000000	0	0	-41.1673459367942	-16.7504469040824	0	0	0	0	
5300000000	0	0	-41.5457342313542	-40.1931650358595	0	0	0	0	
5325000000	0	0	-41.2200832077118	-58.7995318334473	0	0	0	0	
5350000000	0	0	-41.9843031014013	-85.104495214527	0	0	0	0	
5375000000	0	0	-42.387298897843	-98.5873578832496	0	0	0	0	
5400000000	0	0	-42.6536754447965	-117.292430925522	0	0	0	0	
5425000000	0	0	-42.0366278048491	-141.311547487581	0	0	0	0	
5450000000	0	0	-43.5438166026811	-167.685611198329	0	0	0	0	
5475000000	0	0	-44.6328042653644	178.893156026452	0	0	0	0	
5500000000	0	0	-45.0828777779426	159.485635869825	0	0	0	0	
5525000000	0	0	-45.488722073849	145.596949033294	0	0	0	0	
5550000000	0	0	-45.9431105383674	124.721245176258	0	0	0	0	
5575000000	0	0	-46.2467363966981	112.15634614617	0	0	0	0	
5600000000	0	0	-47.7699989335153	91.04799484823	0	0	0	0	
5625000000	0	0	-48.1501267161731	70.668002849002	0	0	0	0	
5650000000	0	0	-46.2528469867678	56.4217962197056	0	0	0	0	
5675000000	0	0	-47.4618394624691	32.0801501597845	0	0	0	0	
5700000000	0	0	-49.4055817628015	20.9538145099497	0	0	0	0	
5725000000	0	0	-49.3873583157798	8.21316522937539	0	0	0	0	
5750000000	0	0	-50.2266542291058	-11.7688994115486	0	0	0	0	
5775000000	0	0	-49.3736294683086	-28.1430155953478	0	0	0	0	
5800000000	0	0	-49.7397678323628	-46.1626379813436	0	0	0	0	
5825000000	0	0	-51.8464104341069	-53.2048575181278	0	0	0	0	
5850000000	0	0	-50.7805660616152	-76.9363451852102	0	0	0	0	
5875000000	0	0	-51.6754685309677	-87.5314560456436	0	0	0	0	
5900000000	0	0	-52.6650443367761	-107.743214092673	0	0	0	0	
5925000000	0	0	-52.7014579376373	-118.863851583437	0	0	0	0	
5950000000	0	0	-53.2097086156746	-137.607411072909	0	0	0	0	
5975000000	0	0	-54.4862597379363	-143.745468890879	0	0	0	0	
6000000000	0	0	-53.081661235476	-162.376634117894	0	0	0	0	
