!Keysight Technologies N9926A: A.08.19
!Date: Sunday, 01 March 2026 14:29:19
!Timezone: (GMT-06:00) Central Time (US & Canada)
!Model: N9926A
!Serial: MY53102721
!GPS Latitude: 
!GPS Longitude: 
!GPS TimeStamp: 0001-01-01 00:00:00Z
!GPS Seconds Since Last Read: 0
!CHECKSUM:1476825729
!Correction: S11()S21(ON U)S12()S22()
!S2P File: Measurements:S11,S21,S12,S22:
# Hz S DB R 50
1000000000	0	0	-65.3730782803901	75.7150453298592	0	0	0	0	
1025000000	0	0	-68.0166492710207	25.630886386365	0	0	0	0	
1050000000	0	0	-71.5855885489061	-91.0716932568312	0	0	0	0	
1075000000	0	0	-62.1981018690262	-5.81364112096526	0	0	0	0	
1100000000	0	0	-63.3199946424249	-170.322128537525	0	0	0	0	
1125000000	0	0	-66.3063253734407	-61.7172428699672	0	0	0	0	
1150000000	0	0	-58.2180299699295	169.049034535247	0	0	0	0	
1175000000	0	0	-61.3505529058987	145.668905498929	0	0	0	0	
1200000000	0	0	-62.459830340411	-109.687940733899	0	0	0	0	
1225000000	0	0	-53.4798803855237	75.6869157082454	0	0	0	0	
1250000000	0	0	-56.6634944217705	-159.77392139919	0	0	0	0	
1275000000	0	0	-84.5434325337307	-5.74145592340454	0	0	0	0	
1300000000	0	0	-60.35370277845	56.9286750608241	0	0	0	0	
1325000000	0	0	-61.4613481277543	90.6778290778716	0	0	0	0	
1350000000	0	0	-56.2857081894052	-86.5775371815476	0	0	0	0	
1375000000	0	0	-50.2174990276999	-2.280709507991	0	0	0	0	
1400000000	0	0	-52.8992355919401	-10.3410868798529	0	0	0	0	
1425000000	0	0	-58.3784205849787	138.157359803109	0	0	0	0	
1450000000	0	0	-54.6217511370717	161.400355993088	0	0	0	0	
1475000000	0	0	-54.0031757524928	-178.763038171326	0	0	0	0	
1500000000	0	0	-53.6418380962109	-131.483841681202	0	0	0	0	
1525000000	0	0	-52.6389314201596	-163.294459972236	0	0	0	0	
1550000000	0	0	-66.1094538598135	-169.394483092067	0	0	0	0	
1575000000	0	0	-61.4543625042469	123.918609053805	0	0	0	0	
1600000000	0	0	-56.9117546207491	80.9660087050578	0	0	0	0	
1625000000	0	0	-55.322051295874	89.6233888008221	0	0	0	0	
1650000000	0	0	-68.0111216448394	70.9984516095175	0	0	0	0	
1675000000	0	0	-58.4578347693541	-15.0552007034473	0	0	0	0	
1700000000	0	0	-71.6376100821305	-71.5681352963045	0	0	0	0	
1725000000	0	0	-62.9994962502462	-155.053159917335	0	0	0	0	
1750000000	0	0	-70.6661616885819	98.9038775534591	0	0	0	0	
1775000000	0	0	-64.7010167285285	41.7826439741548	0	0	0	0	
1800000000	0	0	-55.9278001723608	107.554634520717	0	0	0	0	
1825000000	0	0	-63.7760928087503	-132.838799979799	0	0	0	0	
1850000000	0	0	-61.9608731173103	-111.968105543322	0	0	0	0	
1875000000	0	0	-59.8415374306466	-169.83207135488	0	0	0	0	
1900000000	0	0	-58.767272753987	165.806976230094	0	0	0	0	
1925000000	0	0	-70.0274893283035	139.24199713044	0	0	0	0	
1950000000	0	0	-65.0214571489316	-139.126696313361	0	0	0	0	
1975000000	0	0	-72.4621215724021	165.298446213796	0	0	0	0	
2000000000	0	0	-60.5595402447548	91.9038951424574	0	0	0	0	
2025000000	0	0	-66.5966841139725	179.781365892002	0	0	0	0	
2050000000	0	0	-63.8171229661635	-46.3965454812037	0	0	0	0	
2075000000	0	0	-65.1245424778262	46.3980267545087	0	0	0	0	
2100000000	0	0	-61.8049457819771	16.1991575069521	0	0	0	0	
2125000000	0	0	-64.8181654571522	-41.5722347655324	0	0	0	0	
2150000000	0	0	-71.9982858080294	67.5649054938728	0	0	0	0	
2175000000	0	0	-65.7409318420335	124.025967778735	0	0	0	0	
2200000000	0	0	-70.2402439190642	101.734513383093	0	0	0	0	
2225000000	0	0	-69.0938405296238	132.534216773832	0	0	0	0	
2250000000	0	0	-72.7670704032152	32.1578326358597	0	0	0	0	
2275000000	0	0	-69.2484970586139	-154.626450106364	0	0	0	0	
2300000000	0	0	-66.4999555706056	-127.255577802732	0	0	0	0	
2325000000	0	0	-75.4479332559537	95.4915483582389	0	0	0	0	
2350000000	0	0	-91.5740393074532	10.8660239056314	0	0	0	0	
2375000000	0	0	-64.7319297606069	39.9052882749255	0	0	0	0	
2400000000	0	0	-74.6911559936543	-5.74038253784153	0	0	0	0	
2425000000	0	0	-63.1777246712158	29.6251894344791	0	0	0	0	
2450000000	0	0	-68.7392923376849	4.76823877820842	0	0	0	0	
2475000000	0	0	-74.5888948026468	146.246899257705	0	0	0	0	
2500000000	0	0	-64.275925772805	-71.4443693852935	0	0	0	0	
2525000000	0	0	-75.3029936583715	-92.525634242977	0	0	0	0	
2550000000	0	0	-67.8989312398648	-5.23792484366462	0	0	0	0	
2575000000	0	0	-68.0807754798965	-54.5700375992477	0	0	0	0	
2600000000	0	0	-65.9477137062126	-82.5083374776179	0	0	0	0	
2625000000	0	0	-64.8687933081306	62.281935850868	0	0	0	0	
2650000000	0	0	-68.2096119649607	105.516316285918	0	0	0	0	
2675000000	0	0	-71.7301921747478	124.386469069911	0	0	0	0	
2700000000	0	0	-72.1824614772352	103.674361763397	0	0	0	0	
2725000000	0	0	-74.3633672600166	141.922499564946	0	0	0	0	
2750000000	0	0	-75.026838750296	-162.361107837589	0	0	0	0	
2775000000	0	0	-69.6941855438932	114.818233688326	0	0	0	0	
2800000000	0	0	-70.0891071472361	62.550273161748	0	0	0	0	
2825000000	0	0	-77.3756228432588	-55.5470110148091	0	0	0	0	
2850000000	0	0	-69.9673322186794	65.5642540697086	0	0	0	0	
2875000000	0	0	-67.6724347416021	19.5018049680817	0	0	0	0	
2900000000	0	0	-67.3960648989485	128.057334984765	0	0	0	0	
2925000000	0	0	-79.6689319666191	100.8451859464	0	0	0	0	
2950000000	0	0	-74.5411140102339	5.66633515098073	0	0	0	0	
2975000000	0	0	-73.1919230424558	96.0289435632569	0	0	0	0	
3000000000	0	0	-75.25102551879	149.68124531988	0	0	0	0	
3025000000	0	0	-76.8882332065309	170.757311058558	0	0	0	0	
3050000000	0	0	-68.9143924424127	-30.4061948458543	0	0	0	0	
3075000000	0	0	-70.1291387502335	-97.8280285297328	0	0	0	0	
3100000000	0	0	-74.4883139823145	-116.237354478893	0	0	0	0	
3125000000	0	0	-68.1505907218005	121.480382118679	0	0	0	0	
3150000000	0	0	-66.8469903779284	-118.623773275557	0	0	0	0	
3175000000	0	0	-67.2097058468333	-172.868172049684	0	0	0	0	
3200000000	0	0	-76.8606611060641	-130.162229770915	0	0	0	0	
3225000000	0	0	-69.4166538568456	32.7041146857968	0	0	0	0	
3250000000	0	0	-74.4032666330261	152.237456433582	0	0	0	0	
3275000000	0	0	-65.9148908224161	-60.9337387970631	0	0	0	0	
3300000000	0	0	-64.8083065159251	140.985543505513	0	0	0	0	
3325000000	0	0	-70.1952425467632	158.506647061946	0	0	0	0	
3350000000	0	0	-86.6323644611469	74.2334788139859	0	0	0	0	
3375000000	0	0	-64.0262124241615	-52.6226954531882	0	0	0	0	
3400000000	0	0	-71.1269561080572	-10.8824376819655	0	0	0	0	
3425000000	0	0	-72.8292319895666	-132.353233405767	0	0	0	0	
3450000000	0	0	-72.2940981197559	20.0017995696756	0	0	0	0	
3475000000	0	0	-74.046568058122	105.657980518222	0	0	0	0	
3500000000	0	0	-68.9980657674151	67.1091035461265	0	0	0	0	
3525000000	0	0	-69.9291333713227	18.2866761662287	0	0	0	0	
3550000000	0	0	-71.5816343123267	-33.4136889774236	0	0	0	0	
3575000000	0	0	-65.5624786119384	0.0857308620012368	0	0	0	0	
3600000000	0	0	-69.284919116376	-35.6444568254128	0	0	0	0	
3625000000	0	0	-70.3025729119266	-44.777104284975	0	0	0	0	
3650000000	0	0	-70.0839637076727	178.049038531252	0	0	0	0	
3675000000	0	0	-67.7698699858326	-82.0161523611431	0	0	0	0	
3700000000	0	0	-73.0955133521858	24.8288270425481	0	0	0	0	
3725000000	0	0	-74.8039340277742	-97.6191697585923	0	0	0	0	
3750000000	0	0	-88.0043532864151	142.068810025149	0	0	0	0	
3775000000	0	0	-72.4020295971473	-164.668971539735	0	0	0	0	
3800000000	0	0	-67.3974455764387	121.093237653799	0	0	0	0	
3825000000	0	0	-71.6773367705429	71.1768354780526	0	0	0	0	
3850000000	0	0	-68.3494817295314	17.0082910327192	0	0	0	0	
3875000000	0	0	-69.8981853470118	114.84999977327	0	0	0	0	
3900000000	0	0	-72.0187514235648	74.0220381625215	0	0	0	0	
3925000000	0	0	-70.8951446517593	69.042986856296	0	0	0	0	
3950000000	0	0	-75.9047084567123	143.713499117548	0	0	0	0	
3975000000	0	0	-72.018462273093	37.3782124086341	0	0	0	0	
4000000000	0	0	-68.6679657021269	172.898166549141	0	0	0	0	
4025000000	0	0	-72.7367524213159	-17.0776906727725	0	0	0	0	
4050000000	0	0	-69.5446994450876	6.59732254920682	0	0	0	0	
4075000000	0	0	-71.6759534511986	53.9442540569589	0	0	0	0	
4100000000	0	0	-70.9481176329372	49.9609688764865	0	0	0	0	
4125000000	0	0	-70.1764017191837	-96.3136999259227	0	0	0	0	
4150000000	0	0	-69.3012013030408	68.4852573196841	0	0	0	0	
4175000000	0	0	-63.9591639609316	-63.8902603599495	0	0	0	0	
4200000000	0	0	-74.8666562309471	22.3189862308158	0	0	0	0	
4225000000	0	0	-65.8759327957836	56.5346837678533	0	0	0	0	
4250000000	0	0	-65.6538244543968	-44.1366417964872	0	0	0	0	
4275000000	0	0	-66.8581221252663	-115.691472566578	0	0	0	0	
4300000000	0	0	-61.7536443224226	-113.245914420131	0	0	0	0	
4325000000	0	0	-67.4001896804229	-150.539720425113	0	0	0	0	
4350000000	0	0	-65.7470192060512	-159.468923847201	0	0	0	0	
4375000000	0	0	-64.423394064618	-173.043471693265	0	0	0	0	
4400000000	0	0	-71.7766029209319	12.0949485996484	0	0	0	0	
4425000000	0	0	-71.5689702813801	-157.439144311478	0	0	0	0	
4450000000	0	0	-69.8499612815056	-148.162501955068	0	0	0	0	
4475000000	0	0	-63.0278773391672	100.271077773036	0	0	0	0	
4500000000	0	0	-68.5966143726537	-161.302974781899	0	0	0	0	
4525000000	0	0	-75.3557358237446	-156.697260084441	0	0	0	0	
4550000000	0	0	-63.6664374967408	129.390350475282	0	0	0	0	
4575000000	0	0	-74.2146968155774	134.351010966818	0	0	0	0	
4600000000	0	0	-71.5161052610663	66.8932373040852	0	0	0	0	
4625000000	0	0	-70.0046051204671	-19.4397602360238	0	0	0	0	
4650000000	0	0	-95.1741470361254	-72.5597670511831	0	0	0	0	
4675000000	0	0	-74.3854195116452	-13.6935170631286	0	0	0	0	
4700000000	0	0	-64.9543190607781	-5.34802286260293	0	0	0	0	
4725000000	0	0	-61.4508324181264	11.5857349309406	0	0	0	0	
4750000000	0	0	-63.2784977701085	-52.1766458553712	0	0	0	0	
4775000000	0	0	-68.2146717138398	-61.2356520643634	0	0	0	0	
4800000000	0	0	-67.3042388032706	-44.9621471901673	0	0	0	0	
4825000000	0	0	-60.6180224570625	-58.2223573720777	0	0	0	0	
4850000000	0	0	-60.2693088471474	-102.699076814949	0	0	0	0	
4875000000	0	0	-59.228236458512	-159.882838396841	0	0	0	0	
4900000000	0	0	-63.4236278365736	-165.086206501848	0	0	0	0	
4925000000	0	0	-58.8952155650071	-146.839445817914	0	0	0	0	
4950000000	0	0	-59.1556134797832	-157.905710027174	0	0	0	0	
4975000000	0	0	-60.0295228449093	156.938466754983	0	0	0	0	
5000000000	0	0	-82.5256899851772	-32.8726661345695	0	0	0	0	
5025000000	0	0	-63.8460060114254	157.526994404655	0	0	0	0	
5050000000	0	0	-60.9763944919591	118.331567522562	0	0	0	0	
5075000000	0	0	-59.8341066726478	58.570785500829	0	0	0	0	
5100000000	0	0	-58.3920446059347	-91.6393945519371	0	0	0	0	
5125000000	0	0	-58.0408853152241	169.883043066849	0	0	0	0	
5150000000	0	0	-54.0421122617935	91.6142442094244	0	0	0	0	
5175000000	0	0	-56.5674353118164	44.4396144144707	0	0	0	0	
5200000000	0	0	-62.7604861607826	49.3549941222709	0	0	0	0	
5225000000	0	0	-56.5082112585576	69.5243883975047	0	0	0	0	
5250000000	0	0	-51.0661864259124	10.5610776502095	0	0	0	0	
5275000000	0	0	-52.5320815364024	-28.6150343417368	0	0	0	0	
5300000000	0	0	-52.4796960653975	-51.5069738104497	0	0	0	0	
5325000000	0	0	-52.6803667005892	-68.4134448630055	0	0	0	0	
5350000000	0	0	-50.1612761720862	-92.5366496137324	0	0	0	0	
5375000000	0	0	-51.3162179644852	-115.985183029944	0	0	0	0	
5400000000	0	0	-53.9314693838855	-148.797593069206	0	0	0	0	
5425000000	0	0	-53.3205883611298	-171.889283275172	0	0	0	0	
5450000000	0	0	-55.4320695102642	162.670628615954	0	0	0	0	
5475000000	0	0	-54.4135629551498	155.638084008122	0	0	0	0	
5500000000	0	0	-53.4240565093372	134.674099787421	0	0	0	0	
5525000000	0	0	-54.4708052875628	106.806159215706	0	0	0	0	
5550000000	0	0	-56.6195271577981	92.4285193848702	0	0	0	0	
5575000000	0	0	-57.5806206938845	76.215050465938	0	0	0	0	
5600000000	0	0	-59.2706785156238	25.0650025194678	0	0	0	0	
5625000000	0	0	-56.2143642500833	20.3686681124516	0	0	0	0	
5650000000	0	0	-53.9980427173172	16.8191159610775	0	0	0	0	
5675000000	0	0	-57.4972309327138	-21.784040526796	0	0	0	0	
5700000000	0	0	-57.0359219371167	-48.53533443668	0	0	0	0	
5725000000	0	0	-57.1572300934676	-60.9452104971267	0	0	0	0	
5750000000	0	0	-56.0475583015206	-63.0286706338209	0	0	0	0	
5775000000	0	0	-58.5660936830976	-94.7903996302408	0	0	0	0	
5800000000	0	0	-58.5459473463747	-109.668056038097	0	0	0	0	
5825000000	0	0	-59.820522434975	-109.512991403031	0	0	0	0	
5850000000	0	0	-57.3584421601931	-134.116321931566	0	0	0	0	
5875000000	0	0	-62.6616654201088	-141.262605213276	0	0	0	0	
5900000000	0	0	-58.9256913307299	170.340987696102	0	0	0	0	
5925000000	0	0	-56.2967835008018	177.016323996516	0	0	0	0	
5950000000	0	0	-58.2613634353098	164.231058126884	0	0	0	0	
5975000000	0	0	-66.8034282393293	148.111681632019	0	0	0	0	
6000000000	0	0	-60.3616535616309	127.791699366113	0	0	0	0	
