!Keysight Technologies N9926A: A.08.19
!Date: Sunday, 01 March 2026 14:10:16
!Timezone: (GMT-06:00) Central Time (US & Canada)
!Model: N9926A
!Serial: MY53102721
!GPS Latitude: 
!GPS Longitude: 
!GPS TimeStamp: 0001-01-01 00:00:00Z
!GPS Seconds Since Last Read: 0
!CHECKSUM:0764345565
!Correction: S11()S21(ON U)S12()S22()
!S2P File: Measurements:S11,S21,S12,S22:
# Hz S DB R 50
1000000000	0	0	-64.2521791928104	53.7738801874149	0	0	0	0	
1025000000	0	0	-65.4235843999228	-77.9725568186176	0	0	0	0	
1050000000	0	0	-72.4286815857435	-125.645631799654	0	0	0	0	
1075000000	0	0	-61.2525961096755	-160.253038982671	0	0	0	0	
1100000000	0	0	-68.5528043538645	26.2743728288994	0	0	0	0	
1125000000	0	0	-65.353400024966	21.0426723596631	0	0	0	0	
1150000000	0	0	-74.1610320876783	132.684251664637	0	0	0	0	
1175000000	0	0	-73.6251652478806	-14.4055499072824	0	0	0	0	
1200000000	0	0	-67.5775353497479	117.386652979956	0	0	0	0	
1225000000	0	0	-63.8990875525639	179.1246108417	0	0	0	0	
1250000000	0	0	-56.8234308586311	-2.0134161581577	0	0	0	0	
1275000000	0	0	-64.0683356932226	48.2800188930672	0	0	0	0	
1300000000	0	0	-56.7660192569722	31.8517941559373	0	0	0	0	
1325000000	0	0	-52.0775675543805	-114.035241212796	0	0	0	0	
1350000000	0	0	-67.7862375111304	-96.9944623487171	0	0	0	0	
1375000000	0	0	-61.5709535200203	48.4298045059971	0	0	0	0	
1400000000	0	0	-63.2921423754703	-37.0174502614379	0	0	0	0	
1425000000	0	0	-58.2868218770438	179.160467637062	0	0	0	0	
1450000000	0	0	-48.9903094526567	-163.740318757036	0	0	0	0	
1475000000	0	0	-52.9216437394416	-107.598050230349	0	0	0	0	
1500000000	0	0	-63.1584368549107	-30.942578036378	0	0	0	0	
1525000000	0	0	-56.6204097969515	109.067253684205	0	0	0	0	
1550000000	0	0	-50.4825079615302	-165.353409467435	0	0	0	0	
1575000000	0	0	-55.3855116938936	-110.778886394999	0	0	0	0	
1600000000	0	0	-57.9041252584185	161.287028005117	0	0	0	0	
1625000000	0	0	-67.0619593539327	78.8854729203335	0	0	0	0	
1650000000	0	0	-57.0460941847476	57.7485930996845	0	0	0	0	
1675000000	0	0	-64.2404730226353	-118.996414288489	0	0	0	0	
1700000000	0	0	-62.001375640338	-137.002428908498	0	0	0	0	
1725000000	0	0	-69.2121024660621	-91.0476558345032	0	0	0	0	
1750000000	0	0	-68.7143724025453	22.6557228375451	0	0	0	0	
1775000000	0	0	-56.7339708801521	-166.74991491391	0	0	0	0	
1800000000	0	0	-70.9626801936563	-85.614351751408	0	0	0	0	
1825000000	0	0	-67.6514152967348	39.4778383648861	0	0	0	0	
1850000000	0	0	-66.2439897585231	94.6076337906738	0	0	0	0	
1875000000	0	0	-68.8847175980835	-163.901758673966	0	0	0	0	
1900000000	0	0	-60.1256939442251	90.4120161776847	0	0	0	0	
1925000000	0	0	-63.9291973714931	134.596192196439	0	0	0	0	
1950000000	0	0	-65.2071686309641	161.309162777815	0	0	0	0	
1975000000	0	0	-71.2723941121075	-108.31477667154	0	0	0	0	
2000000000	0	0	-72.6215908981594	-122.345611096891	0	0	0	0	
2025000000	0	0	-71.2291839427993	-9.00051979413212	0	0	0	0	
2050000000	0	0	-71.6362385894117	26.1193966175853	0	0	0	0	
2075000000	0	0	-70.7381501253549	-41.6593633011039	0	0	0	0	
2100000000	0	0	-71.9473398738865	64.1715608000446	0	0	0	0	
2125000000	0	0	-66.1822068014139	-113.511475348274	0	0	0	0	
2150000000	0	0	-63.4107971397823	58.6008234357758	0	0	0	0	
2175000000	0	0	-72.2836759464922	-125.66587909688	0	0	0	0	
2200000000	0	0	-60.5412592016884	59.618486207485	0	0	0	0	
2225000000	0	0	-72.0511722713822	123.246908597638	0	0	0	0	
2250000000	0	0	-65.1888366388799	-20.3929402342705	0	0	0	0	
2275000000	0	0	-70.1517087294818	-110.934230987502	0	0	0	0	
2300000000	0	0	-63.5783368016325	-112.749201209086	0	0	0	0	
2325000000	0	0	-64.6265085005288	-125.795337291092	0	0	0	0	
2350000000	0	0	-67.564688873038	-151.17513235915	0	0	0	0	
2375000000	0	0	-64.8417637775157	-69.6393496866049	0	0	0	0	
2400000000	0	0	-64.1714385667209	94.8980237067867	0	0	0	0	
2425000000	0	0	-63.517365198866	158.452904024386	0	0	0	0	
2450000000	0	0	-69.7525689892995	-130.475507126534	0	0	0	0	
2475000000	0	0	-63.1022326381354	99.0007090951168	0	0	0	0	
2500000000	0	0	-72.2939858241825	152.214987591435	0	0	0	0	
2525000000	0	0	-62.8653648276282	-149.776917031511	0	0	0	0	
2550000000	0	0	-64.1721897004865	120.703612034371	0	0	0	0	
2575000000	0	0	-75.3946263727247	2.5634226227398	0	0	0	0	
2600000000	0	0	-66.0131077928667	122.502099767611	0	0	0	0	
2625000000	0	0	-65.2376292587414	30.6083519984698	0	0	0	0	
2650000000	0	0	-69.2708138383931	55.7917295091218	0	0	0	0	
2675000000	0	0	-66.0683419325597	107.438884658954	0	0	0	0	
2700000000	0	0	-66.8689005686057	13.7480950651396	0	0	0	0	
2725000000	0	0	-69.6942167093668	63.6571979550423	0	0	0	0	
2750000000	0	0	-71.9570077080421	151.587825589379	0	0	0	0	
2775000000	0	0	-64.5041565159177	48.2558452479392	0	0	0	0	
2800000000	0	0	-76.6262659385187	-100.088865039359	0	0	0	0	
2825000000	0	0	-66.9153428246897	-26.596369331252	0	0	0	0	
2850000000	0	0	-63.9734854653199	22.1512975269994	0	0	0	0	
2875000000	0	0	-66.6146408265646	9.43906039202001	0	0	0	0	
2900000000	0	0	-64.6836539794283	17.2686154673211	0	0	0	0	
2925000000	0	0	-78.9792652781522	-117.082161550604	0	0	0	0	
2950000000	0	0	-66.0072374776132	-30.7515125097299	0	0	0	0	
2975000000	0	0	-76.1013242600358	-39.4330683830939	0	0	0	0	
3000000000	0	0	-65.44727923867	-77.9282298694783	0	0	0	0	
3025000000	0	0	-71.7477539013238	-55.8126952632296	0	0	0	0	
3050000000	0	0	-69.6493290741307	-108.825968782805	0	0	0	0	
3075000000	0	0	-74.5686693524324	-21.7279315359641	0	0	0	0	
3100000000	0	0	-69.0655118125286	-64.0678507486574	0	0	0	0	
3125000000	0	0	-68.7738984179305	-127.3268005199	0	0	0	0	
3150000000	0	0	-79.749461512113	134.142546120409	0	0	0	0	
3175000000	0	0	-69.0469393091178	-78.2797385106642	0	0	0	0	
3200000000	0	0	-66.2178602631773	-155.08761698344	0	0	0	0	
3225000000	0	0	-66.0325194340174	-166.026649863919	0	0	0	0	
3250000000	0	0	-66.2399146027295	-177.859407730116	0	0	0	0	
3275000000	0	0	-67.8188818861144	173.952765267293	0	0	0	0	
3300000000	0	0	-74.3375875960108	82.4331855333888	0	0	0	0	
3325000000	0	0	-61.1850559794581	165.303966546978	0	0	0	0	
3350000000	0	0	-64.4004809109902	174.872044030798	0	0	0	0	
3375000000	0	0	-63.1790978853401	140.564628984259	0	0	0	0	
3400000000	0	0	-64.4592203882685	129.049682389119	0	0	0	0	
3425000000	0	0	-62.0605370784655	85.9480504579712	0	0	0	0	
3450000000	0	0	-60.2875644906657	108.789184731773	0	0	0	0	
3475000000	0	0	-61.1450232356974	65.7846371806971	0	0	0	0	
3500000000	0	0	-60.8369270378459	62.638543627824	0	0	0	0	
3525000000	0	0	-60.1048466176136	68.1861176982699	0	0	0	0	
3550000000	0	0	-62.3878833482885	41.7600475309364	0	0	0	0	
3575000000	0	0	-57.5641535884518	45.7484389191927	0	0	0	0	
3600000000	0	0	-62.4848922265035	32.1542243399341	0	0	0	0	
3625000000	0	0	-61.5342026182826	58.1231307287446	0	0	0	0	
3650000000	0	0	-64.3851637635718	10.0949016140725	0	0	0	0	
3675000000	0	0	-60.2644621058105	-3.32526350721811	0	0	0	0	
3700000000	0	0	-62.0947153199053	-24.2071215397399	0	0	0	0	
3725000000	0	0	-60.9305591824936	-27.1122980008598	0	0	0	0	
3750000000	0	0	-60.6283859218498	-52.113752163721	0	0	0	0	
3775000000	0	0	-59.3883262701381	-23.9487144622123	0	0	0	0	
3800000000	0	0	-58.2806830684324	-32.8038181708442	0	0	0	0	
3825000000	0	0	-59.1348146232621	-58.5120683631237	0	0	0	0	
3850000000	0	0	-57.481880759362	-81.6587223480404	0	0	0	0	
3875000000	0	0	-58.1054777045773	-65.645225681175	0	0	0	0	
3900000000	0	0	-59.5375938760116	-72.9493194160766	0	0	0	0	
3925000000	0	0	-56.8192576978682	-93.2172765115185	0	0	0	0	
3950000000	0	0	-54.8003995211837	-107.220745295677	0	0	0	0	
3975000000	0	0	-57.2596576353213	-129.404828647165	0	0	0	0	
4000000000	0	0	-56.2156395286483	-149.321128974706	0	0	0	0	
4025000000	0	0	-55.0235177611787	-109.59447367648	0	0	0	0	
4050000000	0	0	-56.3770962799607	-169.013076516102	0	0	0	0	
4075000000	0	0	-53.6792426754149	-176.037370775533	0	0	0	0	
4100000000	0	0	-55.6474620644621	176.564430241218	0	0	0	0	
4125000000	0	0	-55.3421980659951	169.280801941875	0	0	0	0	
4150000000	0	0	-53.6275515004753	163.140349669295	0	0	0	0	
4175000000	0	0	-55.2185758555046	164.192586714409	0	0	0	0	
4200000000	0	0	-53.9435452454696	136.25566586275	0	0	0	0	
4225000000	0	0	-52.6725773417253	143.737790386817	0	0	0	0	
4250000000	0	0	-52.3432274499652	127.173664349621	0	0	0	0	
4275000000	0	0	-51.5178863651216	98.0693606613256	0	0	0	0	
4300000000	0	0	-51.6436282528629	95.9783156788405	0	0	0	0	
4325000000	0	0	-50.205357700538	76.8084508224009	0	0	0	0	
4350000000	0	0	-50.0905388656218	65.5470501800972	0	0	0	0	
4375000000	0	0	-51.4190488862292	57.9267416363519	0	0	0	0	
4400000000	0	0	-51.6408667135461	43.5823927230102	0	0	0	0	
4425000000	0	0	-53.658328604256	34.2857409059676	0	0	0	0	
4450000000	0	0	-48.9365301427478	38.3675691937682	0	0	0	0	
4475000000	0	0	-47.3058920425049	23.0143610820111	0	0	0	0	
4500000000	0	0	-48.0636063544313	-4.53873589784561	0	0	0	0	
4525000000	0	0	-47.9533418511983	-4.32765380039094	0	0	0	0	
4550000000	0	0	-45.356433876989	-13.384578988314	0	0	0	0	
4575000000	0	0	-45.2628790910157	-31.3908737556983	0	0	0	0	
4600000000	0	0	-45.5329415375308	-49.2696651010409	0	0	0	0	
4625000000	0	0	-44.4136574060411	-52.2838274061398	0	0	0	0	
4650000000	0	0	-43.7934297047646	-66.834433692612	0	0	0	0	
4675000000	0	0	-44.4711776227795	-78.5127822875557	0	0	0	0	
4700000000	0	0	-42.5418000173119	-86.8258636244598	0	0	0	0	
4725000000	0	0	-43.0757912518912	-97.4251895967513	0	0	0	0	
4750000000	0	0	-41.910862497852	-123.988227313938	0	0	0	0	
4775000000	0	0	-41.2692128062205	-130.410557566712	0	0	0	0	
4800000000	0	0	-41.8126608163316	-138.069742046583	0	0	0	0	
4825000000	0	0	-40.3933445652762	-147.608393061995	0	0	0	0	
4850000000	0	0	-38.4704260001975	-161.571186881895	0	0	0	0	
4875000000	0	0	-37.6750493164408	176.339159374806	0	0	0	0	
4900000000	0	0	-37.8282266474472	164.866504683592	0	0	0	0	
4925000000	0	0	-37.3077634917782	150.282394448358	0	0	0	0	
4950000000	0	0	-34.8524665339157	139.724564531759	0	0	0	0	
4975000000	0	0	-35.0591117485164	118.68549477328	0	0	0	0	
5000000000	0	0	-34.8547017974365	94.7803575816641	0	0	0	0	
5025000000	0	0	-34.5840926939769	85.1523147103838	0	0	0	0	
5050000000	0	0	-33.8897173494353	75.8379170303208	0	0	0	0	
5075000000	0	0	-32.3865505662039	55.417376406955	0	0	0	0	
5100000000	0	0	-31.5734507428967	34.2065135731609	0	0	0	0	
5125000000	0	0	-31.8429296555764	17.6390077640771	0	0	0	0	
5150000000	0	0	-31.164797321199	-0.953033807634893	0	0	0	0	
5175000000	0	0	-30.8368117313853	-22.8445066739121	0	0	0	0	
5200000000	0	0	-30.8284811521626	-41.2269442846416	0	0	0	0	
5225000000	0	0	-30.9703195363134	-59.9247895135974	0	0	0	0	
5250000000	0	0	-30.9225027349411	-77.1032603542162	0	0	0	0	
5275000000	0	0	-31.0736113039529	-96.5066521123158	0	0	0	0	
5300000000	0	0	-31.0257505061758	-117.085084941978	0	0	0	0	
5325000000	0	0	-31.8874243529616	-133.65770202111	0	0	0	0	
5350000000	0	0	-32.6138882939511	-153.320309742837	0	0	0	0	
5375000000	0	0	-32.6416396466844	-168.879078194753	0	0	0	0	
5400000000	0	0	-33.133206114573	175.567643020767	0	0	0	0	
5425000000	0	0	-33.6013840266018	151.718566612804	0	0	0	0	
5450000000	0	0	-35.0909320253409	134.654080403823	0	0	0	0	
5475000000	0	0	-36.2381284898822	128.191738976369	0	0	0	0	
5500000000	0	0	-36.3507007328622	109.747980277049	0	0	0	0	
5525000000	0	0	-37.0142936716152	97.9937862247862	0	0	0	0	
5550000000	0	0	-37.7065057897589	81.9032189573714	0	0	0	0	
5575000000	0	0	-38.3844051533784	70.6086966326486	0	0	0	0	
5600000000	0	0	-39.0224669212952	58.3403129704873	0	0	0	0	
5625000000	0	0	-39.0662525496077	40.1452719620847	0	0	0	0	
5650000000	0	0	-38.5519289877259	27.5176853383537	0	0	0	0	
5675000000	0	0	-41.3545628802925	10.2031164664319	0	0	0	0	
5700000000	0	0	-40.6971447211836	-3.03460204851461	0	0	0	0	
5725000000	0	0	-42.0554569178537	-9.78171760296613	0	0	0	0	
5750000000	0	0	-41.9887022654084	-19.9356835637378	0	0	0	0	
5775000000	0	0	-43.2713121328165	-27.5192129634398	0	0	0	0	
5800000000	0	0	-43.5193858199405	-50.5638853988037	0	0	0	0	
5825000000	0	0	-43.701219723292	-52.0984195685006	0	0	0	0	
5850000000	0	0	-44.0274978015849	-69.1382379210409	0	0	0	0	
5875000000	0	0	-45.9903561373002	-77.3797734268456	0	0	0	0	
5900000000	0	0	-45.7937912865684	-89.4382106481277	0	0	0	0	
5925000000	0	0	-45.8221747769061	-101.189808743699	0	0	0	0	
5950000000	0	0	-45.2841273885255	-119.09258776321	0	0	0	0	
5975000000	0	0	-46.5325696722219	-124.220204384617	0	0	0	0	
6000000000	0	0	-46.2550083878999	-124.950951821943	0	0	0	0	
