!Keysight Technologies N9926A: A.08.19
!Date: Sunday, 01 March 2026 14:14:59
!Timezone: (GMT-06:00) Central Time (US & Canada)
!Model: N9926A
!Serial: MY53102721
!GPS Latitude: 
!GPS Longitude: 
!GPS TimeStamp: 0001-01-01 00:00:00Z
!GPS Seconds Since Last Read: 0
!CHECKSUM:0206623635
!Correction: S11()S21(ON U)S12()S22()
!S2P File: Measurements:S11,S21,S12,S22:
# Hz S DB R 50
1000000000	0	0	-72.305382113787	-118.118934078804	0	0	0	0	
1025000000	0	0	-66.4197452446034	-35.50220471249	0	0	0	0	
1050000000	0	0	-62.6065346545356	-131.656042170231	0	0	0	0	
1075000000	0	0	-68.2599491215542	-94.6371274726538	0	0	0	0	
1100000000	0	0	-77.2392681280176	136.264419869395	0	0	0	0	
1125000000	0	0	-60.3510254060551	-29.8882323826377	0	0	0	0	
1150000000	0	0	-63.589486494747	1.16401863386678	0	0	0	0	
1175000000	0	0	-68.0569500506884	-8.29376342666703	0	0	0	0	
1200000000	0	0	-55.8940906669868	-5.93267375089215	0	0	0	0	
1225000000	0	0	-62.2003017890032	87.1783849549601	0	0	0	0	
1250000000	0	0	-55.5757430874871	92.0146266177577	0	0	0	0	
1275000000	0	0	-57.6723527971221	98.4731201949314	0	0	0	0	
1300000000	0	0	-56.3473844481617	50.7771333141846	0	0	0	0	
1325000000	0	0	-56.8411566928126	-26.8105789761845	0	0	0	0	
1350000000	0	0	-63.3162429611072	-50.7436830826327	0	0	0	0	
1375000000	0	0	-69.1324962431501	147.973293463866	0	0	0	0	
1400000000	0	0	-49.4859180159734	14.7229175444766	0	0	0	0	
1425000000	0	0	-51.6487222146309	140.266430535119	0	0	0	0	
1450000000	0	0	-56.0851247002003	110.557520773671	0	0	0	0	
1475000000	0	0	-58.5337220466508	78.2776075750015	0	0	0	0	
1500000000	0	0	-54.0307894168696	81.4528185470947	0	0	0	0	
1525000000	0	0	-69.7940843793835	85.1442888614583	0	0	0	0	
1550000000	0	0	-63.3454594148867	-53.0950682051537	0	0	0	0	
1575000000	0	0	-62.5257710608543	-11.0541737750991	0	0	0	0	
1600000000	0	0	-51.3381584468069	-125.60299222514	0	0	0	0	
1625000000	0	0	-54.5124297987275	156.640942597338	0	0	0	0	
1650000000	0	0	-68.7204561974364	-126.082578547804	0	0	0	0	
1675000000	0	0	-59.5635956641051	25.9549716965325	0	0	0	0	
1700000000	0	0	-64.6795800902111	-144.617059682048	0	0	0	0	
1725000000	0	0	-58.7764324223907	-153.321050793237	0	0	0	0	
1750000000	0	0	-60.9945158664333	128.922990345022	0	0	0	0	
1775000000	0	0	-75.2631974437297	-70.6480458648915	0	0	0	0	
1800000000	0	0	-57.8601342771755	-74.2670379530922	0	0	0	0	
1825000000	0	0	-70.8857357261817	-158.09789336439	0	0	0	0	
1850000000	0	0	-78.7790559141694	-110.744728921622	0	0	0	0	
1875000000	0	0	-74.8024174399938	-127.662503933974	0	0	0	0	
1900000000	0	0	-71.2845972004272	109.691266238032	0	0	0	0	
1925000000	0	0	-62.0650023397462	107.777570680246	0	0	0	0	
1950000000	0	0	-67.6017982300196	-158.697922349944	0	0	0	0	
1975000000	0	0	-61.3169156898649	-17.7009808780388	0	0	0	0	
2000000000	0	0	-65.0189600356969	131.371494119637	0	0	0	0	
2025000000	0	0	-67.0192072583552	-173.015370627004	0	0	0	0	
2050000000	0	0	-66.6095609308383	-73.0887759064623	0	0	0	0	
2075000000	0	0	-70.0554291758502	86.9666530324789	0	0	0	0	
2100000000	0	0	-61.6104858210779	36.8133088617035	0	0	0	0	
2125000000	0	0	-64.7456149552943	-44.5181181713022	0	0	0	0	
2150000000	0	0	-65.7288165040864	130.744889408782	0	0	0	0	
2175000000	0	0	-68.1320087189367	-127.210290184776	0	0	0	0	
2200000000	0	0	-67.3730060560081	-66.5374645089351	0	0	0	0	
2225000000	0	0	-65.5743896892076	-167.586431822409	0	0	0	0	
2250000000	0	0	-72.4603268070723	127.9001547415	0	0	0	0	
2275000000	0	0	-66.6794084361955	-28.2083788820996	0	0	0	0	
2300000000	0	0	-69.9741698169885	-103.718957876269	0	0	0	0	
2325000000	0	0	-65.1780770724817	173.38291171748	0	0	0	0	
2350000000	0	0	-62.605254908404	130.060895123202	0	0	0	0	
2375000000	0	0	-65.1560247414449	-1.12392191361962	0	0	0	0	
2400000000	0	0	-62.8697232047794	80.0230695262272	0	0	0	0	
2425000000	0	0	-66.0686179506911	79.6291867570924	0	0	0	0	
2450000000	0	0	-71.2235695728163	-64.5197494426942	0	0	0	0	
2475000000	0	0	-71.53355986226	86.391356028441	0	0	0	0	
2500000000	0	0	-64.1909907466674	-18.6558510892424	0	0	0	0	
2525000000	0	0	-73.716656123654	-92.2652561507147	0	0	0	0	
2550000000	0	0	-65.2318411336243	145.43681473914	0	0	0	0	
2575000000	0	0	-77.7994189623796	-46.6004384899441	0	0	0	0	
2600000000	0	0	-68.0034252888288	30.8029349359112	0	0	0	0	
2625000000	0	0	-75.4772447387033	-174.916901712885	0	0	0	0	
2650000000	0	0	-65.4560011703918	-75.7876113341026	0	0	0	0	
2675000000	0	0	-69.8670905758542	-145.66117817804	0	0	0	0	
2700000000	0	0	-65.8740487933314	-114.153480919871	0	0	0	0	
2725000000	0	0	-65.0992271334452	-179.332351284812	0	0	0	0	
2750000000	0	0	-76.8741630724502	131.908423942014	0	0	0	0	
2775000000	0	0	-67.1233173498667	-154.891512609555	0	0	0	0	
2800000000	0	0	-68.6599282980632	-73.4983441506456	0	0	0	0	
2825000000	0	0	-70.848319803301	18.734046726693	0	0	0	0	
2850000000	0	0	-72.5965399697998	100.406512100862	0	0	0	0	
2875000000	0	0	-64.8677888255071	88.9166794816041	0	0	0	0	
2900000000	0	0	-70.0831807610464	-126.78987492896	0	0	0	0	
2925000000	0	0	-71.0211664131558	-69.8797526024544	0	0	0	0	
2950000000	0	0	-64.9736645382474	15.1366592319307	0	0	0	0	
2975000000	0	0	-64.6011346744756	-60.2786476318477	0	0	0	0	
3000000000	0	0	-73.0222149309423	-95.4933124439014	0	0	0	0	
3025000000	0	0	-77.0436373854961	163.256689171391	0	0	0	0	
3050000000	0	0	-72.8943594235004	130.298151804936	0	0	0	0	
3075000000	0	0	-73.0840186168463	50.1591444700016	0	0	0	0	
3100000000	0	0	-76.1488724808078	-12.8180344166882	0	0	0	0	
3125000000	0	0	-64.2900242727624	7.88558362708101	0	0	0	0	
3150000000	0	0	-72.2197117697498	150.679521274051	0	0	0	0	
3175000000	0	0	-69.16772060576	-30.7154044811767	0	0	0	0	
3200000000	0	0	-70.3799869047447	94.5383109585829	0	0	0	0	
3225000000	0	0	-64.9316842170479	-47.1848163698573	0	0	0	0	
3250000000	0	0	-69.6652900272462	-11.6661608790682	0	0	0	0	
3275000000	0	0	-63.6602883705212	25.432392660439	0	0	0	0	
3300000000	0	0	-66.9813994616018	-127.995863931611	0	0	0	0	
3325000000	0	0	-68.2283577222294	-21.247334899692	0	0	0	0	
3350000000	0	0	-68.875589189287	-146.999345316281	0	0	0	0	
3375000000	0	0	-66.6009141308662	-71.7337621372241	0	0	0	0	
3400000000	0	0	-64.5695126724269	-35.4364880958422	0	0	0	0	
3425000000	0	0	-67.1094318334206	-174.436204665063	0	0	0	0	
3450000000	0	0	-62.7653622290271	-132.099887373299	0	0	0	0	
3475000000	0	0	-73.5735045521052	-89.2382918389873	0	0	0	0	
3500000000	0	0	-71.0734587061597	-100.230203311311	0	0	0	0	
3525000000	0	0	-68.0762789731989	-175.882122824986	0	0	0	0	
3550000000	0	0	-67.5400033813536	-141.481245759213	0	0	0	0	
3575000000	0	0	-64.327762441422	-156.532299985438	0	0	0	0	
3600000000	0	0	-68.2587067935332	81.1109093097189	0	0	0	0	
3625000000	0	0	-68.9158000378765	-171.554571235048	0	0	0	0	
3650000000	0	0	-63.7866316899829	166.278951980405	0	0	0	0	
3675000000	0	0	-63.8651063689288	141.776473374678	0	0	0	0	
3700000000	0	0	-65.9078413731935	136.730857225812	0	0	0	0	
3725000000	0	0	-64.9275769406441	96.836073886506	0	0	0	0	
3750000000	0	0	-68.5643158820786	99.2325900674104	0	0	0	0	
3775000000	0	0	-64.8861159702231	68.7949655453078	0	0	0	0	
3800000000	0	0	-85.5062167201891	98.432345035991	0	0	0	0	
3825000000	0	0	-62.9215314814432	48.4195467524971	0	0	0	0	
3850000000	0	0	-60.327687220004	75.322051416376	0	0	0	0	
3875000000	0	0	-65.618815179761	50.6032593709601	0	0	0	0	
3900000000	0	0	-71.2472138238523	13.481136415985	0	0	0	0	
3925000000	0	0	-61.8996074912679	29.4038039780204	0	0	0	0	
3950000000	0	0	-62.989655787487	16.6718191840682	0	0	0	0	
3975000000	0	0	-60.8909287960139	-10.234542595148	0	0	0	0	
4000000000	0	0	-69.431198549814	-16.5050623217981	0	0	0	0	
4025000000	0	0	-65.5404864802529	-2.56132337784796	0	0	0	0	
4050000000	0	0	-61.3834536682136	-27.6548649302276	0	0	0	0	
4075000000	0	0	-60.3089244981727	-48.7390117332163	0	0	0	0	
4100000000	0	0	-63.5770652536537	-73.0184193494374	0	0	0	0	
4125000000	0	0	-62.0358912197151	-58.1662876929581	0	0	0	0	
4150000000	0	0	-61.1846747950778	-84.1341885111355	0	0	0	0	
4175000000	0	0	-58.3877153063654	-67.6474540679039	0	0	0	0	
4200000000	0	0	-57.9833484343521	-90.216150989984	0	0	0	0	
4225000000	0	0	-59.5215997280132	-89.7530084360999	0	0	0	0	
4250000000	0	0	-60.4491506686646	-139.40093366979	0	0	0	0	
4275000000	0	0	-55.6422572378424	-158.35887513224	0	0	0	0	
4300000000	0	0	-59.6334289868131	-135.98749276572	0	0	0	0	
4325000000	0	0	-54.7515521817311	-164.879574632104	0	0	0	0	
4350000000	0	0	-56.0783893232474	-179.092967104156	0	0	0	0	
4375000000	0	0	-58.1393221626633	138.696265639121	0	0	0	0	
4400000000	0	0	-54.4843612456984	140.485213332583	0	0	0	0	
4425000000	0	0	-58.820634187695	132.918245737636	0	0	0	0	
4450000000	0	0	-52.9578596029796	130.188227165055	0	0	0	0	
4475000000	0	0	-52.4631232533039	124.540082155353	0	0	0	0	
4500000000	0	0	-54.3935118131417	86.3625613205464	0	0	0	0	
4525000000	0	0	-54.0383189337213	94.3383916550235	0	0	0	0	
4550000000	0	0	-52.152340279871	84.7123970448256	0	0	0	0	
4575000000	0	0	-51.951024429025	63.0161250069339	0	0	0	0	
4600000000	0	0	-51.3697635027338	53.0030911019274	0	0	0	0	
4625000000	0	0	-50.7654666184246	34.9863071414361	0	0	0	0	
4650000000	0	0	-50.5251064267255	20.4260880282177	0	0	0	0	
4675000000	0	0	-51.5832500614553	15.2615542568396	0	0	0	0	
4700000000	0	0	-49.2328448040791	2.26079706380613	0	0	0	0	
4725000000	0	0	-48.6620345414617	-10.1570405437695	0	0	0	0	
4750000000	0	0	-48.715924649446	-31.3593435814426	0	0	0	0	
4775000000	0	0	-47.7755888938815	-45.9247809542038	0	0	0	0	
4800000000	0	0	-47.7962464587079	-49.6671751327114	0	0	0	0	
4825000000	0	0	-45.547333686043	-70.0945528683549	0	0	0	0	
4850000000	0	0	-44.3214716032623	-78.1812170920357	0	0	0	0	
4875000000	0	0	-43.9993689387082	-101.078221537367	0	0	0	0	
4900000000	0	0	-42.90506440584	-113.783445012875	0	0	0	0	
4925000000	0	0	-42.427049858112	-130.249110436127	0	0	0	0	
4950000000	0	0	-40.2723621918443	-144.829853376046	0	0	0	0	
4975000000	0	0	-41.003403378456	-167.090710868795	0	0	0	0	
5000000000	0	0	-40.4255890983876	168.864688275484	0	0	0	0	
5025000000	0	0	-39.7311507725842	157.811187474656	0	0	0	0	
5050000000	0	0	-39.3187018781806	149.373756410607	0	0	0	0	
5075000000	0	0	-37.9939877939171	124.388916575841	0	0	0	0	
5100000000	0	0	-37.2269438358546	103.871056171226	0	0	0	0	
5125000000	0	0	-37.6485243470247	90.6009112600093	0	0	0	0	
5150000000	0	0	-36.4480878603284	68.3284673717684	0	0	0	0	
5175000000	0	0	-36.4552599902767	42.409126178308	0	0	0	0	
5200000000	0	0	-36.0975420222881	26.7535797799348	0	0	0	0	
5225000000	0	0	-36.1430531520368	3.762893493918	0	0	0	0	
5250000000	0	0	-36.1373812624608	-16.7473912579782	0	0	0	0	
5275000000	0	0	-36.220974105896	-37.5848883395489	0	0	0	0	
5300000000	0	0	-36.7792135893212	-58.8515999881656	0	0	0	0	
5325000000	0	0	-37.1189007400207	-75.4994931760251	0	0	0	0	
5350000000	0	0	-37.8644491552238	-97.5784631484208	0	0	0	0	
5375000000	0	0	-38.7032865460415	-115.312077144446	0	0	0	0	
5400000000	0	0	-38.6215497451747	-132.4189264214	0	0	0	0	
5425000000	0	0	-39.4844281851301	-151.860055793122	0	0	0	0	
5450000000	0	0	-40.6637603121533	-170.790771462943	0	0	0	0	
5475000000	0	0	-41.0754828426437	179.816018141889	0	0	0	0	
5500000000	0	0	-41.113457348639	159.3773047673	0	0	0	0	
5525000000	0	0	-42.4356415113707	145.55679906626	0	0	0	0	
5550000000	0	0	-42.5790949621763	128.209357001818	0	0	0	0	
5575000000	0	0	-43.0088305129167	114.033368644641	0	0	0	0	
5600000000	0	0	-43.589288345198	101.875505665764	0	0	0	0	
5625000000	0	0	-43.1998076416078	86.2066798747278	0	0	0	0	
5650000000	0	0	-44.157868564158	66.5394570483038	0	0	0	0	
5675000000	0	0	-45.307347084787	46.7156970609732	0	0	0	0	
5700000000	0	0	-45.1630986152031	33.8764625919963	0	0	0	0	
5725000000	0	0	-48.37661970355	28.0634664897597	0	0	0	0	
5750000000	0	0	-47.2527712341642	10.7033300141355	0	0	0	0	
5775000000	0	0	-47.6169968664484	-7.41970551637019	0	0	0	0	
5800000000	0	0	-48.4672735201132	-11.8139954767295	0	0	0	0	
5825000000	0	0	-51.0563112388535	-27.8948933166312	0	0	0	0	
5850000000	0	0	-50.2149839565594	-49.1484187274831	0	0	0	0	
5875000000	0	0	-51.3499040901336	-60.858772635334	0	0	0	0	
5900000000	0	0	-50.5468690363389	-53.6968279636401	0	0	0	0	
5925000000	0	0	-50.6875953762398	-77.7735947278084	0	0	0	0	
5950000000	0	0	-50.1338618446403	-86.2185787136493	0	0	0	0	
5975000000	0	0	-50.9836653372868	-105.03418334571	0	0	0	0	
6000000000	0	0	-50.5448136235078	-109.589360791085	0	0	0	0	
