!Keysight Technologies N9926A: A.08.19
!Date: Sunday, 01 March 2026 13:31:31
!Timezone: (GMT-06:00) Central Time (US & Canada)
!Model: N9926A
!Serial: MY53102721
!GPS Latitude: 
!GPS Longitude: 
!GPS TimeStamp: 0001-01-01 00:00:00Z
!GPS Seconds Since Last Read: 0
!CHECKSUM:2111059395
!Correction: S11()S21(ON U)S12()S22()
!S2P File: Measurements:S11,S21,S12,S22:
# Hz S DB R 50
1000000000	0	0	-71.6502097255512	6.28307729994771	0	0	0	0	
1025000000	0	0	-67.8121174677678	-76.3280994034973	0	0	0	0	
1050000000	0	0	-63.6582006511614	-9.10759759427338	0	0	0	0	
1075000000	0	0	-63.8941406734433	-32.1020208915272	0	0	0	0	
1100000000	0	0	-68.7920777200819	-21.2584287848724	0	0	0	0	
1125000000	0	0	-68.4473168979501	20.8218380815686	0	0	0	0	
1150000000	0	0	-57.3171060068929	138.651244753838	0	0	0	0	
1175000000	0	0	-60.6793546555067	-24.5255389297758	0	0	0	0	
1200000000	0	0	-65.2375241437049	-8.02106924766333	0	0	0	0	
1225000000	0	0	-61.9820755401313	150.06123837499	0	0	0	0	
1250000000	0	0	-60.3755521379715	-106.937485837202	0	0	0	0	
1275000000	0	0	-53.4275348493732	48.4533440925888	0	0	0	0	
1300000000	0	0	-63.6567997895625	-145.344053436128	0	0	0	0	
1325000000	0	0	-56.0153513526382	-74.9098191314194	0	0	0	0	
1350000000	0	0	-59.7760442814113	-98.8589015754775	0	0	0	0	
1375000000	0	0	-58.5011124574104	62.1768654341724	0	0	0	0	
1400000000	0	0	-52.5663391411356	16.2569002053229	0	0	0	0	
1425000000	0	0	-52.8889699245311	126.370398385719	0	0	0	0	
1450000000	0	0	-53.1373837227192	164.954930907325	0	0	0	0	
1475000000	0	0	-57.0482707332199	119.626980557636	0	0	0	0	
1500000000	0	0	-63.7735239197611	5.20666378157847	0	0	0	0	
1525000000	0	0	-57.9299598249074	130.328792313386	0	0	0	0	
1550000000	0	0	-72.0995508798422	-135.046273958558	0	0	0	0	
1575000000	0	0	-59.3372848833946	-157.434504025229	0	0	0	0	
1600000000	0	0	-59.4511551488137	-75.6756887940987	0	0	0	0	
1625000000	0	0	-62.9424379708018	174.068653088709	0	0	0	0	
1650000000	0	0	-57.281146043705	164.340408609156	0	0	0	0	
1675000000	0	0	-66.0584712573853	-154.4452546753	0	0	0	0	
1700000000	0	0	-63.2064340387906	96.1765074483808	0	0	0	0	
1725000000	0	0	-58.2599837172617	-10.5947112405613	0	0	0	0	
1750000000	0	0	-67.5328640127799	71.7853636758421	0	0	0	0	
1775000000	0	0	-58.6465841848785	-29.807475128132	0	0	0	0	
1800000000	0	0	-67.4157208287751	51.9357433393716	0	0	0	0	
1825000000	0	0	-63.1888420407045	-141.873131656111	0	0	0	0	
1850000000	0	0	-84.9118877368029	-108.803860132334	0	0	0	0	
1875000000	0	0	-63.3310236873516	-115.38123765509	0	0	0	0	
1900000000	0	0	-63.1111818516324	158.97916344088	0	0	0	0	
1925000000	0	0	-67.8850277452075	117.645362545987	0	0	0	0	
1950000000	0	0	-75.2150361302752	57.0907005645725	0	0	0	0	
1975000000	0	0	-75.0413771044742	-137.014745968704	0	0	0	0	
2000000000	0	0	-73.1701018614605	-165.767964687579	0	0	0	0	
2025000000	0	0	-69.5545988376691	26.8175048515708	0	0	0	0	
2050000000	0	0	-67.4578506881813	163.714174646687	0	0	0	0	
2075000000	0	0	-79.3452156767686	34.5091236365247	0	0	0	0	
2100000000	0	0	-62.6570055240621	72.8209923917784	0	0	0	0	
2125000000	0	0	-71.6746488076019	31.652585993904	0	0	0	0	
2150000000	0	0	-67.4248463586127	50.1532406866938	0	0	0	0	
2175000000	0	0	-70.7300860393698	-128.607930221743	0	0	0	0	
2200000000	0	0	-79.6213007647024	-20.8941871371543	0	0	0	0	
2225000000	0	0	-62.0002798251883	-7.22333186566624	0	0	0	0	
2250000000	0	0	-64.3343197279202	120.799096990339	0	0	0	0	
2275000000	0	0	-67.7127214263876	-5.2283114885439	0	0	0	0	
2300000000	0	0	-63.3278231226264	-2.01129707057571	0	0	0	0	
2325000000	0	0	-62.4278453235461	-97.6908858200614	0	0	0	0	
2350000000	0	0	-66.9074677975964	-127.069398604267	0	0	0	0	
2375000000	0	0	-84.0322022804207	-43.9480560613609	0	0	0	0	
2400000000	0	0	-75.8260098331959	158.623672175605	0	0	0	0	
2425000000	0	0	-66.466991556587	-148.169959954368	0	0	0	0	
2450000000	0	0	-65.0122865453814	-175.287421093146	0	0	0	0	
2475000000	0	0	-70.8685831628197	-40.3412155724103	0	0	0	0	
2500000000	0	0	-72.0446547004972	137.038445446893	0	0	0	0	
2525000000	0	0	-66.6935709260371	-94.9971829503944	0	0	0	0	
2550000000	0	0	-66.7572908117873	-55.5639725118182	0	0	0	0	
2575000000	0	0	-88.1918275761976	13.7845753703323	0	0	0	0	
2600000000	0	0	-72.0250610111735	29.3408922888041	0	0	0	0	
2625000000	0	0	-69.8882608926727	10.0812479810514	0	0	0	0	
2650000000	0	0	-71.5256003500671	156.402510037226	0	0	0	0	
2675000000	0	0	-63.2121581359452	10.1851156888597	0	0	0	0	
2700000000	0	0	-69.6330597436378	-32.3213213317256	0	0	0	0	
2725000000	0	0	-66.3615155656275	170.096094595216	0	0	0	0	
2750000000	0	0	-61.8829146339396	16.2673671075708	0	0	0	0	
2775000000	0	0	-74.6393391666094	-97.0580212515838	0	0	0	0	
2800000000	0	0	-70.0919126139966	-134.907786511247	0	0	0	0	
2825000000	0	0	-77.0994350396233	21.7719891219634	0	0	0	0	
2850000000	0	0	-65.8958125721246	-0.247521539688287	0	0	0	0	
2875000000	0	0	-66.204671535339	-43.1996866073364	0	0	0	0	
2900000000	0	0	-68.1205104442405	-106.25499626783	0	0	0	0	
2925000000	0	0	-63.6055589466929	-129.334498344071	0	0	0	0	
2950000000	0	0	-70.9857991419056	-41.2904151766954	0	0	0	0	
2975000000	0	0	-70.4607566744476	-16.1671195191788	0	0	0	0	
3000000000	0	0	-74.0166422414263	75.2119336693013	0	0	0	0	
3025000000	0	0	-70.9323654170668	-112.898808179887	0	0	0	0	
3050000000	0	0	-67.7389133270482	-114.98936571284	0	0	0	0	
3075000000	0	0	-69.9098821542221	-164.174421827447	0	0	0	0	
3100000000	0	0	-70.1024606498023	-117.513492625665	0	0	0	0	
3125000000	0	0	-69.8357474811054	-135.463479842964	0	0	0	0	
3150000000	0	0	-70.1264521753493	-170.458231531171	0	0	0	0	
3175000000	0	0	-64.8351414138271	-153.411491089949	0	0	0	0	
3200000000	0	0	-64.0052065767492	172.941686745834	0	0	0	0	
3225000000	0	0	-67.4761760656464	168.077467933856	0	0	0	0	
3250000000	0	0	-72.6212213484303	110.139445569383	0	0	0	0	
3275000000	0	0	-67.2218048146529	85.6432520136484	0	0	0	0	
3300000000	0	0	-65.1404224494951	82.4887660885994	0	0	0	0	
3325000000	0	0	-65.5316843845961	52.7564188653115	0	0	0	0	
3350000000	0	0	-64.7556795306473	87.4285999218983	0	0	0	0	
3375000000	0	0	-65.9917559167324	2.09307816612246	0	0	0	0	
3400000000	0	0	-62.3781676661316	60.9056714341571	0	0	0	0	
3425000000	0	0	-65.0891725985589	55.8913264992145	0	0	0	0	
3450000000	0	0	-61.1053661611551	12.6042183823675	0	0	0	0	
3475000000	0	0	-61.7079745259673	27.6583449597856	0	0	0	0	
3500000000	0	0	-59.449024516969	60.3301645324358	0	0	0	0	
3525000000	0	0	-66.3605014424137	-15.2274636268252	0	0	0	0	
3550000000	0	0	-60.8094930283947	-36.6789097380129	0	0	0	0	
3575000000	0	0	-61.4786958215804	-62.4550798577134	0	0	0	0	
3600000000	0	0	-63.038322996328	-53.5369363088786	0	0	0	0	
3625000000	0	0	-59.2412811142108	-105.191725029252	0	0	0	0	
3650000000	0	0	-58.1489767999376	-99.3013023721872	0	0	0	0	
3675000000	0	0	-59.0276053157695	-101.576468477833	0	0	0	0	
3700000000	0	0	-58.8587811740086	-127.839742686144	0	0	0	0	
3725000000	0	0	-57.4826877150618	-155.626056992169	0	0	0	0	
3750000000	0	0	-63.7946640767748	-157.876394976242	0	0	0	0	
3775000000	0	0	-63.4336951374292	-153.196691742267	0	0	0	0	
3800000000	0	0	-62.4922819251399	-134.949774787869	0	0	0	0	
3825000000	0	0	-59.1631462123417	-175.254726237231	0	0	0	0	
3850000000	0	0	-59.2584941059561	171.855460067758	0	0	0	0	
3875000000	0	0	-61.2050317136703	155.753390535441	0	0	0	0	
3900000000	0	0	-57.0712278522851	132.736223691547	0	0	0	0	
3925000000	0	0	-60.3184905924716	125.212724726502	0	0	0	0	
3950000000	0	0	-55.1737719380217	131.442884679753	0	0	0	0	
3975000000	0	0	-58.0060397550863	83.9219196675123	0	0	0	0	
4000000000	0	0	-59.6614403846149	96.9757004496069	0	0	0	0	
4025000000	0	0	-55.9708532392985	86.6909831310437	0	0	0	0	
4050000000	0	0	-55.1204035954587	40.3579108387761	0	0	0	0	
4075000000	0	0	-55.0551345355674	53.9068523777579	0	0	0	0	
4100000000	0	0	-56.4780879702488	27.4944405659795	0	0	0	0	
4125000000	0	0	-56.0237059599595	17.7260096183685	0	0	0	0	
4150000000	0	0	-55.2743866938388	5.66462807033567	0	0	0	0	
4175000000	0	0	-56.1092895551425	17.9792382333663	0	0	0	0	
4200000000	0	0	-54.5986745826685	-18.4589729045244	0	0	0	0	
4225000000	0	0	-53.2803874470949	-30.9950994635479	0	0	0	0	
4250000000	0	0	-52.8899090899972	-60.0263424851988	0	0	0	0	
4275000000	0	0	-51.9110341958743	-64.5191328795681	0	0	0	0	
4300000000	0	0	-51.247362256232	-67.0347171039133	0	0	0	0	
4325000000	0	0	-50.8935642455943	-88.4680594371737	0	0	0	0	
4350000000	0	0	-50.7994890367796	-109.931145321413	0	0	0	0	
4375000000	0	0	-50.9929949182006	-129.122776618451	0	0	0	0	
4400000000	0	0	-52.7886691229318	-133.87116552432	0	0	0	0	
4425000000	0	0	-50.7854879890054	-153.923096114233	0	0	0	0	
4450000000	0	0	-47.8331281344024	-152.438461642572	0	0	0	0	
4475000000	0	0	-48.2987910435352	-170.398197517303	0	0	0	0	
4500000000	0	0	-49.1873129978781	162.658265918617	0	0	0	0	
4525000000	0	0	-47.9994546519048	166.700629530196	0	0	0	0	
4550000000	0	0	-46.0715978749199	152.770809653865	0	0	0	0	
4575000000	0	0	-45.9607148504157	132.1420350236	0	0	0	0	
4600000000	0	0	-45.6410660250198	113.841280028121	0	0	0	0	
4625000000	0	0	-44.9193935617338	100.893708194051	0	0	0	0	
4650000000	0	0	-44.9368190979939	90.8194415436779	0	0	0	0	
4675000000	0	0	-45.2021962873441	72.9769916196385	0	0	0	0	
4700000000	0	0	-43.047017084062	64.4771608913727	0	0	0	0	
4725000000	0	0	-42.8411400049121	50.207835985379	0	0	0	0	
4750000000	0	0	-42.0740427275356	22.36038582363	0	0	0	0	
4775000000	0	0	-41.5254588511614	9.08421663274265	0	0	0	0	
4800000000	0	0	-41.833694825285	2.21689423215179	0	0	0	0	
4825000000	0	0	-40.0863072119444	-15.5332389076583	0	0	0	0	
4850000000	0	0	-38.3269213528136	-29.8727369889311	0	0	0	0	
4875000000	0	0	-37.4993713840762	-52.142471901393	0	0	0	0	
4900000000	0	0	-37.5642652576662	-65.5723548829302	0	0	0	0	
4925000000	0	0	-36.8160474150564	-83.5390938533113	0	0	0	0	
4950000000	0	0	-34.4918668816587	-99.7066839682129	0	0	0	0	
4975000000	0	0	-34.886378015786	-122.394129170647	0	0	0	0	
5000000000	0	0	-34.1629343934246	-147.905599869799	0	0	0	0	
5025000000	0	0	-33.7490482544661	-161.811064529678	0	0	0	0	
5050000000	0	0	-33.2412777738043	-173.962159658362	0	0	0	0	
5075000000	0	0	-32.0390194130181	163.755155764758	0	0	0	0	
5100000000	0	0	-30.6511087568515	141.546619999179	0	0	0	0	
5125000000	0	0	-30.6599236248379	122.543068068191	0	0	0	0	
5150000000	0	0	-30.0871813726334	100.697899559467	0	0	0	0	
5175000000	0	0	-29.7124002868861	77.1265516062447	0	0	0	0	
5200000000	0	0	-29.5118264601422	56.8837217422707	0	0	0	0	
5225000000	0	0	-29.3580442897692	33.7015297684625	0	0	0	0	
5250000000	0	0	-29.6722380963529	11.3350989765508	0	0	0	0	
5275000000	0	0	-29.8150329197479	-8.3928882255465	0	0	0	0	
5300000000	0	0	-29.7069526396231	-30.5324598148054	0	0	0	0	
5325000000	0	0	-30.0975609407671	-51.1093932575933	0	0	0	0	
5350000000	0	0	-30.7652704687632	-72.3333901334203	0	0	0	0	
5375000000	0	0	-31.1427665162902	-91.4007563783804	0	0	0	0	
5400000000	0	0	-30.8628825909241	-109.105269361063	0	0	0	0	
5425000000	0	0	-31.5152449151839	-133.891553191907	0	0	0	0	
5450000000	0	0	-32.7383882533981	-155.997136538111	0	0	0	0	
5475000000	0	0	-33.7851060097439	-168.548032437111	0	0	0	0	
5500000000	0	0	-33.8273938680151	173.777112072607	0	0	0	0	
5525000000	0	0	-34.8263147726411	159.091360873018	0	0	0	0	
5550000000	0	0	-35.0684316725683	139.145134121638	0	0	0	0	
5575000000	0	0	-36.0887500526299	125.308471151652	0	0	0	0	
5600000000	0	0	-36.4503354945541	108.302813632403	0	0	0	0	
5625000000	0	0	-36.9005114685703	91.390266203988	0	0	0	0	
5650000000	0	0	-36.2118603334407	74.7389912044495	0	0	0	0	
5675000000	0	0	-39.0026584329052	52.4579160872434	0	0	0	0	
5700000000	0	0	-38.3191465149714	38.9808493155412	0	0	0	0	
5725000000	0	0	-39.4930549154496	29.8770597994407	0	0	0	0	
5750000000	0	0	-39.9230360302831	13.8553346202524	0	0	0	0	
5775000000	0	0	-40.0888916098943	2.88067168051328	0	0	0	0	
5800000000	0	0	-40.3240909863941	-14.6926016035287	0	0	0	0	
5825000000	0	0	-40.7934158422771	-23.1951519206679	0	0	0	0	
5850000000	0	0	-40.9524971648502	-45.1972346473552	0	0	0	0	
5875000000	0	0	-43.3564982840581	-61.2318465329958	0	0	0	0	
5900000000	0	0	-42.6156355735278	-70.4794279215505	0	0	0	0	
5925000000	0	0	-41.9592690568608	-83.7103572379185	0	0	0	0	
5950000000	0	0	-43.8010948221951	-104.613110754952	0	0	0	0	
5975000000	0	0	-45.6490261319877	-110.498591422691	0	0	0	0	
6000000000	0	0	-44.3803377666895	-118.979054152254	0	0	0	0	
