!Keysight Technologies N9926A: A.08.19
!Date: Sunday, 01 March 2026 13:32:59
!Timezone: (GMT-06:00) Central Time (US & Canada)
!Model: N9926A
!Serial: MY53102721
!GPS Latitude: 
!GPS Longitude: 
!GPS TimeStamp: 0001-01-01 00:00:00Z
!GPS Seconds Since Last Read: 0
!CHECKSUM:0056214137
!Correction: S11()S21(ON U)S12()S22()
!S2P File: Measurements:S11,S21,S12,S22:
# Hz S DB R 50
1000000000	0	0	-77.2756269483226	53.0870722996168	0	0	0	0	
1025000000	0	0	-68.069163758951	-149.31048713739	0	0	0	0	
1050000000	0	0	-66.0688527027168	17.6108593798033	0	0	0	0	
1075000000	0	0	-65.2088502212736	40.0446153541131	0	0	0	0	
1100000000	0	0	-66.4727077332053	79.2792987891355	0	0	0	0	
1125000000	0	0	-64.5533121067577	11.5063851904494	0	0	0	0	
1150000000	0	0	-62.8992402749238	-143.736570971915	0	0	0	0	
1175000000	0	0	-61.210863955655	-25.063175030612	0	0	0	0	
1200000000	0	0	-59.4900315131471	28.7744182538796	0	0	0	0	
1225000000	0	0	-60.5600166080845	-165.541294004795	0	0	0	0	
1250000000	0	0	-56.5703758253908	-38.6226283433213	0	0	0	0	
1275000000	0	0	-56.8707478228661	175.940181597554	0	0	0	0	
1300000000	0	0	-62.9825698024778	-104.858320506331	0	0	0	0	
1325000000	0	0	-55.2573409765404	51.9553144916977	0	0	0	0	
1350000000	0	0	-61.2250447832002	117.986528288392	0	0	0	0	
1375000000	0	0	-61.5994539502592	-86.2422827775455	0	0	0	0	
1400000000	0	0	-53.0767845845241	116.920929475388	0	0	0	0	
1425000000	0	0	-60.210846131033	33.6851025650366	0	0	0	0	
1450000000	0	0	-52.4880210104708	21.297343718577	0	0	0	0	
1475000000	0	0	-51.6528303693465	-90.8627222769394	0	0	0	0	
1500000000	0	0	-54.7636049757671	115.125164258995	0	0	0	0	
1525000000	0	0	-61.65645244525	40.1903052371826	0	0	0	0	
1550000000	0	0	-56.7925009668995	-149.186663563522	0	0	0	0	
1575000000	0	0	-62.7041508417174	31.0445785150519	0	0	0	0	
1600000000	0	0	-61.3274779921144	-59.9451847816472	0	0	0	0	
1625000000	0	0	-58.7161614719199	-29.2009509088843	0	0	0	0	
1650000000	0	0	-61.0950112919633	70.2561294541149	0	0	0	0	
1675000000	0	0	-59.3036757237986	6.45564526652093	0	0	0	0	
1700000000	0	0	-65.3180487322018	-27.7735425693043	0	0	0	0	
1725000000	0	0	-62.3673573249634	71.398194785535	0	0	0	0	
1750000000	0	0	-65.4262366136371	-176.7243320275	0	0	0	0	
1775000000	0	0	-62.6225049795897	-151.104543645205	0	0	0	0	
1800000000	0	0	-69.9753791218473	-174.214813657798	0	0	0	0	
1825000000	0	0	-58.4084905207277	110.112291467414	0	0	0	0	
1850000000	0	0	-62.8933357411278	-108.529150173359	0	0	0	0	
1875000000	0	0	-67.2057541651148	-79.6700783244438	0	0	0	0	
1900000000	0	0	-67.2698668377757	149.388353027534	0	0	0	0	
1925000000	0	0	-66.891527721602	76.932595215349	0	0	0	0	
1950000000	0	0	-71.2152363275414	-72.3281820573407	0	0	0	0	
1975000000	0	0	-64.2881988639163	58.4246265279046	0	0	0	0	
2000000000	0	0	-73.5496319130066	-167.328325895501	0	0	0	0	
2025000000	0	0	-73.5258014666549	102.753624612556	0	0	0	0	
2050000000	0	0	-63.0199562236424	-125.319993048424	0	0	0	0	
2075000000	0	0	-65.1809878984192	112.091245389469	0	0	0	0	
2100000000	0	0	-85.4862130721645	-76.6015176595337	0	0	0	0	
2125000000	0	0	-62.1391077638422	-123.15954335614	0	0	0	0	
2150000000	0	0	-71.8968415243681	-89.252271377455	0	0	0	0	
2175000000	0	0	-65.6508579175187	-83.9601094776953	0	0	0	0	
2200000000	0	0	-65.3165112540883	17.9082128459752	0	0	0	0	
2225000000	0	0	-67.6491342558918	-171.705713066292	0	0	0	0	
2250000000	0	0	-66.281019370899	119.119247499656	0	0	0	0	
2275000000	0	0	-73.9431914340589	2.51897912580335	0	0	0	0	
2300000000	0	0	-66.7416111799798	-127.515778547431	0	0	0	0	
2325000000	0	0	-70.7217257890078	-33.4556675002347	0	0	0	0	
2350000000	0	0	-66.9860892519268	32.175184286757	0	0	0	0	
2375000000	0	0	-70.6572597581581	56.1085111700365	0	0	0	0	
2400000000	0	0	-74.1582354219974	-170.093665479042	0	0	0	0	
2425000000	0	0	-69.6738691360945	-42.0763289615731	0	0	0	0	
2450000000	0	0	-74.4313697522721	-58.1635145369898	0	0	0	0	
2475000000	0	0	-74.5265243009163	34.1389535012606	0	0	0	0	
2500000000	0	0	-69.9091245293903	-14.6262650384461	0	0	0	0	
2525000000	0	0	-69.6970276980624	-151.41577127081	0	0	0	0	
2550000000	0	0	-66.6068802509017	158.232999803377	0	0	0	0	
2575000000	0	0	-71.5704209797475	138.532717179316	0	0	0	0	
2600000000	0	0	-66.1129308523576	171.228106531344	0	0	0	0	
2625000000	0	0	-60.882658179481	101.02217949072	0	0	0	0	
2650000000	0	0	-81.4406428808079	-102.360511915885	0	0	0	0	
2675000000	0	0	-81.3489093073604	-15.0544304602241	0	0	0	0	
2700000000	0	0	-74.557393815735	-42.5214858484806	0	0	0	0	
2725000000	0	0	-65.4873045590649	95.6413158425313	0	0	0	0	
2750000000	0	0	-66.6086882054838	76.170223154454	0	0	0	0	
2775000000	0	0	-69.4246233112354	15.0284074122977	0	0	0	0	
2800000000	0	0	-71.5735369924725	132.677792558755	0	0	0	0	
2825000000	0	0	-70.5660774933052	17.5353773261057	0	0	0	0	
2850000000	0	0	-74.2958634428662	-12.4860891010032	0	0	0	0	
2875000000	0	0	-71.5368346121172	146.258015406353	0	0	0	0	
2900000000	0	0	-73.4194216593164	67.3913147796268	0	0	0	0	
2925000000	0	0	-69.0885809290576	-67.8298586524638	0	0	0	0	
2950000000	0	0	-61.8512657483951	-11.6275466663422	0	0	0	0	
2975000000	0	0	-63.2004324660678	-125.136068415744	0	0	0	0	
3000000000	0	0	-76.7958178220229	-77.6215231434825	0	0	0	0	
3025000000	0	0	-70.1642396427867	29.3418634454669	0	0	0	0	
3050000000	0	0	-73.2744857808411	26.9516568554207	0	0	0	0	
3075000000	0	0	-63.9985363800846	-0.074907702918192	0	0	0	0	
3100000000	0	0	-72.7345296630422	94.7796517175413	0	0	0	0	
3125000000	0	0	-68.5530151175461	122.104956705903	0	0	0	0	
3150000000	0	0	-63.925469407372	-168.677111579093	0	0	0	0	
3175000000	0	0	-73.6357586707366	115.322978137742	0	0	0	0	
3200000000	0	0	-62.1554402561118	96.592380255195	0	0	0	0	
3225000000	0	0	-68.7921849450182	20.953343662811	0	0	0	0	
3250000000	0	0	-76.944143026364	-98.9307330554897	0	0	0	0	
3275000000	0	0	-71.8361008659379	2.49443794863303	0	0	0	0	
3300000000	0	0	-80.7935930327305	-101.982665176837	0	0	0	0	
3325000000	0	0	-65.3254553571561	2.67127249914515	0	0	0	0	
3350000000	0	0	-68.8787051509549	42.6196357726092	0	0	0	0	
3375000000	0	0	-65.7809828643963	-45.8042840454031	0	0	0	0	
3400000000	0	0	-73.2262792094686	-56.18467029449	0	0	0	0	
3425000000	0	0	-70.1137267267397	-38.0603741253321	0	0	0	0	
3450000000	0	0	-64.7881734331083	-31.2027105835512	0	0	0	0	
3475000000	0	0	-69.2396155811722	115.749657998615	0	0	0	0	
3500000000	0	0	-71.5780591027699	-75.1008269850702	0	0	0	0	
3525000000	0	0	-65.6034880862685	-70.7794121816991	0	0	0	0	
3550000000	0	0	-66.7633239873029	-167.423599875536	0	0	0	0	
3575000000	0	0	-59.9928584547566	-177.970151225063	0	0	0	0	
3600000000	0	0	-62.1024520633904	159.101593197888	0	0	0	0	
3625000000	0	0	-65.8370151056334	148.688942975188	0	0	0	0	
3650000000	0	0	-70.49755624872	132.665523056101	0	0	0	0	
3675000000	0	0	-65.6021596930545	100.299397543567	0	0	0	0	
3700000000	0	0	-63.0677988643765	117.518391111031	0	0	0	0	
3725000000	0	0	-59.3512384734657	60.2284707690047	0	0	0	0	
3750000000	0	0	-64.0086866951082	84.4749711314522	0	0	0	0	
3775000000	0	0	-61.6084439121143	35.2892515456543	0	0	0	0	
3800000000	0	0	-62.6162706887855	-22.3020604405944	0	0	0	0	
3825000000	0	0	-74.595546547964	-81.9738692646999	0	0	0	0	
3850000000	0	0	-63.5637680263739	1.77804111985572	0	0	0	0	
3875000000	0	0	-65.350775678505	-13.8022281533792	0	0	0	0	
3900000000	0	0	-65.5371756539195	-29.2196291176933	0	0	0	0	
3925000000	0	0	-70.3645207932403	-95.5585009933515	0	0	0	0	
3950000000	0	0	-69.1008805032969	-77.3405023957023	0	0	0	0	
3975000000	0	0	-69.7131370346499	-47.4060637238443	0	0	0	0	
4000000000	0	0	-67.5149250230025	-159.343777579516	0	0	0	0	
4025000000	0	0	-63.4694534702408	-140.382226747186	0	0	0	0	
4050000000	0	0	-63.2100706312353	177.935591441753	0	0	0	0	
4075000000	0	0	-63.3217362179249	159.142129764488	0	0	0	0	
4100000000	0	0	-63.622832761362	152.148555069509	0	0	0	0	
4125000000	0	0	-66.0383399687559	140.141709048144	0	0	0	0	
4150000000	0	0	-59.6722909649226	127.010583598796	0	0	0	0	
4175000000	0	0	-62.0774574831577	109.227387010812	0	0	0	0	
4200000000	0	0	-63.5375511039053	56.510562042487	0	0	0	0	
4225000000	0	0	-63.8932238259379	96.0781750697785	0	0	0	0	
4250000000	0	0	-63.3385789551907	50.9823511171726	0	0	0	0	
4275000000	0	0	-61.9941087354076	12.0138702660352	0	0	0	0	
4300000000	0	0	-62.93370570012	35.4691983992521	0	0	0	0	
4325000000	0	0	-60.9277564944384	-18.0823389711897	0	0	0	0	
4350000000	0	0	-61.2084157580531	-52.1428900801649	0	0	0	0	
4375000000	0	0	-61.4370155739046	-71.0176337024848	0	0	0	0	
4400000000	0	0	-60.353349531804	-61.4685983689517	0	0	0	0	
4425000000	0	0	-59.8559485662664	-87.3289926988738	0	0	0	0	
4450000000	0	0	-56.5862642895518	-116.136355426008	0	0	0	0	
4475000000	0	0	-55.3973163612415	-145.390348194733	0	0	0	0	
4500000000	0	0	-60.9394538391761	174.996879259716	0	0	0	0	
4525000000	0	0	-60.455616220124	169.310789604481	0	0	0	0	
4550000000	0	0	-54.5746112100877	141.973559025796	0	0	0	0	
4575000000	0	0	-56.2932513673745	105.408221514949	0	0	0	0	
4600000000	0	0	-55.6687034468759	108.449778442759	0	0	0	0	
4625000000	0	0	-57.0907488835734	54.6022324598842	0	0	0	0	
4650000000	0	0	-54.0594185507304	44.9862791813896	0	0	0	0	
4675000000	0	0	-52.5299440807706	19.8466418974051	0	0	0	0	
4700000000	0	0	-51.6970231422679	4.21457984961755	0	0	0	0	
4725000000	0	0	-51.9774001726562	-19.5482962257727	0	0	0	0	
4750000000	0	0	-50.4221435083107	-47.4154043959731	0	0	0	0	
4775000000	0	0	-51.0641709048483	-66.5790248061189	0	0	0	0	
4800000000	0	0	-50.0317262197172	-89.3235143737116	0	0	0	0	
4825000000	0	0	-48.5082290555196	-108.144773530217	0	0	0	0	
4850000000	0	0	-46.5278526941602	-128.241484656724	0	0	0	0	
4875000000	0	0	-45.889194357067	-164.296843944036	0	0	0	0	
4900000000	0	0	-46.3733171357851	176.383355849395	0	0	0	0	
4925000000	0	0	-44.2551258265519	150.352958129442	0	0	0	0	
4950000000	0	0	-42.3183382165996	135.387957935821	0	0	0	0	
4975000000	0	0	-42.1446363325211	100.708587230376	0	0	0	0	
5000000000	0	0	-41.6733143250343	71.5722037792434	0	0	0	0	
5025000000	0	0	-40.6937457533875	52.5934066623213	0	0	0	0	
5050000000	0	0	-39.8093429671533	33.0275400819421	0	0	0	0	
5075000000	0	0	-38.3446696750894	5.75845840944606	0	0	0	0	
5100000000	0	0	-37.1580367197083	-23.2272279463748	0	0	0	0	
5125000000	0	0	-37.0101250256014	-48.2871663059033	0	0	0	0	
5150000000	0	0	-36.4634241581589	-75.824575867296	0	0	0	0	
5175000000	0	0	-35.9882248200125	-103.400446146456	0	0	0	0	
5200000000	0	0	-35.463210341423	-131.861797643186	0	0	0	0	
5225000000	0	0	-35.2560736800461	-158.626541078537	0	0	0	0	
5250000000	0	0	-35.1231601695672	175.712352823773	0	0	0	0	
5275000000	0	0	-35.0078521872895	148.823960352487	0	0	0	0	
5300000000	0	0	-34.8901669465442	117.852968966588	0	0	0	0	
5325000000	0	0	-35.3121958141761	92.7064195530274	0	0	0	0	
5350000000	0	0	-36.205017529355	65.0899608931556	0	0	0	0	
5375000000	0	0	-36.3995309450219	41.6119470860185	0	0	0	0	
5400000000	0	0	-36.6124446276928	19.5512881780729	0	0	0	0	
5425000000	0	0	-36.8853917537804	-8.92579476640794	0	0	0	0	
5450000000	0	0	-38.2346913349163	-36.0468128196453	0	0	0	0	
5475000000	0	0	-38.9384679358491	-51.3432840045162	0	0	0	0	
5500000000	0	0	-38.9385972143683	-75.6751034994464	0	0	0	0	
5525000000	0	0	-39.744428307947	-98.2717767703873	0	0	0	0	
5550000000	0	0	-39.3332629016492	-121.310310959882	0	0	0	0	
5575000000	0	0	-40.6454003525565	-138.639738427962	0	0	0	0	
5600000000	0	0	-40.7780836714891	-159.525092685947	0	0	0	0	
5625000000	0	0	-40.7723536958244	177.188663994602	0	0	0	0	
5650000000	0	0	-40.3698129285098	155.817996575984	0	0	0	0	
5675000000	0	0	-42.7672933685687	128.725974270858	0	0	0	0	
5700000000	0	0	-41.4387743147493	107.167106058328	0	0	0	0	
5725000000	0	0	-43.3845968330466	88.4562017446562	0	0	0	0	
5750000000	0	0	-43.3801064825579	67.9453316265633	0	0	0	0	
5775000000	0	0	-44.1912878786715	51.4435514432029	0	0	0	0	
5800000000	0	0	-44.285559538861	31.0888733336025	0	0	0	0	
5825000000	0	0	-44.7340991054467	12.6244238016712	0	0	0	0	
5850000000	0	0	-44.8755248430256	-14.182191731568	0	0	0	0	
5875000000	0	0	-46.8893047416082	-29.2444189198022	0	0	0	0	
5900000000	0	0	-46.4903161465666	-50.0407520784138	0	0	0	0	
5925000000	0	0	-45.9002177866953	-67.9155201369248	0	0	0	0	
5950000000	0	0	-49.0909166599297	-94.4741280352168	0	0	0	0	
5975000000	0	0	-47.4086645293185	-109.131156511463	0	0	0	0	
6000000000	0	0	-47.6895553209197	-118.102445064957	0	0	0	0	
