# Hz S RI R 50
2300000000 0.698921 0.326925
2303000000 0.715983 0.288891
2306000000 0.730492 0.250305
2309000000 0.743263 0.210631
2312000000 0.754524 0.169953
2315000000 0.763635 0.129128
2318000000 0.770086 0.0877926
2321000000 0.774498 0.0461869
2324000000 0.776712 0.00443757
2327000000 0.776744 -0.0373272
2330000000 0.774325 -0.078987
2333000000 0.76952 -0.120622
2336000000 0.762482 -0.161977
2339000000 0.752816 -0.203128
2342000000 0.74123 -0.243392
2345000000 0.727225 -0.283759
2348000000 0.711011 -0.322807
2351000000 0.692403 -0.36063
2354000000 0.671614 -0.398286
2357000000 0.648511 -0.434609
2360000000 0.623256 -0.469286
2363000000 0.595892 -0.503683
2366000000 0.566508 -0.536073
2369000000 0.534464 -0.566703
2372000000 0.501165 -0.595794
2375000000 0.466655 -0.62268
2378000000 0.428428 -0.648068
2381000000 0.389274 -0.671419
2384000000 0.348088 -0.692761
2387000000 0.305854 -0.710985
2390000000 0.261172 -0.727692
2393000000 0.216105 -0.740799
2396000000 0.169173 -0.751099
2399000000 0.120973 -0.759429
2402000000 0.0719979 -0.764324
2405000000 0.0216643 -0.76536
2408000000 -0.0284166 -0.763418
2411000000 -0.0785973 -0.758139
2414000000 -0.129661 -0.749268
2417000000 -0.181113 -0.736065
2420000000 -0.231146 -0.720114
2423000000 -0.281253 -0.699255
2426000000 -0.329893 -0.675267
2429000000 -0.377476 -0.647534
2432000000 -0.423233 -0.61569
2435000000 -0.467154 -0.580064
2438000000 -0.509189 -0.540339
2441000000 -0.547498 -0.497521
2444000000 -0.583214 -0.450618
2447000000 -0.614942 -0.401176
2450000000 -0.642945 -0.348646
2453000000 -0.666752 -0.293571
2456000000 -0.686516 -0.236353
2459000000 -0.701052 -0.177142
2462000000 -0.710338 -0.116737
2465000000 -0.714762 -0.0558345
2468000000 -0.713965 0.00560285
2471000000 -0.707645 0.0667098
2474000000 -0.696291 0.126911
2477000000 -0.679764 0.185805
2480000000 -0.658205 0.242722
2483000000 -0.631824 0.298073
2486000000 -0.601184 0.348777
2489000000 -0.566356 0.397688
2492000000 -0.528119 0.442861
2495000000 -0.486358 0.483692
2498000000 -0.442631 0.520046
2501000000 -0.396146 0.552583
2504000000 -0.348687 0.580427
2507000000 -0.298772 0.604552
2510000000 -0.249049 0.623043
2513000000 -0.197757 0.638226
2516000000 -0.148001 0.649013
2519000000 -0.0992354 0.655654
2522000000 -0.0480492 0.659561
2525000000 -8.11385e-05 0.657832
2528000000 0.0467909 0.653922
2531000000 0.0916949 0.647585
2534000000 0.135945 0.636653
2537000000 0.178479 0.623929
2540000000 0.219587 0.609524
2543000000 0.256515 0.591785
2546000000 0.293208 0.572832
2549000000 0.327183 0.551047
2552000000 0.359136 0.528593
2555000000 0.389208 0.50527
2558000000 0.416852 0.480167
2561000000 0.442689 0.454079
2564000000 0.466635 0.427119
2567000000 0.488736 0.399917
2570000000 0.508385 0.371731
2573000000 0.526444 0.342752
2576000000 0.542845 0.313821
2579000000 0.557325 0.28468
2582000000 0.570065 0.25517
2585000000 0.581065 0.226154
2588000000 0.590796 0.196356
2591000000 0.598956 0.166651
2594000000 0.605661 0.137127
2597000000 0.611024 0.107353
2600000000 0.614942 0.0779292
