!Keysight Technologies N9926A: A.08.19
!Date: Sunday, 01 March 2026 13:25:00
!Timezone: (GMT-06:00) Central Time (US & Canada)
!Model: N9926A
!Serial: MY53102721
!GPS Latitude: 
!GPS Longitude: 
!GPS TimeStamp: 0001-01-01 00:00:00Z
!GPS Seconds Since Last Read: 0
!CHECKSUM:1411687104
!Correction: S11()S21(ON U)S12()S22()
!S2P File: Measurements:S11,S21,S12,S22:
# Hz S DB R 50
1000000000	0	0	-69.3063025761745	59.0987649033838	0	0	0	0	
1025000000	0	0	-71.3592167416076	167.97854073044	0	0	0	0	
1050000000	0	0	-68.4690213392537	-13.6673205713583	0	0	0	0	
1075000000	0	0	-66.1205701447563	-52.7878764250287	0	0	0	0	
1100000000	0	0	-68.8839839964341	-95.3665252452408	0	0	0	0	
1125000000	0	0	-70.9574342148263	-68.9621312785869	0	0	0	0	
1150000000	0	0	-63.9773932804532	-141.764215374773	0	0	0	0	
1175000000	0	0	-59.4749095413338	155.546464251901	0	0	0	0	
1200000000	0	0	-61.3509923128254	50.8618789583821	0	0	0	0	
1225000000	0	0	-67.2505833688485	8.81752360022483	0	0	0	0	
1250000000	0	0	-57.2082727524994	155.557943318095	0	0	0	0	
1275000000	0	0	-69.5474677587943	20.4035253414124	0	0	0	0	
1300000000	0	0	-57.8535954966399	-25.3963872996141	0	0	0	0	
1325000000	0	0	-64.7258206285799	126.600511007916	0	0	0	0	
1350000000	0	0	-60.2876327700336	17.4929838698475	0	0	0	0	
1375000000	0	0	-50.6577899677189	-104.861713752693	0	0	0	0	
1400000000	0	0	-57.7428847222885	-132.358725981843	0	0	0	0	
1425000000	0	0	-66.8677468523017	131.672350579627	0	0	0	0	
1450000000	0	0	-54.3491946928436	50.5281691190894	0	0	0	0	
1475000000	0	0	-65.1015724909106	20.1781636288564	0	0	0	0	
1500000000	0	0	-69.0660287184021	-134.128777898141	0	0	0	0	
1525000000	0	0	-63.448619587042	73.5928278524747	0	0	0	0	
1550000000	0	0	-59.9886673443198	112.905992134691	0	0	0	0	
1575000000	0	0	-58.1865864935747	-104.798072867251	0	0	0	0	
1600000000	0	0	-57.3414277522926	-119.571085699339	0	0	0	0	
1625000000	0	0	-61.040465865033	86.0125925457645	0	0	0	0	
1650000000	0	0	-61.4820986786025	-101.690856343526	0	0	0	0	
1675000000	0	0	-56.5762160387774	-92.3315994022654	0	0	0	0	
1700000000	0	0	-54.2079413705276	151.424417663472	0	0	0	0	
1725000000	0	0	-75.0532987453615	-105.323929866573	0	0	0	0	
1750000000	0	0	-60.0225201595512	-126.491956076496	0	0	0	0	
1775000000	0	0	-61.553098736097	107.575908238737	0	0	0	0	
1800000000	0	0	-64.628035528275	61.8042443911229	0	0	0	0	
1825000000	0	0	-63.5452751811566	-161.602113657543	0	0	0	0	
1850000000	0	0	-62.3892583142583	110.722665732616	0	0	0	0	
1875000000	0	0	-63.007847437953	128.499188774395	0	0	0	0	
1900000000	0	0	-76.4107842315765	-95.7715341739798	0	0	0	0	
1925000000	0	0	-65.6070167936176	172.647788427232	0	0	0	0	
1950000000	0	0	-81.414081058081	-131.407648950436	0	0	0	0	
1975000000	0	0	-66.4043834482825	63.9744863721701	0	0	0	0	
2000000000	0	0	-67.4626206757518	28.1459662642259	0	0	0	0	
2025000000	0	0	-74.7834504213287	-84.4492006614992	0	0	0	0	
2050000000	0	0	-64.1875002333496	112.623491469635	0	0	0	0	
2075000000	0	0	-71.4955712234121	140.728625551903	0	0	0	0	
2100000000	0	0	-61.6784621156169	108.163291500424	0	0	0	0	
2125000000	0	0	-62.0701178195653	39.8047628772405	0	0	0	0	
2150000000	0	0	-66.6424662978192	40.4601855776956	0	0	0	0	
2175000000	0	0	-72.2478473530626	79.8479386147176	0	0	0	0	
2200000000	0	0	-74.7789088509942	-45.0485371907061	0	0	0	0	
2225000000	0	0	-71.6215452942662	-103.179353739304	0	0	0	0	
2250000000	0	0	-63.5632854670043	32.792726784204	0	0	0	0	
2275000000	0	0	-72.0804812349908	-4.00977452972268	0	0	0	0	
2300000000	0	0	-63.9018079723916	13.011315252016	0	0	0	0	
2325000000	0	0	-75.5338534906443	-83.8482804348281	0	0	0	0	
2350000000	0	0	-62.9027200298504	-36.4128184268597	0	0	0	0	
2375000000	0	0	-63.9435708440701	14.0369590016291	0	0	0	0	
2400000000	0	0	-63.8649717205381	-29.5692412923268	0	0	0	0	
2425000000	0	0	-61.8893985427707	29.1978191415388	0	0	0	0	
2450000000	0	0	-64.0085307995668	-26.8947795552878	0	0	0	0	
2475000000	0	0	-60.4524405034202	-13.1905221071318	0	0	0	0	
2500000000	0	0	-73.4680558484607	-42.2638551943067	0	0	0	0	
2525000000	0	0	-62.4870746521436	-56.13485563721	0	0	0	0	
2550000000	0	0	-58.8324246917842	-53.1452667742308	0	0	0	0	
2575000000	0	0	-62.8781579284251	-42.1355873605506	0	0	0	0	
2600000000	0	0	-59.6833657016238	-58.2227243995354	0	0	0	0	
2625000000	0	0	-74.1371473794051	-45.6855126930707	0	0	0	0	
2650000000	0	0	-61.1760663843836	-50.419213203343	0	0	0	0	
2675000000	0	0	-66.5017328102691	-110.421330798546	0	0	0	0	
2700000000	0	0	-68.1891602175225	-67.7357851376993	0	0	0	0	
2725000000	0	0	-62.2984268531662	-103.73830492826	0	0	0	0	
2750000000	0	0	-61.6974442525669	-71.3045379434311	0	0	0	0	
2775000000	0	0	-66.2064296544511	-111.242571465145	0	0	0	0	
2800000000	0	0	-61.0510721787054	-95.3003340191357	0	0	0	0	
2825000000	0	0	-63.690744350447	-111.409711364818	0	0	0	0	
2850000000	0	0	-57.9932196271705	-89.5198877466917	0	0	0	0	
2875000000	0	0	-61.0273754688487	-91.4369160884516	0	0	0	0	
2900000000	0	0	-61.2083371936656	-100.271864690173	0	0	0	0	
2925000000	0	0	-56.9859063133592	-91.8336070015211	0	0	0	0	
2950000000	0	0	-58.3278859916871	-124.571512612293	0	0	0	0	
2975000000	0	0	-56.6982619850183	-123.093514307671	0	0	0	0	
3000000000	0	0	-60.7764498771911	-123.161100420656	0	0	0	0	
3025000000	0	0	-58.9538162384671	-130.085902970769	0	0	0	0	
3050000000	0	0	-57.5467662834943	-108.038257619656	0	0	0	0	
3075000000	0	0	-54.9117978162223	-128.047352493958	0	0	0	0	
3100000000	0	0	-56.6979574745892	-127.682175438112	0	0	0	0	
3125000000	0	0	-61.5172162661127	-142.761112557382	0	0	0	0	
3150000000	0	0	-58.7380774486709	-103.396909419829	0	0	0	0	
3175000000	0	0	-53.8501962746381	-139.616646471835	0	0	0	0	
3200000000	0	0	-54.8923132895723	-121.212469414857	0	0	0	0	
3225000000	0	0	-55.3741905749365	-159.943554897667	0	0	0	0	
3250000000	0	0	-54.7721946971745	-153.805966065714	0	0	0	0	
3275000000	0	0	-55.2777659138184	-155.587272756135	0	0	0	0	
3300000000	0	0	-54.1958651167544	-174.661943666048	0	0	0	0	
3325000000	0	0	-53.6688045817261	-165.382629296468	0	0	0	0	
3350000000	0	0	-55.9632445888211	175.064841174003	0	0	0	0	
3375000000	0	0	-51.5746460791801	155.431587255975	0	0	0	0	
3400000000	0	0	-52.6039355319789	178.906849129207	0	0	0	0	
3425000000	0	0	-53.2737641980461	165.833358813585	0	0	0	0	
3450000000	0	0	-51.3943788141589	163.499419830421	0	0	0	0	
3475000000	0	0	-52.4919925398828	151.026895511324	0	0	0	0	
3500000000	0	0	-52.2183889563273	156.397147598785	0	0	0	0	
3525000000	0	0	-52.2528627836971	144.943548785633	0	0	0	0	
3550000000	0	0	-52.868483650493	140.41397226999	0	0	0	0	
3575000000	0	0	-52.4416703009092	139.97103656545	0	0	0	0	
3600000000	0	0	-51.4744810035212	141.833005571494	0	0	0	0	
3625000000	0	0	-49.0972374192231	122.484735175611	0	0	0	0	
3650000000	0	0	-49.9509355183034	122.865346196992	0	0	0	0	
3675000000	0	0	-49.2542891251587	118.044373202157	0	0	0	0	
3700000000	0	0	-49.8479325163342	119.676256866844	0	0	0	0	
3725000000	0	0	-48.9644941854775	100.73596613381	0	0	0	0	
3750000000	0	0	-49.8528099294705	94.247793646067	0	0	0	0	
3775000000	0	0	-49.0921018223425	97.8288211384412	0	0	0	0	
3800000000	0	0	-47.4996209032218	100.953380103362	0	0	0	0	
3825000000	0	0	-47.216447673797	90.8249578173574	0	0	0	0	
3850000000	0	0	-48.8947148202183	87.1496971403698	0	0	0	0	
3875000000	0	0	-47.3315170251974	84.2644534430568	0	0	0	0	
3900000000	0	0	-47.9734609756253	85.2238679524948	0	0	0	0	
3925000000	0	0	-46.7891922816419	82.2962619296813	0	0	0	0	
3950000000	0	0	-46.3015502740619	75.5273853731062	0	0	0	0	
3975000000	0	0	-47.256183177337	62.6144666574664	0	0	0	0	
4000000000	0	0	-47.8553448392722	61.5072152423157	0	0	0	0	
4025000000	0	0	-46.3163813808562	75.1086434627279	0	0	0	0	
4050000000	0	0	-44.9388638155151	54.312959206129	0	0	0	0	
4075000000	0	0	-44.997070062995	52.8662305075892	0	0	0	0	
4100000000	0	0	-44.9620696124039	39.0323695377442	0	0	0	0	
4125000000	0	0	-45.591801405241	46.854241850827	0	0	0	0	
4150000000	0	0	-44.2912215096087	41.748824538604	0	0	0	0	
4175000000	0	0	-44.7470387396519	50.4834030323084	0	0	0	0	
4200000000	0	0	-42.5473916119178	35.5492585107281	0	0	0	0	
4225000000	0	0	-42.6218337562495	38.7571856316731	0	0	0	0	
4250000000	0	0	-41.2747658715589	29.0907938467465	0	0	0	0	
4275000000	0	0	-41.0092797675876	23.1761887023747	0	0	0	0	
4300000000	0	0	-40.8697110283629	28.9568134200261	0	0	0	0	
4325000000	0	0	-39.512106849655	16.710675467561	0	0	0	0	
4350000000	0	0	-39.727228138864	6.3193829896038	0	0	0	0	
4375000000	0	0	-39.4477447408383	-4.21502468704331	0	0	0	0	
4400000000	0	0	-40.3862736302246	4.92646920522619	0	0	0	0	
4425000000	0	0	-39.9780975462857	6.58964458027763	0	0	0	0	
4450000000	0	0	-36.1828091327606	6.45444545505173	0	0	0	0	
4475000000	0	0	-35.3890925325126	-1.66967495463407	0	0	0	0	
4500000000	0	0	-36.2501659884865	-16.9589225182347	0	0	0	0	
4525000000	0	0	-35.7594452251038	-10.0685116183909	0	0	0	0	
4550000000	0	0	-32.5495449795395	-15.0280700722916	0	0	0	0	
4575000000	0	0	-32.9646736471991	-28.6549379260802	0	0	0	0	
4600000000	0	0	-32.5853182794935	-35.2563099503004	0	0	0	0	
4625000000	0	0	-31.6801365570337	-39.046254631704	0	0	0	0	
4650000000	0	0	-30.922518470574	-44.8803587328541	0	0	0	0	
4675000000	0	0	-31.4400494849736	-53.9355561361521	0	0	0	0	
4700000000	0	0	-29.1059004211534	-54.1487514977313	0	0	0	0	
4725000000	0	0	-28.895267920576	-60.2804180528316	0	0	0	0	
4750000000	0	0	-28.2280831100291	-77.2927624627182	0	0	0	0	
4775000000	0	0	-27.5381380685573	-82.1919297998789	0	0	0	0	
4800000000	0	0	-27.9300778908382	-81.4616472084616	0	0	0	0	
4825000000	0	0	-26.1658681570283	-91.1071463939018	0	0	0	0	
4850000000	0	0	-24.6906187353057	-96.610692135829	0	0	0	0	
4875000000	0	0	-24.0409561566554	-112.954280242638	0	0	0	0	
4900000000	0	0	-24.1683851034028	-117.918032747417	0	0	0	0	
4925000000	0	0	-23.4715212176848	-126.749172525176	0	0	0	0	
4950000000	0	0	-21.258136130733	-132.430568346291	0	0	0	0	
4975000000	0	0	-21.7583658445559	-147.083901791128	0	0	0	0	
5000000000	0	0	-21.205638938073	-162.358147803079	0	0	0	0	
5025000000	0	0	-20.8231579143696	-166.329663599462	0	0	0	0	
5050000000	0	0	-20.5451210352854	-169.449227193127	0	0	0	0	
5075000000	0	0	-19.179090012947	177.188944504818	0	0	0	0	
5100000000	0	0	-17.9326440701144	164.149394943672	0	0	0	0	
5125000000	0	0	-18.0176828212185	154.179545152879	0	0	0	0	
5150000000	0	0	-17.4573126069266	141.1640766665	0	0	0	0	
5175000000	0	0	-17.163796101675	126.606675529004	0	0	0	0	
5200000000	0	0	-16.9219370326656	115.811630272711	0	0	0	0	
5225000000	0	0	-16.8344780125251	102.142511358698	0	0	0	0	
5250000000	0	0	-16.9457462054812	89.3028424581861	0	0	0	0	
5275000000	0	0	-17.0903024670699	76.9426253226355	0	0	0	0	
5300000000	0	0	-17.1923606908905	63.1018126293903	0	0	0	0	
5325000000	0	0	-17.6826280545081	51.7976173350481	0	0	0	0	
5350000000	0	0	-18.5370362644086	39.7195048279013	0	0	0	0	
5375000000	0	0	-18.7724912567608	29.4288274756976	0	0	0	0	
5400000000	0	0	-18.9867075601011	20.9402311238968	0	0	0	0	
5425000000	0	0	-19.4771602748319	5.65581045476177	0	0	0	0	
5450000000	0	0	-20.8267899462846	-6.62415476350443	0	0	0	0	
5475000000	0	0	-21.7194167050668	-8.22858206329597	0	0	0	0	
5500000000	0	0	-21.8442786094446	-19.6668868420636	0	0	0	0	
5525000000	0	0	-22.7738550569991	-27.1515678627248	0	0	0	0	
5550000000	0	0	-23.1969061883554	-35.948385097302	0	0	0	0	
5575000000	0	0	-24.0394194368492	-41.9528279399968	0	0	0	0	
5600000000	0	0	-24.5849435153606	-48.5322907120549	0	0	0	0	
5625000000	0	0	-24.9743337464907	-57.0673847460613	0	0	0	0	
5650000000	0	0	-24.4474894956772	-62.1958566929035	0	0	0	0	
5675000000	0	0	-26.7924200694526	-75.221151735264	0	0	0	0	
5700000000	0	0	-26.4577891999484	-82.0275569433097	0	0	0	0	
5725000000	0	0	-27.8554234534282	-83.6198149731818	0	0	0	0	
5750000000	0	0	-28.2842216444753	-90.8620505022219	0	0	0	0	
5775000000	0	0	-28.865281487735	-92.3052435021352	0	0	0	0	
5800000000	0	0	-29.1331045460651	-100.157794872947	0	0	0	0	
5825000000	0	0	-29.1814894100949	-100.773765829215	0	0	0	0	
5850000000	0	0	-29.4920001604612	-110.779453294349	0	0	0	0	
5875000000	0	0	-31.5117150635302	-117.314891889247	0	0	0	0	
5900000000	0	0	-30.4802135575832	-115.055324210167	0	0	0	0	
5925000000	0	0	-30.7886970274849	-123.677790970138	0	0	0	0	
5950000000	0	0	-32.0686856838628	-136.914023523573	0	0	0	0	
5975000000	0	0	-33.5126435165789	-129.144163238262	0	0	0	0	
6000000000	0	0	-32.316575091258	-128.903725632068	0	0	0	0	
