!Keysight Technologies N9926A: A.08.19
!Date: Sunday, 01 March 2026 13:38:58
!Timezone: (GMT-06:00) Central Time (US & Canada)
!Model: N9926A
!Serial: MY53102721
!GPS Latitude: 
!GPS Longitude: 
!GPS TimeStamp: 0001-01-01 00:00:00Z
!GPS Seconds Since Last Read: 0
!CHECKSUM:1708753929
!Correction: S11()S21(ON U)S12()S22()
!S2P File: Measurements:S11,S21,S12,S22:
# Hz S DB R 50
1000000000	0	0	-82.2152855462446	173.267033534086	0	0	0	0	
1025000000	0	0	-68.0887124309395	-82.2832008977752	0	0	0	0	
1050000000	0	0	-74.9784047543382	174.051245031339	0	0	0	0	
1075000000	0	0	-76.8039824914297	-39.4237292005948	0	0	0	0	
1100000000	0	0	-64.6668632560568	170.481028309637	0	0	0	0	
1125000000	0	0	-68.2692099995198	87.8947446877159	0	0	0	0	
1150000000	0	0	-60.9592374601025	69.0504655841603	0	0	0	0	
1175000000	0	0	-61.8758849601728	-83.6765953606787	0	0	0	0	
1200000000	0	0	-57.1873835237024	155.759402269089	0	0	0	0	
1225000000	0	0	-62.7081091394222	110.937752921665	0	0	0	0	
1250000000	0	0	-69.3228888230538	-15.2777543939298	0	0	0	0	
1275000000	0	0	-66.057581977396	112.583606522508	0	0	0	0	
1300000000	0	0	-61.1661143119873	78.6006407461212	0	0	0	0	
1325000000	0	0	-57.7335105930288	141.784596015405	0	0	0	0	
1350000000	0	0	-59.7088959212018	176.192172073994	0	0	0	0	
1375000000	0	0	-64.6376673366869	159.116095405755	0	0	0	0	
1400000000	0	0	-63.5787733729164	148.515296400395	0	0	0	0	
1425000000	0	0	-57.7592274211483	66.6893629877231	0	0	0	0	
1450000000	0	0	-62.6611446241199	-81.6598198959948	0	0	0	0	
1475000000	0	0	-53.3156281382098	-53.1353330960745	0	0	0	0	
1500000000	0	0	-52.371918641373	108.844747449795	0	0	0	0	
1525000000	0	0	-76.214575619734	13.3975351349041	0	0	0	0	
1550000000	0	0	-57.2718791353601	151.909128349394	0	0	0	0	
1575000000	0	0	-68.5718608163004	38.2699511566562	0	0	0	0	
1600000000	0	0	-62.4710774230868	-165.927220306038	0	0	0	0	
1625000000	0	0	-64.8016644442538	77.9169125732563	0	0	0	0	
1650000000	0	0	-62.3899036226614	-111.437473737541	0	0	0	0	
1675000000	0	0	-60.5308948400522	17.5798250044341	0	0	0	0	
1700000000	0	0	-59.221224223477	-64.3940926889605	0	0	0	0	
1725000000	0	0	-73.4612437676556	146.92470396829	0	0	0	0	
1750000000	0	0	-66.6021532378095	-83.4502704777075	0	0	0	0	
1775000000	0	0	-61.2461268765382	-113.915625129501	0	0	0	0	
1800000000	0	0	-64.863426723768	-136.023398587007	0	0	0	0	
1825000000	0	0	-58.1425213817698	-58.9002185448323	0	0	0	0	
1850000000	0	0	-61.7800632688749	-0.0753941995874651	0	0	0	0	
1875000000	0	0	-63.4628149526668	-68.7785381027148	0	0	0	0	
1900000000	0	0	-65.479061492382	137.75485895604	0	0	0	0	
1925000000	0	0	-65.9680292223395	-169.680431445397	0	0	0	0	
1950000000	0	0	-71.1708845088657	29.2613491559489	0	0	0	0	
1975000000	0	0	-72.7938621190142	-168.236001227068	0	0	0	0	
2000000000	0	0	-62.5333022414213	-170.067136832441	0	0	0	0	
2025000000	0	0	-61.6424554001635	-97.3557166926207	0	0	0	0	
2050000000	0	0	-73.4270888291134	48.3569919034916	0	0	0	0	
2075000000	0	0	-69.7768445249113	28.2234316826772	0	0	0	0	
2100000000	0	0	-67.9663416493272	-34.7395349288559	0	0	0	0	
2125000000	0	0	-61.8140889924477	96.949008687213	0	0	0	0	
2150000000	0	0	-67.8408482202645	-72.4470758172022	0	0	0	0	
2175000000	0	0	-62.3797670563137	87.1799585358294	0	0	0	0	
2200000000	0	0	-61.0968333753182	68.0951154441127	0	0	0	0	
2225000000	0	0	-65.2240469299764	35.403783127503	0	0	0	0	
2250000000	0	0	-66.4306718926383	59.9036334697556	0	0	0	0	
2275000000	0	0	-63.0833607436713	77.7544100815713	0	0	0	0	
2300000000	0	0	-71.003229934583	-71.6527196352891	0	0	0	0	
2325000000	0	0	-71.1977994310909	178.734275204584	0	0	0	0	
2350000000	0	0	-71.618167232026	-103.5326485869	0	0	0	0	
2375000000	0	0	-70.7295406674484	-46.1725960198039	0	0	0	0	
2400000000	0	0	-68.5359425841216	-63.078492693309	0	0	0	0	
2425000000	0	0	-64.6979556755502	-118.353823172819	0	0	0	0	
2450000000	0	0	-64.3285035607741	168.891203716229	0	0	0	0	
2475000000	0	0	-64.5662166509422	-54.4444527830184	0	0	0	0	
2500000000	0	0	-74.9776511765217	-80.0692836589766	0	0	0	0	
2525000000	0	0	-62.4365654772634	-153.558592627427	0	0	0	0	
2550000000	0	0	-63.7382081706884	126.568982847632	0	0	0	0	
2575000000	0	0	-72.5030033809326	-159.255673413588	0	0	0	0	
2600000000	0	0	-67.6372850810259	111.834635361966	0	0	0	0	
2625000000	0	0	-62.0096361100693	45.6294803671256	0	0	0	0	
2650000000	0	0	-81.495684664531	-154.402722156011	0	0	0	0	
2675000000	0	0	-71.8919060789924	-129.197310813762	0	0	0	0	
2700000000	0	0	-70.3592737613076	177.371242555244	0	0	0	0	
2725000000	0	0	-68.4138722388891	99.5958867222249	0	0	0	0	
2750000000	0	0	-68.1808353824954	-92.7940161492688	0	0	0	0	
2775000000	0	0	-68.6312096141444	-144.480142796429	0	0	0	0	
2800000000	0	0	-69.7995301819907	-79.7945231290656	0	0	0	0	
2825000000	0	0	-71.2578277509074	98.9047513279338	0	0	0	0	
2850000000	0	0	-63.8593122533295	101.240797326354	0	0	0	0	
2875000000	0	0	-71.9472677854832	-130.894076655739	0	0	0	0	
2900000000	0	0	-67.043843043355	8.60920638121076	0	0	0	0	
2925000000	0	0	-66.4899598522723	151.321142055955	0	0	0	0	
2950000000	0	0	-73.628623229293	109.463708886059	0	0	0	0	
2975000000	0	0	-68.345771316842	-88.022629099318	0	0	0	0	
3000000000	0	0	-70.2514090766537	-147.962208669712	0	0	0	0	
3025000000	0	0	-76.7298711588634	-54.6775671693836	0	0	0	0	
3050000000	0	0	-71.3857127349259	86.3912847943508	0	0	0	0	
3075000000	0	0	-72.7632447869401	-58.4644812443548	0	0	0	0	
3100000000	0	0	-70.2935118546078	-50.0240875564617	0	0	0	0	
3125000000	0	0	-70.4881988992426	147.839235287072	0	0	0	0	
3150000000	0	0	-74.1472738904597	28.6014861571147	0	0	0	0	
3175000000	0	0	-61.9458002693109	40.2940085926849	0	0	0	0	
3200000000	0	0	-63.9472247580764	56.4314321752024	0	0	0	0	
3225000000	0	0	-66.5328582593014	-9.85421547282709	0	0	0	0	
3250000000	0	0	-75.429563226448	47.1856822494417	0	0	0	0	
3275000000	0	0	-65.2625089211324	-142.050493425388	0	0	0	0	
3300000000	0	0	-81.0328421961628	-130.952273440539	0	0	0	0	
3325000000	0	0	-71.289108388068	87.2782908083637	0	0	0	0	
3350000000	0	0	-75.3339970348601	-60.4076300428275	0	0	0	0	
3375000000	0	0	-62.7578373804029	-174.121058118045	0	0	0	0	
3400000000	0	0	-85.0517489100328	36.0722846080095	0	0	0	0	
3425000000	0	0	-82.8077651803534	64.6177302229212	0	0	0	0	
3450000000	0	0	-71.6884840350511	49.1537417523183	0	0	0	0	
3475000000	0	0	-69.0972171074853	79.3603794146045	0	0	0	0	
3500000000	0	0	-68.5600198969063	-91.7100948283099	0	0	0	0	
3525000000	0	0	-68.8150050030045	-103.133631313009	0	0	0	0	
3550000000	0	0	-64.3127959199495	-80.0175334941167	0	0	0	0	
3575000000	0	0	-78.3960956656269	-126.139596881325	0	0	0	0	
3600000000	0	0	-71.451257389629	-104.838037675607	0	0	0	0	
3625000000	0	0	-71.7439386009803	165.237736067168	0	0	0	0	
3650000000	0	0	-69.1261036216413	170.796563840027	0	0	0	0	
3675000000	0	0	-71.5985820331095	110.544810090902	0	0	0	0	
3700000000	0	0	-72.8000760040113	27.3833108669666	0	0	0	0	
3725000000	0	0	-67.1410557476678	29.7906844355227	0	0	0	0	
3750000000	0	0	-74.1714997443622	58.7150632754619	0	0	0	0	
3775000000	0	0	-60.1311529854289	35.673008087448	0	0	0	0	
3800000000	0	0	-62.9014532518992	26.1991983086145	0	0	0	0	
3825000000	0	0	-69.5133864720437	-44.5103169272199	0	0	0	0	
3850000000	0	0	-64.0028623534511	-67.4964881705959	0	0	0	0	
3875000000	0	0	-63.2234879543169	-120.187006244006	0	0	0	0	
3900000000	0	0	-63.2578977638649	-137.180565674169	0	0	0	0	
3925000000	0	0	-61.5970736112857	157.424733911191	0	0	0	0	
3950000000	0	0	-62.8594255118891	133.599665488011	0	0	0	0	
3975000000	0	0	-63.0822097813387	83.7114218495801	0	0	0	0	
4000000000	0	0	-64.1485021844686	130.460921252223	0	0	0	0	
4025000000	0	0	-63.9731196822808	56.5252427715942	0	0	0	0	
4050000000	0	0	-66.8342135992192	5.67281154152	0	0	0	0	
4075000000	0	0	-61.7889054069338	-7.34047530459892	0	0	0	0	
4100000000	0	0	-60.7468421977168	-39.9717164081565	0	0	0	0	
4125000000	0	0	-67.5359433938517	-53.2900943552429	0	0	0	0	
4150000000	0	0	-60.6387109779107	-88.7277311674748	0	0	0	0	
4175000000	0	0	-62.2464305504256	-103.314548835513	0	0	0	0	
4200000000	0	0	-60.4445217306081	-156.994334743947	0	0	0	0	
4225000000	0	0	-61.2748692594253	145.581228355743	0	0	0	0	
4250000000	0	0	-56.0183152804494	128.116690619298	0	0	0	0	
4275000000	0	0	-57.0615527984447	106.926703953671	0	0	0	0	
4300000000	0	0	-57.8297180846791	82.8451269583675	0	0	0	0	
4325000000	0	0	-57.3181944941452	43.5712294607507	0	0	0	0	
4350000000	0	0	-54.9313896490898	-6.26005943453646	0	0	0	0	
4375000000	0	0	-57.4636988385013	-41.3577013326884	0	0	0	0	
4400000000	0	0	-57.909532088812	-63.6245282847299	0	0	0	0	
4425000000	0	0	-57.265778112956	-76.4328203631926	0	0	0	0	
4450000000	0	0	-57.2243754749275	-103.79635750352	0	0	0	0	
4475000000	0	0	-55.9741092405307	-133.395801181001	0	0	0	0	
4500000000	0	0	-53.5296896809851	167.534720228248	0	0	0	0	
4525000000	0	0	-56.3338677193601	171.045891561287	0	0	0	0	
4550000000	0	0	-50.762703000017	119.960669931698	0	0	0	0	
4575000000	0	0	-51.7946440184674	68.29896322912	0	0	0	0	
4600000000	0	0	-51.866971780396	51.1649160468069	0	0	0	0	
4625000000	0	0	-51.4489812650509	7.96264657560857	0	0	0	0	
4650000000	0	0	-49.3050602977593	-18.7758204536013	0	0	0	0	
4675000000	0	0	-51.2403327560038	-54.3961074196224	0	0	0	0	
4700000000	0	0	-49.3002664138292	-76.9436268877342	0	0	0	0	
4725000000	0	0	-48.6167255185209	-111.981578937502	0	0	0	0	
4750000000	0	0	-49.0641933488144	-151.767300008738	0	0	0	0	
4775000000	0	0	-46.6517438431987	176.739391774135	0	0	0	0	
4800000000	0	0	-46.9160396565817	149.673513482834	0	0	0	0	
4825000000	0	0	-45.6111332357725	112.360683826858	0	0	0	0	
4850000000	0	0	-44.6772415793861	76.9184202139188	0	0	0	0	
4875000000	0	0	-42.7500534415624	38.2163906342879	0	0	0	0	
4900000000	0	0	-43.4493186655808	4.96287688130256	0	0	0	0	
4925000000	0	0	-42.2448747700643	-28.7263065813108	0	0	0	0	
4950000000	0	0	-40.3788592655835	-63.0055759731476	0	0	0	0	
4975000000	0	0	-40.8022498291594	-108.526608988129	0	0	0	0	
5000000000	0	0	-41.2127125042753	-152.984530435303	0	0	0	0	
5025000000	0	0	-40.681758801168	176.897313650742	0	0	0	0	
5050000000	0	0	-40.7275296602666	147.499451390015	0	0	0	0	
5075000000	0	0	-39.4162101262658	108.821476927913	0	0	0	0	
5100000000	0	0	-38.4991201164094	71.5801371332597	0	0	0	0	
5125000000	0	0	-37.7169355737734	34.3354398036014	0	0	0	0	
5150000000	0	0	-36.955788852346	-6.26969512666045	0	0	0	0	
5175000000	0	0	-36.6173616288432	-48.7341350510945	0	0	0	0	
5200000000	0	0	-36.5363254599699	-85.8406246005464	0	0	0	0	
5225000000	0	0	-36.233634345737	-126.009674673819	0	0	0	0	
5250000000	0	0	-36.0835534937035	-167.111382454814	0	0	0	0	
5275000000	0	0	-36.4317373705301	149.841222605602	0	0	0	0	
5300000000	0	0	-36.6717949248328	106.198532753246	0	0	0	0	
5325000000	0	0	-37.9671135692136	71.4396752418723	0	0	0	0	
5350000000	0	0	-38.7957433897154	34.0281538746782	0	0	0	0	
5375000000	0	0	-39.2330316065307	-3.31996863966128	0	0	0	0	
5400000000	0	0	-39.1581773306814	-37.0754587629298	0	0	0	0	
5425000000	0	0	-39.7808802154775	-79.1420261864579	0	0	0	0	
5450000000	0	0	-40.8517238833425	-117.611134147355	0	0	0	0	
5475000000	0	0	-41.6341285561894	-146.017443019917	0	0	0	0	
5500000000	0	0	-41.5166747432929	-179.883474907231	0	0	0	0	
5525000000	0	0	-42.3076243578802	143.883469909815	0	0	0	0	
5550000000	0	0	-43.0129597983535	105.069954482282	0	0	0	0	
5575000000	0	0	-43.5552595692678	73.1302040538786	0	0	0	0	
5600000000	0	0	-43.8451290878683	38.2992894334206	0	0	0	0	
5625000000	0	0	-44.6267543330506	-4.97448979659768	0	0	0	0	
5650000000	0	0	-44.6537256161659	-31.7437393340076	0	0	0	0	
5675000000	0	0	-46.468560292988	-68.982997186546	0	0	0	0	
5700000000	0	0	-47.2746008664539	-109.790848521229	0	0	0	0	
5725000000	0	0	-47.9480116259519	-132.535962776699	0	0	0	0	
5750000000	0	0	-48.7339543036367	-164.110760626877	0	0	0	0	
5775000000	0	0	-49.555612076393	178.412013762075	0	0	0	0	
5800000000	0	0	-48.5747142084674	133.539250168858	0	0	0	0	
5825000000	0	0	-48.1990037520412	106.672599007877	0	0	0	0	
5850000000	0	0	-48.2855238164413	66.3097756299201	0	0	0	0	
5875000000	0	0	-49.2372941013854	31.5050593324188	0	0	0	0	
5900000000	0	0	-49.09201264981	2.41085500913808	0	0	0	0	
5925000000	0	0	-49.1314465296343	-35.5654060056841	0	0	0	0	
5950000000	0	0	-52.6654166378274	-76.9830388379456	0	0	0	0	
5975000000	0	0	-52.6022085427784	-102.230092551266	0	0	0	0	
6000000000	0	0	-51.3836001536002	-124.035839274027	0	0	0	0	
