!Keysight Technologies N9926A: A.08.19
!Date: Sunday, 01 March 2026 13:40:07
!Timezone: (GMT-06:00) Central Time (US & Canada)
!Model: N9926A
!Serial: MY53102721
!GPS Latitude: 
!GPS Longitude: 
!GPS TimeStamp: 0001-01-01 00:00:00Z
!GPS Seconds Since Last Read: 0
!CHECKSUM:1146304121
!Correction: S11()S21(ON U)S12()S22()
!S2P File: Measurements:S11,S21,S12,S22:
# Hz S DB R 50
1000000000	0	0	-71.3823269077178	64.9656418896391	0	0	0	0	
1025000000	0	0	-68.4985842997916	38.5250641701199	0	0	0	0	
1050000000	0	0	-68.3588212045606	141.080862260532	0	0	0	0	
1075000000	0	0	-62.2980238397424	-37.1169798093206	0	0	0	0	
1100000000	0	0	-69.1590142711951	-8.98994516468534	0	0	0	0	
1125000000	0	0	-65.4814531209481	167.391299348308	0	0	0	0	
1150000000	0	0	-59.7592823416067	-27.685318427394	0	0	0	0	
1175000000	0	0	-64.9776098319105	-54.3960502069993	0	0	0	0	
1200000000	0	0	-79.9239577652079	16.0699447426885	0	0	0	0	
1225000000	0	0	-64.7248551246942	-136.801785620792	0	0	0	0	
1250000000	0	0	-61.2032376214296	154.917790585002	0	0	0	0	
1275000000	0	0	-57.1140641365506	38.6381946404238	0	0	0	0	
1300000000	0	0	-67.4418773797837	13.0446779686419	0	0	0	0	
1325000000	0	0	-65.6465005971687	54.5069147668703	0	0	0	0	
1350000000	0	0	-54.0689694123492	69.8447223870937	0	0	0	0	
1375000000	0	0	-63.7460715442951	-69.4330969231813	0	0	0	0	
1400000000	0	0	-64.9993153314053	94.8563433329438	0	0	0	0	
1425000000	0	0	-57.7434684877366	-124.340028505061	0	0	0	0	
1450000000	0	0	-56.0482223049308	-22.0529546524435	0	0	0	0	
1475000000	0	0	-54.822676708018	40.7693863393622	0	0	0	0	
1500000000	0	0	-51.947094213669	1.79385924829042	0	0	0	0	
1525000000	0	0	-67.9201549001366	172.381648633323	0	0	0	0	
1550000000	0	0	-57.2748148437658	-166.425925235605	0	0	0	0	
1575000000	0	0	-58.9527264406005	-21.0368076851546	0	0	0	0	
1600000000	0	0	-56.6816925722802	121.536606095023	0	0	0	0	
1625000000	0	0	-68.6287216824654	-138.055758464022	0	0	0	0	
1650000000	0	0	-64.8878495945018	-80.0438641215856	0	0	0	0	
1675000000	0	0	-63.0644027336589	-103.342467263929	0	0	0	0	
1700000000	0	0	-55.8549618055138	-32.0592078292178	0	0	0	0	
1725000000	0	0	-62.8176652188061	7.23834934560719	0	0	0	0	
1750000000	0	0	-63.2073932142732	147.124501938585	0	0	0	0	
1775000000	0	0	-59.8723748295647	85.2077944886452	0	0	0	0	
1800000000	0	0	-73.1678883448616	-133.228890081817	0	0	0	0	
1825000000	0	0	-63.7801294226866	157.02975282807	0	0	0	0	
1850000000	0	0	-66.4722675310185	119.654063513773	0	0	0	0	
1875000000	0	0	-67.2235254777785	-37.02606140793	0	0	0	0	
1900000000	0	0	-63.8560588693332	-148.23057203028	0	0	0	0	
1925000000	0	0	-65.1150875100633	-78.845019955947	0	0	0	0	
1950000000	0	0	-76.9275362226822	-96.6449936691371	0	0	0	0	
1975000000	0	0	-62.9745864863024	142.430628177692	0	0	0	0	
2000000000	0	0	-71.8650646697919	-78.3574606625179	0	0	0	0	
2025000000	0	0	-60.805416036988	117.405035632294	0	0	0	0	
2050000000	0	0	-80.0989144560249	-41.2307566784054	0	0	0	0	
2075000000	0	0	-60.4310374395441	-106.37000543287	0	0	0	0	
2100000000	0	0	-72.2061630304428	169.702530115734	0	0	0	0	
2125000000	0	0	-64.5768337897041	96.2090768183737	0	0	0	0	
2150000000	0	0	-71.4845861931403	30.0773992424226	0	0	0	0	
2175000000	0	0	-73.9638743693675	85.6628708781413	0	0	0	0	
2200000000	0	0	-75.3702495121799	127.443515104336	0	0	0	0	
2225000000	0	0	-78.2033920136666	64.8582245950475	0	0	0	0	
2250000000	0	0	-67.1453663256839	-133.829293871889	0	0	0	0	
2275000000	0	0	-75.6199097337495	-148.584432808839	0	0	0	0	
2300000000	0	0	-70.6083614710077	-89.5070236517705	0	0	0	0	
2325000000	0	0	-70.9265269684212	-46.9148808529082	0	0	0	0	
2350000000	0	0	-86.3469700090776	-52.4520898768062	0	0	0	0	
2375000000	0	0	-69.0820295723385	103.578954092811	0	0	0	0	
2400000000	0	0	-65.1032795838216	-11.0075772014866	0	0	0	0	
2425000000	0	0	-69.175579732908	177.039653842337	0	0	0	0	
2450000000	0	0	-67.7245448830093	19.4963371614007	0	0	0	0	
2475000000	0	0	-73.9867245189266	35.2278225009474	0	0	0	0	
2500000000	0	0	-71.9485766882674	-39.5608384260613	0	0	0	0	
2525000000	0	0	-62.5873534749191	-166.558506989241	0	0	0	0	
2550000000	0	0	-70.2085073342806	-27.5366004355985	0	0	0	0	
2575000000	0	0	-75.9366648827504	81.9598877467934	0	0	0	0	
2600000000	0	0	-69.2172061812496	60.0034621822034	0	0	0	0	
2625000000	0	0	-71.3944727506913	102.419027751617	0	0	0	0	
2650000000	0	0	-62.9251892291215	-38.8095526311109	0	0	0	0	
2675000000	0	0	-77.8609311338455	67.220266822183	0	0	0	0	
2700000000	0	0	-67.3674585882144	-126.394745494352	0	0	0	0	
2725000000	0	0	-71.750869497547	-73.6620461895824	0	0	0	0	
2750000000	0	0	-69.8780156330861	82.3580929654445	0	0	0	0	
2775000000	0	0	-65.5550261807896	84.0887369495019	0	0	0	0	
2800000000	0	0	-64.2979675833348	174.714384274128	0	0	0	0	
2825000000	0	0	-66.9378102145409	-43.9448204008787	0	0	0	0	
2850000000	0	0	-66.3091871764366	119.5106086146	0	0	0	0	
2875000000	0	0	-79.8868550869844	159.971841503135	0	0	0	0	
2900000000	0	0	-80.9860154247821	28.3619856342697	0	0	0	0	
2925000000	0	0	-69.2637719087649	-112.984672223276	0	0	0	0	
2950000000	0	0	-63.6048372241874	16.7259229210343	0	0	0	0	
2975000000	0	0	-72.7237273060278	50.833715002698	0	0	0	0	
3000000000	0	0	-70.4835315515976	-156.674146936568	0	0	0	0	
3025000000	0	0	-75.0335728908418	79.1193559975714	0	0	0	0	
3050000000	0	0	-65.0486663471064	157.169164945319	0	0	0	0	
3075000000	0	0	-68.4868240122495	-173.325107314772	0	0	0	0	
3100000000	0	0	-107.034501473887	-46.2850943631372	0	0	0	0	
3125000000	0	0	-75.2459754130246	121.606713102028	0	0	0	0	
3150000000	0	0	-65.2935448742331	10.6964677624929	0	0	0	0	
3175000000	0	0	-64.0671651326154	30.1974767675151	0	0	0	0	
3200000000	0	0	-71.5780756141243	-63.5894511875912	0	0	0	0	
3225000000	0	0	-64.808240151649	-95.1886799032225	0	0	0	0	
3250000000	0	0	-67.8440956321144	-56.3089651698296	0	0	0	0	
3275000000	0	0	-73.3311133108844	159.647931513365	0	0	0	0	
3300000000	0	0	-65.5205103832178	-166.410608733735	0	0	0	0	
3325000000	0	0	-69.3463526196959	166.200754584663	0	0	0	0	
3350000000	0	0	-71.0177629975471	7.27112248916121	0	0	0	0	
3375000000	0	0	-69.2325160640468	-108.778204164525	0	0	0	0	
3400000000	0	0	-69.5946535333714	121.494653826585	0	0	0	0	
3425000000	0	0	-83.7941908407333	1.24879274810041	0	0	0	0	
3450000000	0	0	-72.8501000444163	-50.6615105261309	0	0	0	0	
3475000000	0	0	-67.9913445211643	11.5313339636521	0	0	0	0	
3500000000	0	0	-75.9140599797348	18.1544541100884	0	0	0	0	
3525000000	0	0	-91.3307326754182	160.36060168566	0	0	0	0	
3550000000	0	0	-66.5710955089482	-140.591117690901	0	0	0	0	
3575000000	0	0	-69.2402241196644	-133.296463556038	0	0	0	0	
3600000000	0	0	-68.232985256986	179.98048803169	0	0	0	0	
3625000000	0	0	-68.7529552916112	102.573281278754	0	0	0	0	
3650000000	0	0	-65.293120315679	60.0769174438621	0	0	0	0	
3675000000	0	0	-77.2871657835856	143.804255246314	0	0	0	0	
3700000000	0	0	-64.3915474438341	-1.6754393106389	0	0	0	0	
3725000000	0	0	-68.4319666607587	54.6773661885745	0	0	0	0	
3750000000	0	0	-67.286808890331	-82.2052169751986	0	0	0	0	
3775000000	0	0	-62.5181110207112	-77.0435743035753	0	0	0	0	
3800000000	0	0	-69.922150367649	-114.083967880024	0	0	0	0	
3825000000	0	0	-62.8824252383587	-149.759837095886	0	0	0	0	
3850000000	0	0	-67.2870256728451	125.921287623111	0	0	0	0	
3875000000	0	0	-68.8542805626686	99.9066395784539	0	0	0	0	
3900000000	0	0	-72.4652874843429	-139.555524736034	0	0	0	0	
3925000000	0	0	-63.0381744616216	106.626586850483	0	0	0	0	
3950000000	0	0	-64.0501131833553	12.8825685586708	0	0	0	0	
3975000000	0	0	-67.0802773517842	-37.7651233775754	0	0	0	0	
4000000000	0	0	-69.7810057646177	-28.5321357754676	0	0	0	0	
4025000000	0	0	-63.661903403725	-37.9304630858802	0	0	0	0	
4050000000	0	0	-66.8087215625098	-54.8420504580211	0	0	0	0	
4075000000	0	0	-64.785931460559	-123.107273505952	0	0	0	0	
4100000000	0	0	-62.3383399368763	-156.736937883799	0	0	0	0	
4125000000	0	0	-60.6292174193971	131.23741899148	0	0	0	0	
4150000000	0	0	-61.4819393767368	106.841575286429	0	0	0	0	
4175000000	0	0	-63.5059129441234	83.7697661948902	0	0	0	0	
4200000000	0	0	-59.4851232747764	9.18745604096594	0	0	0	0	
4225000000	0	0	-64.889420796594	49.4945831599571	0	0	0	0	
4250000000	0	0	-59.7008169799545	-15.9733759561049	0	0	0	0	
4275000000	0	0	-60.9601354924678	-43.0093491186505	0	0	0	0	
4300000000	0	0	-60.1204106399318	-68.7641733212092	0	0	0	0	
4325000000	0	0	-55.1526542456478	-129.549852936601	0	0	0	0	
4350000000	0	0	-57.6867849145711	-155.645280142366	0	0	0	0	
4375000000	0	0	-57.3375929159332	-174.325545277058	0	0	0	0	
4400000000	0	0	-62.2790302558525	122.700531896975	0	0	0	0	
4425000000	0	0	-59.8079563691055	105.023278500934	0	0	0	0	
4450000000	0	0	-56.6066347845219	80.6300308532551	0	0	0	0	
4475000000	0	0	-54.1779137773677	38.5291462920638	0	0	0	0	
4500000000	0	0	-55.4527788207545	-11.6148713048311	0	0	0	0	
4525000000	0	0	-55.5900731654345	-39.4843598743635	0	0	0	0	
4550000000	0	0	-51.3446684678614	-62.7730457768415	0	0	0	0	
4575000000	0	0	-56.168014048909	-119.318198610065	0	0	0	0	
4600000000	0	0	-52.7664214001784	-157.768593789923	0	0	0	0	
4625000000	0	0	-52.5212254160041	-173.144098028865	0	0	0	0	
4650000000	0	0	-52.8435109125029	150.423762497262	0	0	0	0	
4675000000	0	0	-51.3237882269612	102.4374775887	0	0	0	0	
4700000000	0	0	-50.3561480465601	76.5076348012338	0	0	0	0	
4725000000	0	0	-50.0428405982531	33.3439058642706	0	0	0	0	
4750000000	0	0	-49.0773506485608	-5.54633236521641	0	0	0	0	
4775000000	0	0	-48.7044818952018	-35.8563934988917	0	0	0	0	
4800000000	0	0	-47.3274959753296	-63.0506153864021	0	0	0	0	
4825000000	0	0	-45.6757549983258	-105.892570152192	0	0	0	0	
4850000000	0	0	-44.2968165992783	-139.146376506649	0	0	0	0	
4875000000	0	0	-43.6411921417222	166.732120021937	0	0	0	0	
4900000000	0	0	-44.3502254783349	131.42491867201	0	0	0	0	
4925000000	0	0	-44.485629800941	90.3941794575417	0	0	0	0	
4950000000	0	0	-41.7105615758635	55.3602727724705	0	0	0	0	
4975000000	0	0	-42.3772612304055	11.9805512809215	0	0	0	0	
5000000000	0	0	-42.3129689102819	-29.1869646399704	0	0	0	0	
5025000000	0	0	-42.071428678068	-63.9477839418042	0	0	0	0	
5050000000	0	0	-41.4964937693488	-93.0893317194978	0	0	0	0	
5075000000	0	0	-39.2696133082055	-135.564638104336	0	0	0	0	
5100000000	0	0	-38.0642398570774	177.477401666726	0	0	0	0	
5125000000	0	0	-37.8293977419166	137.595942790214	0	0	0	0	
5150000000	0	0	-36.9707085772411	89.640799455408	0	0	0	0	
5175000000	0	0	-37.0842897930155	47.9652621707439	0	0	0	0	
5200000000	0	0	-36.9199636077553	2.62221249043851	0	0	0	0	
5225000000	0	0	-37.3812324276676	-39.5677841023997	0	0	0	0	
5250000000	0	0	-37.1717834197254	-82.8416874678127	0	0	0	0	
5275000000	0	0	-38.0387754020318	-124.956010746613	0	0	0	0	
5300000000	0	0	-38.2320998083871	-167.624349795956	0	0	0	0	
5325000000	0	0	-38.8491574639063	151.7357015176	0	0	0	0	
5350000000	0	0	-40.1205493861485	110.522892893086	0	0	0	0	
5375000000	0	0	-40.4165391328895	74.0592364881732	0	0	0	0	
5400000000	0	0	-40.0577754372276	39.6306765938515	0	0	0	0	
5425000000	0	0	-40.2683361815886	-3.54870710109247	0	0	0	0	
5450000000	0	0	-41.4129121059202	-49.6179116516845	0	0	0	0	
5475000000	0	0	-41.8477237156877	-85.2335591580693	0	0	0	0	
5500000000	0	0	-41.7293526272655	-125.902159948504	0	0	0	0	
5525000000	0	0	-43.05141037434	-166.783436436542	0	0	0	0	
5550000000	0	0	-43.4123209240668	156.296650703347	0	0	0	0	
5575000000	0	0	-43.7972096632761	118.222186657379	0	0	0	0	
5600000000	0	0	-45.1251231217027	79.2922724298703	0	0	0	0	
5625000000	0	0	-45.834636309579	40.469848807741	0	0	0	0	
5650000000	0	0	-45.8423536426816	5.68906485087066	0	0	0	0	
5675000000	0	0	-48.2411022540302	-29.0140483530249	0	0	0	0	
5700000000	0	0	-47.6606184250307	-59.6210761545137	0	0	0	0	
5725000000	0	0	-48.6734249512514	-92.9759231239713	0	0	0	0	
5750000000	0	0	-48.8328623248718	-128.343977071423	0	0	0	0	
5775000000	0	0	-49.3650682609125	-159.169251521206	0	0	0	0	
5800000000	0	0	-48.8428465074162	149.371749946634	0	0	0	0	
5825000000	0	0	-49.347735328089	122.088810815034	0	0	0	0	
5850000000	0	0	-48.335342805281	88.4784355572404	0	0	0	0	
5875000000	0	0	-50.1038983228334	41.7948598702892	0	0	0	0	
5900000000	0	0	-49.4478461920241	12.9641808515016	0	0	0	0	
5925000000	0	0	-51.612636056582	-17.5519237114635	0	0	0	0	
5950000000	0	0	-53.531337708614	-75.7395718302715	0	0	0	0	
5975000000	0	0	-54.9768673289008	-92.33359734057	0	0	0	0	
6000000000	0	0	-54.328292996263	-121.412236407687	0	0	0	0	
