!Keysight Technologies N9926A: A.08.19
!Date: Sunday, 01 March 2026 13:40:48
!Timezone: (GMT-06:00) Central Time (US & Canada)
!Model: N9926A
!Serial: MY53102721
!GPS Latitude: 
!GPS Longitude: 
!GPS TimeStamp: 0001-01-01 00:00:00Z
!GPS Seconds Since Last Read: 0
!CHECKSUM:1584693734
!Correction: S11()S21(ON U)S12()S22()
!S2P File: Measurements:S11,S21,S12,S22:
# Hz S DB R 50
1000000000	0	0	-68.8458650921496	4.95725218864397	0	0	0	0	
1025000000	0	0	-64.7345736856934	-99.7284151761782	0	0	0	0	
1050000000	0	0	-62.3729767969653	-122.915329951706	0	0	0	0	
1075000000	0	0	-62.0339236111657	-66.9688094691261	0	0	0	0	
1100000000	0	0	-64.3547214684707	16.9953408568734	0	0	0	0	
1125000000	0	0	-65.5746168621197	70.5774986811617	0	0	0	0	
1150000000	0	0	-65.3988587675923	-75.753153537222	0	0	0	0	
1175000000	0	0	-65.6328894367826	73.4984886710031	0	0	0	0	
1200000000	0	0	-80.7188079547685	-61.0233761981136	0	0	0	0	
1225000000	0	0	-61.0587831770357	-128.410817891591	0	0	0	0	
1250000000	0	0	-57.5649808797106	-169.238113819759	0	0	0	0	
1275000000	0	0	-55.021994983397	-101.999488997397	0	0	0	0	
1300000000	0	0	-70.2753571093936	110.805520205707	0	0	0	0	
1325000000	0	0	-60.5777564113957	-52.8012025384774	0	0	0	0	
1350000000	0	0	-65.3577592144159	116.296607743049	0	0	0	0	
1375000000	0	0	-49.3832672001432	-157.857016044412	0	0	0	0	
1400000000	0	0	-59.8175752804768	40.5383622105712	0	0	0	0	
1425000000	0	0	-50.6638963869965	97.1331322506377	0	0	0	0	
1450000000	0	0	-55.9062649541883	112.929335218291	0	0	0	0	
1475000000	0	0	-53.1773383326502	-34.6938265721391	0	0	0	0	
1500000000	0	0	-53.2602621934283	-174.965271898307	0	0	0	0	
1525000000	0	0	-64.7706213386642	-43.7364765008177	0	0	0	0	
1550000000	0	0	-61.4393161227264	-141.434447507738	0	0	0	0	
1575000000	0	0	-54.4701332723388	-165.691057433023	0	0	0	0	
1600000000	0	0	-65.0161537026087	132.983586963735	0	0	0	0	
1625000000	0	0	-60.6148603353647	-4.08121411936015	0	0	0	0	
1650000000	0	0	-61.8228174141851	-2.23471932503837	0	0	0	0	
1675000000	0	0	-56.4978073155877	85.7828897132061	0	0	0	0	
1700000000	0	0	-55.9707547933256	21.0243256875093	0	0	0	0	
1725000000	0	0	-58.5628508665358	-178.425362528029	0	0	0	0	
1750000000	0	0	-72.6535819915345	127.632079434738	0	0	0	0	
1775000000	0	0	-68.8835839340568	151.705080449451	0	0	0	0	
1800000000	0	0	-66.8732662141785	32.2818152301949	0	0	0	0	
1825000000	0	0	-66.2118312004442	-8.80524844658969	0	0	0	0	
1850000000	0	0	-74.6608027101366	-132.129540418395	0	0	0	0	
1875000000	0	0	-70.9389290984683	-71.1326056498514	0	0	0	0	
1900000000	0	0	-58.1432977059746	-62.2284656543243	0	0	0	0	
1925000000	0	0	-73.2355695254971	128.634021143912	0	0	0	0	
1950000000	0	0	-72.7053035931818	-94.0411032014565	0	0	0	0	
1975000000	0	0	-58.9092047074525	137.012155024152	0	0	0	0	
2000000000	0	0	-68.0833159570853	-131.841785194803	0	0	0	0	
2025000000	0	0	-73.025375320829	-49.3614518650953	0	0	0	0	
2050000000	0	0	-68.6203565462363	70.7195277971738	0	0	0	0	
2075000000	0	0	-64.4847427301133	-12.0244365095143	0	0	0	0	
2100000000	0	0	-61.9565817673721	-44.2912969016657	0	0	0	0	
2125000000	0	0	-70.2305530439925	40.5716966180271	0	0	0	0	
2150000000	0	0	-67.8170215096045	-114.655213894494	0	0	0	0	
2175000000	0	0	-66.2797711230731	-118.036365222551	0	0	0	0	
2200000000	0	0	-66.0203584749822	130.166606967516	0	0	0	0	
2225000000	0	0	-71.1052858127309	19.8159142059392	0	0	0	0	
2250000000	0	0	-70.1394882817873	0.879997221327247	0	0	0	0	
2275000000	0	0	-68.7462210492243	-71.3941650975178	0	0	0	0	
2300000000	0	0	-65.9414007379322	-11.9829384508116	0	0	0	0	
2325000000	0	0	-71.1391681977186	-89.1343507339073	0	0	0	0	
2350000000	0	0	-69.669607380276	-95.2812220640266	0	0	0	0	
2375000000	0	0	-65.4540702056561	-171.873199004951	0	0	0	0	
2400000000	0	0	-71.7560885253987	-65.6000446234045	0	0	0	0	
2425000000	0	0	-72.5525175435515	-51.0496969121197	0	0	0	0	
2450000000	0	0	-61.4459441821014	-17.2940916861372	0	0	0	0	
2475000000	0	0	-79.5015438321769	101.071039105101	0	0	0	0	
2500000000	0	0	-71.4201126788425	60.7969791032257	0	0	0	0	
2525000000	0	0	-69.4763459473193	179.841027034482	0	0	0	0	
2550000000	0	0	-63.1230426493838	23.6511506494259	0	0	0	0	
2575000000	0	0	-68.6780680902139	120.372986135767	0	0	0	0	
2600000000	0	0	-78.5389920753353	174.432529930831	0	0	0	0	
2625000000	0	0	-66.9472132852058	163.209097738662	0	0	0	0	
2650000000	0	0	-71.5959201495831	-127.653087883395	0	0	0	0	
2675000000	0	0	-74.1926512749819	-90.8640440429716	0	0	0	0	
2700000000	0	0	-65.322393868119	-76.9989165338205	0	0	0	0	
2725000000	0	0	-83.2363806471163	-84.9422871520253	0	0	0	0	
2750000000	0	0	-70.5738665783328	65.5869801223606	0	0	0	0	
2775000000	0	0	-64.862329826194	-126.557777473353	0	0	0	0	
2800000000	0	0	-68.5859578725992	-130.92068449997	0	0	0	0	
2825000000	0	0	-77.9102661573933	102.044160721891	0	0	0	0	
2850000000	0	0	-66.0399935595923	60.0118778251786	0	0	0	0	
2875000000	0	0	-76.2086208333782	-28.6435417611628	0	0	0	0	
2900000000	0	0	-72.429501127371	133.883991689902	0	0	0	0	
2925000000	0	0	-75.4739803832301	87.7400656876174	0	0	0	0	
2950000000	0	0	-70.1663727659497	-50.8001413803624	0	0	0	0	
2975000000	0	0	-73.2952290237205	-100.720413615531	0	0	0	0	
3000000000	0	0	-72.9326905004111	-136.779552047198	0	0	0	0	
3025000000	0	0	-75.9766780103652	-17.1987531394105	0	0	0	0	
3050000000	0	0	-65.9029224466316	-129.280895256444	0	0	0	0	
3075000000	0	0	-66.6977534477407	-18.4184527933916	0	0	0	0	
3100000000	0	0	-67.5647897763431	89.184744623838	0	0	0	0	
3125000000	0	0	-72.7676240656133	-21.9651077248163	0	0	0	0	
3150000000	0	0	-62.3824239101596	66.8401258682013	0	0	0	0	
3175000000	0	0	-68.5828380114629	11.2256839164447	0	0	0	0	
3200000000	0	0	-67.3148020636437	-90.6594787860901	0	0	0	0	
3225000000	0	0	-69.4725103194282	-164.403156879829	0	0	0	0	
3250000000	0	0	-70.6873083201858	-117.25831849981	0	0	0	0	
3275000000	0	0	-62.9988285938088	126.141678633397	0	0	0	0	
3300000000	0	0	-69.8889316283487	101.991563734934	0	0	0	0	
3325000000	0	0	-69.9616439007201	-170.552583980273	0	0	0	0	
3350000000	0	0	-68.0096941711247	100.809072551918	0	0	0	0	
3375000000	0	0	-76.4665901613669	89.8296077855092	0	0	0	0	
3400000000	0	0	-75.3074715963801	51.4366209560633	0	0	0	0	
3425000000	0	0	-69.8425247617295	60.1630444176936	0	0	0	0	
3450000000	0	0	-77.9092777706415	-112.741334445596	0	0	0	0	
3475000000	0	0	-67.754195396257	174.798126288645	0	0	0	0	
3500000000	0	0	-77.1302322719856	-58.2577922412255	0	0	0	0	
3525000000	0	0	-77.6758845516722	-25.3115058439639	0	0	0	0	
3550000000	0	0	-84.9815779484156	-37.7778616440744	0	0	0	0	
3575000000	0	0	-69.1865640566834	78.8698262742608	0	0	0	0	
3600000000	0	0	-66.786486414096	36.9969469727455	0	0	0	0	
3625000000	0	0	-69.3857723370574	0.530536610759786	0	0	0	0	
3650000000	0	0	-63.3761656264287	-8.57334647238234	0	0	0	0	
3675000000	0	0	-71.3833835020647	-93.4243332669523	0	0	0	0	
3700000000	0	0	-72.4963337826048	174.498582355249	0	0	0	0	
3725000000	0	0	-72.7830397887716	-37.400405803408	0	0	0	0	
3750000000	0	0	-71.2971359849187	-166.044648104537	0	0	0	0	
3775000000	0	0	-69.6602566362655	-159.620806240256	0	0	0	0	
3800000000	0	0	-64.5674762272509	-178.445945718698	0	0	0	0	
3825000000	0	0	-66.4215608256619	93.8983903374715	0	0	0	0	
3850000000	0	0	-65.5087062750895	86.2287198438326	0	0	0	0	
3875000000	0	0	-69.4718487956885	85.7260603212836	0	0	0	0	
3900000000	0	0	-63.66110416562	-5.20171830258406	0	0	0	0	
3925000000	0	0	-67.6971379314362	-37.3826604139661	0	0	0	0	
3950000000	0	0	-64.1379583522902	-15.6900603902515	0	0	0	0	
3975000000	0	0	-70.4365563547318	-157.195353571776	0	0	0	0	
4000000000	0	0	-75.5409727155358	-169.415759936318	0	0	0	0	
4025000000	0	0	-63.5097980466399	-125.850617030639	0	0	0	0	
4050000000	0	0	-66.1622550838242	112.746125000102	0	0	0	0	
4075000000	0	0	-63.5527144522007	110.61817462235	0	0	0	0	
4100000000	0	0	-65.9747600065265	75.908045941003	0	0	0	0	
4125000000	0	0	-61.9201030569937	26.8558324739095	0	0	0	0	
4150000000	0	0	-60.3459643040963	-13.0832537773662	0	0	0	0	
4175000000	0	0	-71.9858523622956	-41.7978484073185	0	0	0	0	
4200000000	0	0	-62.525401876218	-80.4105615855748	0	0	0	0	
4225000000	0	0	-59.508370212097	-103.187183949253	0	0	0	0	
4250000000	0	0	-59.2356080921041	-165.318154277409	0	0	0	0	
4275000000	0	0	-58.5900479818566	140.292964432363	0	0	0	0	
4300000000	0	0	-61.7095371752774	142.628623203795	0	0	0	0	
4325000000	0	0	-61.8480473335707	90.8972864633496	0	0	0	0	
4350000000	0	0	-57.1332346656709	21.4871342962335	0	0	0	0	
4375000000	0	0	-61.5403336511032	-18.7816121714174	0	0	0	0	
4400000000	0	0	-61.0118600815761	-34.2879863679147	0	0	0	0	
4425000000	0	0	-63.4090617590993	-64.0141080004676	0	0	0	0	
4450000000	0	0	-55.3417180171803	-98.8039493428349	0	0	0	0	
4475000000	0	0	-54.9949998284483	-138.868345208709	0	0	0	0	
4500000000	0	0	-58.8946939190948	169.662807084928	0	0	0	0	
4525000000	0	0	-59.3131353368262	123.184124364407	0	0	0	0	
4550000000	0	0	-54.1734679832272	104.057821874082	0	0	0	0	
4575000000	0	0	-56.7809101128927	55.0772057212301	0	0	0	0	
4600000000	0	0	-55.0165814255604	32.4470763821788	0	0	0	0	
4625000000	0	0	-52.7459297882249	-8.79003177721979	0	0	0	0	
4650000000	0	0	-50.9264242820152	-54.3191056480204	0	0	0	0	
4675000000	0	0	-52.7312306726116	-99.7688300043976	0	0	0	0	
4700000000	0	0	-50.3798939845182	-116.886143682592	0	0	0	0	
4725000000	0	0	-51.1396887611323	-168.566956180712	0	0	0	0	
4750000000	0	0	-50.1038280868098	141.473372374948	0	0	0	0	
4775000000	0	0	-48.8727297848123	109.640901507095	0	0	0	0	
4800000000	0	0	-48.9051317386128	79.0309823380579	0	0	0	0	
4825000000	0	0	-46.9700288855938	25.7624526797466	0	0	0	0	
4850000000	0	0	-45.6772556635122	-9.95234861401521	0	0	0	0	
4875000000	0	0	-46.0101029277106	-60.883521229276	0	0	0	0	
4900000000	0	0	-47.8647275529317	-95.8655916284056	0	0	0	0	
4925000000	0	0	-46.0946301765935	-132.28026810416	0	0	0	0	
4950000000	0	0	-43.4004746639166	-168.610853320748	0	0	0	0	
4975000000	0	0	-43.2002767930231	142.470096407972	0	0	0	0	
5000000000	0	0	-41.8197543730713	91.06111595288	0	0	0	0	
5025000000	0	0	-41.9868778171	53.9529022728451	0	0	0	0	
5050000000	0	0	-41.5226436398573	15.0871537053815	0	0	0	0	
5075000000	0	0	-39.9525322013387	-35.7059448144066	0	0	0	0	
5100000000	0	0	-38.9172958204716	-82.1105587054826	0	0	0	0	
5125000000	0	0	-38.5180661353638	-128.958555391402	0	0	0	0	
5150000000	0	0	-38.6766452367926	-175.71419205878	0	0	0	0	
5175000000	0	0	-38.8610988266557	132.82496072091	0	0	0	0	
5200000000	0	0	-39.1891084087663	93.1256338786751	0	0	0	0	
5225000000	0	0	-40.0374802036042	48.5212438257084	0	0	0	0	
5250000000	0	0	-40.6447478431021	9.94582598165019	0	0	0	0	
5275000000	0	0	-39.6989431646323	-33.2813945919828	0	0	0	0	
5300000000	0	0	-39.3972052422928	-75.7617297776801	0	0	0	0	
5325000000	0	0	-39.5884514832682	-120.989460940232	0	0	0	0	
5350000000	0	0	-40.1982056486669	-165.90018815819	0	0	0	0	
5375000000	0	0	-40.0465850891325	148.384463271757	0	0	0	0	
5400000000	0	0	-39.5580562034593	108.954245588803	0	0	0	0	
5425000000	0	0	-40.4566846313271	55.7989919748523	0	0	0	0	
5450000000	0	0	-41.5092042441361	9.89073440833229	0	0	0	0	
5475000000	0	0	-42.8228797306253	-30.8237432586437	0	0	0	0	
5500000000	0	0	-43.7300452593302	-77.0227341095851	0	0	0	0	
5525000000	0	0	-44.0856668742743	-119.52316177531	0	0	0	0	
5550000000	0	0	-46.383968387134	-158.32664694428	0	0	0	0	
5575000000	0	0	-46.539930181425	170.346063499687	0	0	0	0	
5600000000	0	0	-47.4973267702953	131.02959260223	0	0	0	0	
5625000000	0	0	-46.1828269417691	100.552789824682	0	0	0	0	
5650000000	0	0	-45.8856582348798	54.1085960108425	0	0	0	0	
5675000000	0	0	-49.6425317649264	16.9101703667772	0	0	0	0	
5700000000	0	0	-48.7551437673441	-28.7289584264835	0	0	0	0	
5725000000	0	0	-48.8602410829191	-61.9782055903816	0	0	0	0	
5750000000	0	0	-48.2784135889897	-102.978185179012	0	0	0	0	
5775000000	0	0	-50.0058772941623	-145.269750796632	0	0	0	0	
5800000000	0	0	-50.0126589676078	173.948070641522	0	0	0	0	
5825000000	0	0	-49.7236974943782	136.038890318323	0	0	0	0	
5850000000	0	0	-49.7598226125172	93.8361209714231	0	0	0	0	
5875000000	0	0	-51.573477895024	62.5166722258598	0	0	0	0	
5900000000	0	0	-51.9232657338574	29.6290378853896	0	0	0	0	
5925000000	0	0	-50.8963826391586	-18.0375566529794	0	0	0	0	
5950000000	0	0	-54.2270386052267	-53.9002087264364	0	0	0	0	
5975000000	0	0	-56.062707300124	-85.1231572806916	0	0	0	0	
6000000000	0	0	-58.0516113620525	-102.399253019781	0	0	0	0	
