!Keysight Technologies N9926A: A.08.19
!Date: Sunday, 01 March 2026 13:43:05
!Timezone: (GMT-06:00) Central Time (US & Canada)
!Model: N9926A
!Serial: MY53102721
!GPS Latitude: 
!GPS Longitude: 
!GPS TimeStamp: 0001-01-01 00:00:00Z
!GPS Seconds Since Last Read: 0
!CHECKSUM:1011035115
!Correction: S11()S21(ON U)S12()S22()
!S2P File: Measurements:S11,S21,S12,S22:
# Hz S DB R 50
1000000000	0	0	-66.7236954015566	-89.3323920600314	0	0	0	0	
1025000000	0	0	-67.625245546322	56.587627917875	0	0	0	0	
1050000000	0	0	-71.943081850762	51.2704386059149	0	0	0	0	
1075000000	0	0	-69.6991100050463	-101.353828567457	0	0	0	0	
1100000000	0	0	-74.901756317943	40.9344291352154	0	0	0	0	
1125000000	0	0	-67.4252603471778	-118.085033635248	0	0	0	0	
1150000000	0	0	-58.0323114399922	5.81214234097215	0	0	0	0	
1175000000	0	0	-61.9641491414902	-123.682685842041	0	0	0	0	
1200000000	0	0	-69.6904714615119	-3.99905909753744	0	0	0	0	
1225000000	0	0	-58.0506040263712	-137.128695770179	0	0	0	0	
1250000000	0	0	-59.3013243424002	-0.0229978438458893	0	0	0	0	
1275000000	0	0	-70.8433379799792	-47.5584018784931	0	0	0	0	
1300000000	0	0	-57.1794183302866	-69.072936780276	0	0	0	0	
1325000000	0	0	-56.0104750561417	-42.891470398466	0	0	0	0	
1350000000	0	0	-55.0881317565717	-99.3124462055637	0	0	0	0	
1375000000	0	0	-49.5657719462766	-129.246810362773	0	0	0	0	
1400000000	0	0	-49.8879760307199	118.679641874153	0	0	0	0	
1425000000	0	0	-57.4746812768404	17.7876187490918	0	0	0	0	
1450000000	0	0	-48.6207540617987	-73.6901651376449	0	0	0	0	
1475000000	0	0	-48.3237410412811	80.5171996622084	0	0	0	0	
1500000000	0	0	-53.6383592789193	77.1029990310314	0	0	0	0	
1525000000	0	0	-49.6737736924751	144.213180717755	0	0	0	0	
1550000000	0	0	-54.3489145308458	-44.655688399966	0	0	0	0	
1575000000	0	0	-59.1934447317624	86.5512354811054	0	0	0	0	
1600000000	0	0	-55.9193421967628	42.9419373192217	0	0	0	0	
1625000000	0	0	-62.762212757485	72.7341812901197	0	0	0	0	
1650000000	0	0	-69.6778652135538	100.502026708988	0	0	0	0	
1675000000	0	0	-59.686747976312	-87.2221680710166	0	0	0	0	
1700000000	0	0	-68.43104835837	144.146432677105	0	0	0	0	
1725000000	0	0	-63.5755037869418	0.383826540993533	0	0	0	0	
1750000000	0	0	-68.6815241160946	-38.0611968999251	0	0	0	0	
1775000000	0	0	-55.9124934097121	-79.707836515196	0	0	0	0	
1800000000	0	0	-62.2998663596189	38.8921459408889	0	0	0	0	
1825000000	0	0	-83.9695825097683	-23.9767131946609	0	0	0	0	
1850000000	0	0	-78.4533265159583	-169.526813641293	0	0	0	0	
1875000000	0	0	-62.5669392016471	176.003058266652	0	0	0	0	
1900000000	0	0	-61.4535261548777	23.7207756860278	0	0	0	0	
1925000000	0	0	-71.1721470934973	63.7198050200759	0	0	0	0	
1950000000	0	0	-78.9945016418668	-64.547422921407	0	0	0	0	
1975000000	0	0	-61.9406378479511	48.4136973219475	0	0	0	0	
2000000000	0	0	-65.8900927850199	-6.57675451069005	0	0	0	0	
2025000000	0	0	-68.9298974269238	73.5878020312804	0	0	0	0	
2050000000	0	0	-67.8542839327424	-17.6540399207928	0	0	0	0	
2075000000	0	0	-66.0658335109459	143.606552451859	0	0	0	0	
2100000000	0	0	-75.3928871912211	-3.59865013850912	0	0	0	0	
2125000000	0	0	-70.5231049621841	128.654542764808	0	0	0	0	
2150000000	0	0	-68.4618824961115	-107.40853767726	0	0	0	0	
2175000000	0	0	-72.7833275905092	65.4002403641575	0	0	0	0	
2200000000	0	0	-107.094789544579	-152.052187606667	0	0	0	0	
2225000000	0	0	-65.4570338986969	-1.45033545447146	0	0	0	0	
2250000000	0	0	-67.0396898904439	163.22773130117	0	0	0	0	
2275000000	0	0	-71.462749885319	-54.0849874304872	0	0	0	0	
2300000000	0	0	-69.6254482411943	-57.2223185311894	0	0	0	0	
2325000000	0	0	-64.3721626953035	-45.8952455054588	0	0	0	0	
2350000000	0	0	-66.5178385207359	163.462175318734	0	0	0	0	
2375000000	0	0	-67.1387811871817	-45.9792929032096	0	0	0	0	
2400000000	0	0	-62.2062256954173	105.503967819674	0	0	0	0	
2425000000	0	0	-67.3852624262034	64.1418756350268	0	0	0	0	
2450000000	0	0	-63.0273860224537	-161.086878210603	0	0	0	0	
2475000000	0	0	-78.0563021903739	41.917709133381	0	0	0	0	
2500000000	0	0	-71.8924620541516	-4.20776272315438	0	0	0	0	
2525000000	0	0	-72.1652554821701	33.2561634453227	0	0	0	0	
2550000000	0	0	-81.134428010727	140.437557460965	0	0	0	0	
2575000000	0	0	-65.3236978222638	159.269044101616	0	0	0	0	
2600000000	0	0	-72.1410938527063	-65.785825553516	0	0	0	0	
2625000000	0	0	-65.7842880025133	-133.89619950464	0	0	0	0	
2650000000	0	0	-63.6985983105419	153.436623264613	0	0	0	0	
2675000000	0	0	-70.0669091304046	13.59786388556	0	0	0	0	
2700000000	0	0	-76.4119729338649	96.7039045306166	0	0	0	0	
2725000000	0	0	-80.5404164952897	-107.206560546606	0	0	0	0	
2750000000	0	0	-75.7494385383906	124.58344248878	0	0	0	0	
2775000000	0	0	-68.5534572742338	132.558413293092	0	0	0	0	
2800000000	0	0	-68.5706275860047	-162.242322838188	0	0	0	0	
2825000000	0	0	-83.5925518049073	135.758411492648	0	0	0	0	
2850000000	0	0	-69.9834710105209	90.4629648634213	0	0	0	0	
2875000000	0	0	-66.8770383668311	49.4444166377242	0	0	0	0	
2900000000	0	0	-70.491813293937	78.6441379838747	0	0	0	0	
2925000000	0	0	-67.5476362905052	-7.32324086725207	0	0	0	0	
2950000000	0	0	-71.9797515561613	-98.885619023266	0	0	0	0	
2975000000	0	0	-77.9569579697735	-77.7694994103634	0	0	0	0	
3000000000	0	0	-83.4313322612275	-155.720906951324	0	0	0	0	
3025000000	0	0	-65.9734690079455	-112.522522970169	0	0	0	0	
3050000000	0	0	-75.0726151401387	144.367711669114	0	0	0	0	
3075000000	0	0	-65.2346162405085	141.652888768949	0	0	0	0	
3100000000	0	0	-77.764770070834	95.1934507093111	0	0	0	0	
3125000000	0	0	-67.8351681766239	166.452612658108	0	0	0	0	
3150000000	0	0	-67.7437014531405	-14.638362504862	0	0	0	0	
3175000000	0	0	-70.2212857086611	111.889508209514	0	0	0	0	
3200000000	0	0	-65.1226728294529	166.173525252245	0	0	0	0	
3225000000	0	0	-71.1475829508388	157.785184078498	0	0	0	0	
3250000000	0	0	-71.2724401601645	168.580601046206	0	0	0	0	
3275000000	0	0	-71.1084269925847	-178.557727028782	0	0	0	0	
3300000000	0	0	-60.661709436413	133.630906302528	0	0	0	0	
3325000000	0	0	-67.5545264490553	132.74286364375	0	0	0	0	
3350000000	0	0	-74.561149709828	-162.450169376923	0	0	0	0	
3375000000	0	0	-67.4896705302734	-29.8238267832318	0	0	0	0	
3400000000	0	0	-64.7459462899143	-61.8286715802485	0	0	0	0	
3425000000	0	0	-71.3222118669631	-174.854932655557	0	0	0	0	
3450000000	0	0	-69.2004710206099	73.7158544804795	0	0	0	0	
3475000000	0	0	-73.0346976303999	99.9735321229306	0	0	0	0	
3500000000	0	0	-62.253076595514	-171.239163239073	0	0	0	0	
3525000000	0	0	-72.7342261110108	25.2222776272333	0	0	0	0	
3550000000	0	0	-66.3601443710934	0.0501822528275548	0	0	0	0	
3575000000	0	0	-74.7592604607048	-85.575007045549	0	0	0	0	
3600000000	0	0	-71.5528152632357	-98.4757733107121	0	0	0	0	
3625000000	0	0	-62.2762552686109	-84.9508724080621	0	0	0	0	
3650000000	0	0	-70.5880448623015	115.567514247591	0	0	0	0	
3675000000	0	0	-66.4950030695463	48.8404766591432	0	0	0	0	
3700000000	0	0	-74.9071957495861	131.027820464255	0	0	0	0	
3725000000	0	0	-62.755229939992	70.0618649663114	0	0	0	0	
3750000000	0	0	-67.915836735705	120.956822615282	0	0	0	0	
3775000000	0	0	-80.5852570470743	-81.019413405367	0	0	0	0	
3800000000	0	0	-63.8791766291852	-31.363835653072	0	0	0	0	
3825000000	0	0	-78.7548215996073	-56.6698473992368	0	0	0	0	
3850000000	0	0	-65.0294443173001	-93.9981355571765	0	0	0	0	
3875000000	0	0	-67.4863011771182	-157.977934045844	0	0	0	0	
3900000000	0	0	-67.1119249536438	145.658423952285	0	0	0	0	
3925000000	0	0	-62.5576531714256	136.260453568836	0	0	0	0	
3950000000	0	0	-60.7839480617826	47.1759266010466	0	0	0	0	
3975000000	0	0	-63.2474789846205	-30.0326095198335	0	0	0	0	
4000000000	0	0	-67.4629142387676	-32.4195283687116	0	0	0	0	
4025000000	0	0	-60.1858562433674	-52.6442372215859	0	0	0	0	
4050000000	0	0	-67.0825016632467	-74.4061684592586	0	0	0	0	
4075000000	0	0	-69.3670119094394	147.236252749389	0	0	0	0	
4100000000	0	0	-63.9109552887914	151.869941044649	0	0	0	0	
4125000000	0	0	-66.3176230626701	62.5659141631711	0	0	0	0	
4150000000	0	0	-62.5151813278447	61.3681877617331	0	0	0	0	
4175000000	0	0	-64.2420043280045	24.6550389731432	0	0	0	0	
4200000000	0	0	-66.0537564137533	-16.0361777694448	0	0	0	0	
4225000000	0	0	-62.2122455282779	-8.31320411602984	0	0	0	0	
4250000000	0	0	-64.7255081198456	-122.905354776268	0	0	0	0	
4275000000	0	0	-61.820345185827	-157.691189928974	0	0	0	0	
4300000000	0	0	-64.0891317706977	174.770611555976	0	0	0	0	
4325000000	0	0	-61.5696522938216	111.652711981796	0	0	0	0	
4350000000	0	0	-60.3555729963769	71.748428575556	0	0	0	0	
4375000000	0	0	-63.9638402797979	13.4155660527541	0	0	0	0	
4400000000	0	0	-62.8813767392751	26.9615689060134	0	0	0	0	
4425000000	0	0	-59.1146926485533	-62.2016174838238	0	0	0	0	
4450000000	0	0	-55.2174084458601	-89.9348176692408	0	0	0	0	
4475000000	0	0	-54.9678839181506	-141.784110160732	0	0	0	0	
4500000000	0	0	-59.7394071534615	-178.463744814278	0	0	0	0	
4525000000	0	0	-58.6954090648808	122.299352443609	0	0	0	0	
4550000000	0	0	-53.7576785002503	97.0321368532063	0	0	0	0	
4575000000	0	0	-57.6199153286081	40.9551208596423	0	0	0	0	
4600000000	0	0	-58.7276374138389	2.65885193429376	0	0	0	0	
4625000000	0	0	-56.0064475434786	-42.5115325195952	0	0	0	0	
4650000000	0	0	-51.7883881830582	-91.6463956822265	0	0	0	0	
4675000000	0	0	-53.4383556645137	-130.066553693966	0	0	0	0	
4700000000	0	0	-52.1409288005492	-177.787104802233	0	0	0	0	
4725000000	0	0	-51.3424737424007	143.006691546023	0	0	0	0	
4750000000	0	0	-49.5449629677663	95.5860235615021	0	0	0	0	
4775000000	0	0	-49.3842928671126	47.645483891768	0	0	0	0	
4800000000	0	0	-49.4422756281563	4.81118286671292	0	0	0	0	
4825000000	0	0	-47.0609126515072	-46.354074697945	0	0	0	0	
4850000000	0	0	-46.4594721300769	-94.0912579709188	0	0	0	0	
4875000000	0	0	-45.0541445415547	-147.718715688204	0	0	0	0	
4900000000	0	0	-46.7204735026925	165.099135437093	0	0	0	0	
4925000000	0	0	-46.5534868580469	115.700846078336	0	0	0	0	
4950000000	0	0	-43.7183604161809	72.5875253616333	0	0	0	0	
4975000000	0	0	-44.1072213229022	21.2492321313562	0	0	0	0	
5000000000	0	0	-43.5645304566076	-31.7759551058037	0	0	0	0	
5025000000	0	0	-44.2316944625233	-75.6732559006671	0	0	0	0	
5050000000	0	0	-43.744997932678	-113.985375564877	0	0	0	0	
5075000000	0	0	-41.9001077150139	-160.889088664357	0	0	0	0	
5100000000	0	0	-39.8604552583278	146.886094267987	0	0	0	0	
5125000000	0	0	-39.1847508545064	95.4425541556798	0	0	0	0	
5150000000	0	0	-38.1419762959405	36.1490406355651	0	0	0	0	
5175000000	0	0	-38.0013869084268	-21.5221209427528	0	0	0	0	
5200000000	0	0	-37.5844676287569	-70.6610085701581	0	0	0	0	
5225000000	0	0	-38.4983049732928	-128.384663995081	0	0	0	0	
5250000000	0	0	-39.0355312433109	178.126104997519	0	0	0	0	
5275000000	0	0	-39.9333024162188	128.013033564785	0	0	0	0	
5300000000	0	0	-40.282548876638	76.7661608772067	0	0	0	0	
5325000000	0	0	-41.2793662843137	29.7021304578661	0	0	0	0	
5350000000	0	0	-42.3560145484203	-21.2085430167146	0	0	0	0	
5375000000	0	0	-43.3744087881259	-69.3501446203467	0	0	0	0	
5400000000	0	0	-43.5301807907916	-108.255314611522	0	0	0	0	
5425000000	0	0	-43.4281628793595	-159.501632119885	0	0	0	0	
5450000000	0	0	-43.0038069045546	151.630207049252	0	0	0	0	
5475000000	0	0	-43.5816848227224	103.31112314925	0	0	0	0	
5500000000	0	0	-44.3103554134624	60.6276944356828	0	0	0	0	
5525000000	0	0	-44.9966331483703	6.46744537829123	0	0	0	0	
5550000000	0	0	-44.7934962905424	-38.5202530231383	0	0	0	0	
5575000000	0	0	-46.3177438587902	-83.9159972629034	0	0	0	0	
5600000000	0	0	-46.2710622093164	-129.714339584475	0	0	0	0	
5625000000	0	0	-45.611583417594	173.868698563706	0	0	0	0	
5650000000	0	0	-46.4542199291509	130.309146229294	0	0	0	0	
5675000000	0	0	-49.099040922972	73.0323607672818	0	0	0	0	
5700000000	0	0	-48.8684287292757	25.8304047107744	0	0	0	0	
5725000000	0	0	-50.7109253009762	-18.4520178834353	0	0	0	0	
5750000000	0	0	-53.6634309015069	-56.4942933679431	0	0	0	0	
5775000000	0	0	-52.0917577887693	-87.9824228988398	0	0	0	0	
5800000000	0	0	-52.1699283259972	-126.878591895096	0	0	0	0	
5825000000	0	0	-52.1211640842419	-169.545943193843	0	0	0	0	
5850000000	0	0	-52.5953337682375	141.448536011877	0	0	0	0	
5875000000	0	0	-52.9289527581687	96.8711162214809	0	0	0	0	
5900000000	0	0	-56.3639561182923	72.0550397774839	0	0	0	0	
5925000000	0	0	-49.7442829604648	11.6494446389388	0	0	0	0	
5950000000	0	0	-53.9129792732356	-41.321414270278	0	0	0	0	
5975000000	0	0	-52.684242210325	-96.1402423362796	0	0	0	0	
6000000000	0	0	-53.377768954872	-133.908783227399	0	0	0	0	
