!Keysight Technologies N9926A: A.08.19
!Date: Sunday, 01 March 2026 13:30:22
!Timezone: (GMT-06:00) Central Time (US & Canada)
!Model: N9926A
!Serial: MY53102721
!GPS Latitude: 
!GPS Longitude: 
!GPS TimeStamp: 0001-01-01 00:00:00Z
!GPS Seconds Since Last Read: 0
!CHECKSUM:1868672613
!Correction: S11()S21(ON U)S12()S22()
!S2P File: Measurements:S11,S21,S12,S22:
# Hz S DB R 50
1000000000	0	0	-68.5805375481227	-20.9519385322133	0	0	0	0	
1025000000	0	0	-71.3630093900703	-94.8830051763573	0	0	0	0	
1050000000	0	0	-67.1892484199971	40.3896275888802	0	0	0	0	
1075000000	0	0	-61.1343757219237	49.4363924419272	0	0	0	0	
1100000000	0	0	-78.0399451303729	89.8928501640958	0	0	0	0	
1125000000	0	0	-73.678677695753	150.564014872134	0	0	0	0	
1150000000	0	0	-71.0930358760624	-34.0514937361245	0	0	0	0	
1175000000	0	0	-58.8374279433411	-29.3203601531805	0	0	0	0	
1200000000	0	0	-73.4073240015136	3.40086057502128	0	0	0	0	
1225000000	0	0	-60.4658927195329	-161.195346301378	0	0	0	0	
1250000000	0	0	-54.4384948470247	62.6896937266793	0	0	0	0	
1275000000	0	0	-57.7298032245996	-132.103103827819	0	0	0	0	
1300000000	0	0	-62.3640747295753	-177.682127818904	0	0	0	0	
1325000000	0	0	-52.109189725504	-134.619637070081	0	0	0	0	
1350000000	0	0	-59.878838183677	-96.6725105200006	0	0	0	0	
1375000000	0	0	-53.6789040042233	73.6227370794592	0	0	0	0	
1400000000	0	0	-53.6200901045128	-110.435989904241	0	0	0	0	
1425000000	0	0	-51.828920096406	132.46398340968	0	0	0	0	
1450000000	0	0	-65.9515230376955	-54.1151314377173	0	0	0	0	
1475000000	0	0	-57.5929649419038	157.039084447491	0	0	0	0	
1500000000	0	0	-54.073061496426	-21.0208268406683	0	0	0	0	
1525000000	0	0	-56.2460627051115	-147.602847262101	0	0	0	0	
1550000000	0	0	-59.5252536516928	-171.59286841637	0	0	0	0	
1575000000	0	0	-61.4931733310126	51.4897598578022	0	0	0	0	
1600000000	0	0	-56.6913247129351	-79.679403990786	0	0	0	0	
1625000000	0	0	-65.4490972364111	52.5886974172019	0	0	0	0	
1650000000	0	0	-55.7888178098537	-49.4414707132026	0	0	0	0	
1675000000	0	0	-60.3468617003299	-88.4763334871443	0	0	0	0	
1700000000	0	0	-61.1200292361458	-101.405865358166	0	0	0	0	
1725000000	0	0	-62.5391289750876	157.870400730341	0	0	0	0	
1750000000	0	0	-59.3054343880392	4.70402080420708	0	0	0	0	
1775000000	0	0	-57.4978513189456	-135.399646352169	0	0	0	0	
1800000000	0	0	-60.7634531756277	35.6184763680313	0	0	0	0	
1825000000	0	0	-66.8394883250229	26.5587122439672	0	0	0	0	
1850000000	0	0	-84.314181194309	-65.5289127266389	0	0	0	0	
1875000000	0	0	-62.7742033300028	22.3938900337271	0	0	0	0	
1900000000	0	0	-61.6904764676334	14.4538747156403	0	0	0	0	
1925000000	0	0	-70.5064552740848	-167.910639245087	0	0	0	0	
1950000000	0	0	-66.7003764233525	110.565946725889	0	0	0	0	
1975000000	0	0	-63.5868573845973	-89.0299173700356	0	0	0	0	
2000000000	0	0	-58.9860055780975	34.8135710465407	0	0	0	0	
2025000000	0	0	-72.8847793772661	-77.1292108752585	0	0	0	0	
2050000000	0	0	-65.4724067846016	-139.733292700034	0	0	0	0	
2075000000	0	0	-79.7203185604075	-28.2485155615845	0	0	0	0	
2100000000	0	0	-69.0706884200777	162.046000089629	0	0	0	0	
2125000000	0	0	-73.1255673618078	-24.3675499111728	0	0	0	0	
2150000000	0	0	-67.2266919827801	4.44181667432192	0	0	0	0	
2175000000	0	0	-66.7501224412305	37.6315820934071	0	0	0	0	
2200000000	0	0	-74.4300632437172	128.664244239128	0	0	0	0	
2225000000	0	0	-65.4913191563675	157.182749749714	0	0	0	0	
2250000000	0	0	-64.6851179529593	56.6033563973823	0	0	0	0	
2275000000	0	0	-66.6005360399039	65.1596820076188	0	0	0	0	
2300000000	0	0	-67.7626891337365	-19.6860511202985	0	0	0	0	
2325000000	0	0	-69.6203948808218	39.9890470529304	0	0	0	0	
2350000000	0	0	-70.9057216555266	108.112666173949	0	0	0	0	
2375000000	0	0	-71.7359259783353	46.6105569405032	0	0	0	0	
2400000000	0	0	-65.3502026859328	72.0657472749312	0	0	0	0	
2425000000	0	0	-60.7779481312207	66.9300859394203	0	0	0	0	
2450000000	0	0	-62.6241190100508	53.5587368142647	0	0	0	0	
2475000000	0	0	-67.8774639155823	50.6491422969916	0	0	0	0	
2500000000	0	0	-82.3218204339526	80.0154329450065	0	0	0	0	
2525000000	0	0	-65.9182531214908	-53.5647892951423	0	0	0	0	
2550000000	0	0	-61.6265482686321	11.5310760072164	0	0	0	0	
2575000000	0	0	-70.3739854066918	20.6230347844484	0	0	0	0	
2600000000	0	0	-70.5586346525712	11.3832039666655	0	0	0	0	
2625000000	0	0	-68.8775062715477	-15.3292737790134	0	0	0	0	
2650000000	0	0	-83.2040874547355	-13.8344942385127	0	0	0	0	
2675000000	0	0	-61.1612136369273	-33.3676265842295	0	0	0	0	
2700000000	0	0	-68.4481552773785	-63.0799036442715	0	0	0	0	
2725000000	0	0	-66.0446448227393	-49.1483413626975	0	0	0	0	
2750000000	0	0	-64.7522572047008	-87.7595574170165	0	0	0	0	
2775000000	0	0	-68.0569571666956	-69.6574991302263	0	0	0	0	
2800000000	0	0	-70.8539492145038	-34.4667324400204	0	0	0	0	
2825000000	0	0	-69.5418516581791	-105.330752658162	0	0	0	0	
2850000000	0	0	-62.3893206885681	-92.956864233477	0	0	0	0	
2875000000	0	0	-59.4441059173343	-95.5745569756166	0	0	0	0	
2900000000	0	0	-61.1158255186739	-108.15923998176	0	0	0	0	
2925000000	0	0	-65.5354946370976	-99.5975839071412	0	0	0	0	
2950000000	0	0	-63.0673332223681	-61.6520954698792	0	0	0	0	
2975000000	0	0	-68.6837447553908	-137.328863504271	0	0	0	0	
3000000000	0	0	-60.57390409003	-119.340542967494	0	0	0	0	
3025000000	0	0	-62.0408790217736	-117.054693979149	0	0	0	0	
3050000000	0	0	-63.6859522691411	-139.13914989807	0	0	0	0	
3075000000	0	0	-59.9288449818556	-148.359795485925	0	0	0	0	
3100000000	0	0	-61.3973083728532	-114.606480839547	0	0	0	0	
3125000000	0	0	-64.7165932984788	-132.178404385949	0	0	0	0	
3150000000	0	0	-60.2269328636633	-122.83007841384	0	0	0	0	
3175000000	0	0	-63.3239867295029	-138.971120723943	0	0	0	0	
3200000000	0	0	-57.7743274366899	-154.129502203316	0	0	0	0	
3225000000	0	0	-59.7717064533103	162.05268748584	0	0	0	0	
3250000000	0	0	-59.5601299759842	-174.227991653743	0	0	0	0	
3275000000	0	0	-61.1048178154307	167.34617197007	0	0	0	0	
3300000000	0	0	-57.4233497899301	-178.164785880574	0	0	0	0	
3325000000	0	0	-62.7425855616539	175.786817778814	0	0	0	0	
3350000000	0	0	-59.2037808591606	161.420918400256	0	0	0	0	
3375000000	0	0	-58.1598566681797	168.834812796133	0	0	0	0	
3400000000	0	0	-57.2238040007752	149.213055299397	0	0	0	0	
3425000000	0	0	-57.6199814463094	156.40574198098	0	0	0	0	
3450000000	0	0	-56.6515129002501	146.732629804746	0	0	0	0	
3475000000	0	0	-57.2239609767361	114.155912994246	0	0	0	0	
3500000000	0	0	-58.2717710794985	132.779612636003	0	0	0	0	
3525000000	0	0	-57.7603562648453	140.342582483697	0	0	0	0	
3550000000	0	0	-54.3348337698087	110.484842627261	0	0	0	0	
3575000000	0	0	-56.1085277492685	102.055209123139	0	0	0	0	
3600000000	0	0	-54.9996591228818	111.697594061789	0	0	0	0	
3625000000	0	0	-55.5429080975959	90.4011692369321	0	0	0	0	
3650000000	0	0	-55.9302202827907	85.4462383640553	0	0	0	0	
3675000000	0	0	-55.2521561932754	84.3109043601917	0	0	0	0	
3700000000	0	0	-55.604270800149	87.722016806978	0	0	0	0	
3725000000	0	0	-55.0729010040284	65.802778427786	0	0	0	0	
3750000000	0	0	-53.3032649729321	57.9892399486666	0	0	0	0	
3775000000	0	0	-57.9421292699357	59.2714104019506	0	0	0	0	
3800000000	0	0	-54.1503454957588	64.0758917570186	0	0	0	0	
3825000000	0	0	-53.5768957990059	58.3235414561693	0	0	0	0	
3850000000	0	0	-55.8205201850458	33.0167097754235	0	0	0	0	
3875000000	0	0	-54.811589890582	32.5303417771132	0	0	0	0	
3900000000	0	0	-52.6306341280431	52.7266776043708	0	0	0	0	
3925000000	0	0	-54.3802708087845	47.057162773429	0	0	0	0	
3950000000	0	0	-53.7019894480163	29.8516263847845	0	0	0	0	
3975000000	0	0	-53.7617413758512	24.4955099804193	0	0	0	0	
4000000000	0	0	-56.1058194819444	36.7455032623172	0	0	0	0	
4025000000	0	0	-54.4383424111805	14.9141289862126	0	0	0	0	
4050000000	0	0	-53.1685581617021	-9.31504345273368	0	0	0	0	
4075000000	0	0	-53.6660575537367	-5.9734245586777	0	0	0	0	
4100000000	0	0	-54.5058429955639	-21.0896811174712	0	0	0	0	
4125000000	0	0	-52.6885527873208	-10.5402053578023	0	0	0	0	
4150000000	0	0	-57.1711909585358	-22.3265823175695	0	0	0	0	
4175000000	0	0	-55.1084194782884	-14.4030099201488	0	0	0	0	
4200000000	0	0	-54.0176595637017	-33.3217970787281	0	0	0	0	
4225000000	0	0	-57.9824148432501	-38.6206019132213	0	0	0	0	
4250000000	0	0	-52.2697809471314	-44.3110707453525	0	0	0	0	
4275000000	0	0	-52.2690584950714	-50.7567623929866	0	0	0	0	
4300000000	0	0	-54.2852870828079	-55.0740404410749	0	0	0	0	
4325000000	0	0	-56.2192641935796	-46.6828320919763	0	0	0	0	
4350000000	0	0	-57.3875019865221	-66.0271981357978	0	0	0	0	
4375000000	0	0	-58.601532271836	-79.5644912066233	0	0	0	0	
4400000000	0	0	-59.6179879961654	-53.3533805219407	0	0	0	0	
4425000000	0	0	-57.1276516725884	-52.1545033622145	0	0	0	0	
4450000000	0	0	-55.9636352391756	-58.4611761954663	0	0	0	0	
4475000000	0	0	-54.8370486146601	-64.2413481797006	0	0	0	0	
4500000000	0	0	-57.6951566114407	-62.1526401232064	0	0	0	0	
4525000000	0	0	-58.4018662433815	-46.9359796151153	0	0	0	0	
4550000000	0	0	-59.4096994848682	-65.9574390560171	0	0	0	0	
4575000000	0	0	-58.7612936933939	-59.1286544807537	0	0	0	0	
4600000000	0	0	-56.0019659083047	-53.331117457778	0	0	0	0	
4625000000	0	0	-56.2655275636594	-50.2053509665979	0	0	0	0	
4650000000	0	0	-57.2040038989277	-51.3253766654447	0	0	0	0	
4675000000	0	0	-55.9929963208586	-19.5621067451132	0	0	0	0	
4700000000	0	0	-54.3608433406833	-24.0798202064545	0	0	0	0	
4725000000	0	0	-50.7816160172667	-17.1585191796057	0	0	0	0	
4750000000	0	0	-48.8815688330703	-28.7653611293197	0	0	0	0	
4775000000	0	0	-46.6791616583911	-31.187063816393	0	0	0	0	
4800000000	0	0	-45.8285551716229	-28.6512201937408	0	0	0	0	
4825000000	0	0	-43.3749480594501	-41.885128363687	0	0	0	0	
4850000000	0	0	-41.4382658914862	-47.4521964174753	0	0	0	0	
4875000000	0	0	-40.2292950753858	-58.8736168737555	0	0	0	0	
4900000000	0	0	-39.5805167506504	-62.0670545050316	0	0	0	0	
4925000000	0	0	-38.0511706529117	-72.6426782997503	0	0	0	0	
4950000000	0	0	-35.4338838432837	-78.9139751611069	0	0	0	0	
4975000000	0	0	-35.3167958069391	-94.595702093481	0	0	0	0	
5000000000	0	0	-34.3889085532037	-108.548588350707	0	0	0	0	
5025000000	0	0	-33.4450457352694	-112.007104851534	0	0	0	0	
5050000000	0	0	-32.8934543257031	-117.465574553539	0	0	0	0	
5075000000	0	0	-31.0044977292203	-129.919419653739	0	0	0	0	
5100000000	0	0	-28.9698110001229	-143.32832562351	0	0	0	0	
5125000000	0	0	-28.5174588749329	-154.846683216072	0	0	0	0	
5150000000	0	0	-27.5953997620026	-167.856171007463	0	0	0	0	
5175000000	0	0	-26.9202100620685	176.586692604328	0	0	0	0	
5200000000	0	0	-26.2727360904467	164.114261539755	0	0	0	0	
5225000000	0	0	-25.7632886490554	149.14653318681	0	0	0	0	
5250000000	0	0	-25.6268002651308	135.675442966334	0	0	0	0	
5275000000	0	0	-25.4286432207937	122.396878648542	0	0	0	0	
5300000000	0	0	-25.1445648631238	107.346137212713	0	0	0	0	
5325000000	0	0	-25.4124370700361	93.9387484541705	0	0	0	0	
5350000000	0	0	-26.0098550235525	79.7652234972576	0	0	0	0	
5375000000	0	0	-26.0115794738172	69.2932894470773	0	0	0	0	
5400000000	0	0	-26.0105802123275	59.4594519338568	0	0	0	0	
5425000000	0	0	-26.283018240037	41.9911819396224	0	0	0	0	
5450000000	0	0	-27.2699003373551	28.277545773513	0	0	0	0	
5475000000	0	0	-28.2520472514104	26.0194184780137	0	0	0	0	
5500000000	0	0	-28.023368717012	12.504429305919	0	0	0	0	
5525000000	0	0	-28.759707948444	3.96283406619918	0	0	0	0	
5550000000	0	0	-28.9467726085717	-6.38910230279336	0	0	0	0	
5575000000	0	0	-29.8323914867837	-13.2785458535905	0	0	0	0	
5600000000	0	0	-30.045985311266	-22.07318045432	0	0	0	0	
5625000000	0	0	-30.2245202561268	-31.142847232142	0	0	0	0	
5650000000	0	0	-29.6333940679189	-39.6679132172812	0	0	0	0	
5675000000	0	0	-31.8343109027221	-54.4789151698013	0	0	0	0	
5700000000	0	0	-31.4685524757979	-60.3386445186481	0	0	0	0	
5725000000	0	0	-32.6818291873938	-64.5817181113219	0	0	0	0	
5750000000	0	0	-32.9807223426637	-73.0049560651266	0	0	0	0	
5775000000	0	0	-33.727557647945	-76.1086998832414	0	0	0	0	
5800000000	0	0	-33.8077430276147	-85.7110759912836	0	0	0	0	
5825000000	0	0	-33.9425050622395	-86.7175453981443	0	0	0	0	
5850000000	0	0	-34.1858588167536	-98.0969883157494	0	0	0	0	
5875000000	0	0	-35.8255995477726	-105.231439076959	0	0	0	0	
5900000000	0	0	-34.8669156518031	-104.936171919637	0	0	0	0	
5925000000	0	0	-34.868920960507	-116.757205662795	0	0	0	0	
5950000000	0	0	-36.1900379522112	-129.540042030441	0	0	0	0	
5975000000	0	0	-37.5086040229035	-126.049101164817	0	0	0	0	
6000000000	0	0	-36.5441140826239	-126.395376397435	0	0	0	0	
