!Keysight Technologies N9926A: A.08.19
!Date: Sunday, 01 March 2026 13:31:04
!Timezone: (GMT-06:00) Central Time (US & Canada)
!Model: N9926A
!Serial: MY53102721
!GPS Latitude: 
!GPS Longitude: 
!GPS TimeStamp: 0001-01-01 00:00:00Z
!GPS Seconds Since Last Read: 0
!CHECKSUM:1559274611
!Correction: S11()S21(ON U)S12()S22()
!S2P File: Measurements:S11,S21,S12,S22:
# Hz S DB R 50
1000000000	0	0	-67.1766016826493	57.2527075112001	0	0	0	0	
1025000000	0	0	-63.9910018653634	154.369319208091	0	0	0	0	
1050000000	0	0	-76.741465667893	24.0869601037751	0	0	0	0	
1075000000	0	0	-68.1128467426161	-43.1055414638941	0	0	0	0	
1100000000	0	0	-74.4712655890869	-21.9265289990366	0	0	0	0	
1125000000	0	0	-77.3212809131598	-99.8827430053308	0	0	0	0	
1150000000	0	0	-65.701038739591	-21.0624286365139	0	0	0	0	
1175000000	0	0	-59.9825177762821	-116.41484040174	0	0	0	0	
1200000000	0	0	-62.8435007346438	-79.5886846899547	0	0	0	0	
1225000000	0	0	-67.9029121208142	-109.467758711253	0	0	0	0	
1250000000	0	0	-55.4874767850529	-123.905092785675	0	0	0	0	
1275000000	0	0	-53.3949836743773	121.787208701192	0	0	0	0	
1300000000	0	0	-66.3035406096129	-2.18586460114265	0	0	0	0	
1325000000	0	0	-53.971690052816	-70.9713500215561	0	0	0	0	
1350000000	0	0	-61.8647206182802	154.916272934526	0	0	0	0	
1375000000	0	0	-56.724464433024	82.6288167980858	0	0	0	0	
1400000000	0	0	-49.414987643546	135.179293487621	0	0	0	0	
1425000000	0	0	-55.0772688475017	-2.29075990930995	0	0	0	0	
1450000000	0	0	-55.1722902799201	112.044609762676	0	0	0	0	
1475000000	0	0	-59.4728581139033	82.1801960979021	0	0	0	0	
1500000000	0	0	-57.8447840993093	-25.5476130545536	0	0	0	0	
1525000000	0	0	-61.7532964378793	8.00265217301716	0	0	0	0	
1550000000	0	0	-60.7882222626353	88.3689741480487	0	0	0	0	
1575000000	0	0	-57.8618911575512	-147.794275337494	0	0	0	0	
1600000000	0	0	-68.1788227029203	99.1109371072499	0	0	0	0	
1625000000	0	0	-62.6997134268862	-117.502228441663	0	0	0	0	
1650000000	0	0	-63.0947396626041	-8.63671384831237	0	0	0	0	
1675000000	0	0	-57.2997131798041	139.62158118178	0	0	0	0	
1700000000	0	0	-65.8616768248482	-32.7101860683186	0	0	0	0	
1725000000	0	0	-61.9888570227678	-143.609963788233	0	0	0	0	
1750000000	0	0	-57.010776361984	-44.4003109822978	0	0	0	0	
1775000000	0	0	-72.6069107325792	118.508962814	0	0	0	0	
1800000000	0	0	-65.191848524206	-57.9349898950403	0	0	0	0	
1825000000	0	0	-60.9326440024852	-88.901686519848	0	0	0	0	
1850000000	0	0	-64.0375505581505	-148.736546872692	0	0	0	0	
1875000000	0	0	-64.0285283636992	10.2478215146549	0	0	0	0	
1900000000	0	0	-59.6581529244905	14.3146197966113	0	0	0	0	
1925000000	0	0	-69.8054789981127	157.747439664169	0	0	0	0	
1950000000	0	0	-79.5616045957728	104.283289884226	0	0	0	0	
1975000000	0	0	-75.7419972502096	-86.8432246866208	0	0	0	0	
2000000000	0	0	-72.4167898183607	-77.1264466849443	0	0	0	0	
2025000000	0	0	-65.01421894849	-82.0189552799019	0	0	0	0	
2050000000	0	0	-75.23881879701	3.14350859064293	0	0	0	0	
2075000000	0	0	-64.343612276825	-64.4591269374188	0	0	0	0	
2100000000	0	0	-72.3177588462136	9.86115394718769	0	0	0	0	
2125000000	0	0	-64.3064562490143	-45.2418133934775	0	0	0	0	
2150000000	0	0	-62.8916648074818	54.0895578725082	0	0	0	0	
2175000000	0	0	-74.9877333121681	-131.604398929159	0	0	0	0	
2200000000	0	0	-62.7244978481727	-155.428569040598	0	0	0	0	
2225000000	0	0	-67.4220665385056	143.177868842476	0	0	0	0	
2250000000	0	0	-62.6855375278498	168.537388977383	0	0	0	0	
2275000000	0	0	-66.795772893512	-147.349819816704	0	0	0	0	
2300000000	0	0	-71.6643556488047	124.580578861728	0	0	0	0	
2325000000	0	0	-89.023232679882	-44.3846176964108	0	0	0	0	
2350000000	0	0	-67.6443051685184	104.143836637598	0	0	0	0	
2375000000	0	0	-68.3490230567061	43.7907691917906	0	0	0	0	
2400000000	0	0	-71.9811241084525	29.4168522569871	0	0	0	0	
2425000000	0	0	-89.5442295717323	-29.6009609484541	0	0	0	0	
2450000000	0	0	-76.2537632815157	93.0769135879971	0	0	0	0	
2475000000	0	0	-66.8250151315995	107.975048709487	0	0	0	0	
2500000000	0	0	-63.4631724507749	39.6091828030572	0	0	0	0	
2525000000	0	0	-70.6108532988254	-179.235159394484	0	0	0	0	
2550000000	0	0	-66.3750205596209	75.3208140730595	0	0	0	0	
2575000000	0	0	-65.1463015164787	109.801914507824	0	0	0	0	
2600000000	0	0	-65.8514874701545	15.8280595121242	0	0	0	0	
2625000000	0	0	-64.5859798805288	133.011199805793	0	0	0	0	
2650000000	0	0	-66.492766458222	43.203270148479	0	0	0	0	
2675000000	0	0	-65.340418702248	5.20722583990198	0	0	0	0	
2700000000	0	0	-69.8630919634802	65.7683520223152	0	0	0	0	
2725000000	0	0	-62.7238444981934	-60.3619882937678	0	0	0	0	
2750000000	0	0	-69.4543578163964	-140.488109212049	0	0	0	0	
2775000000	0	0	-79.6000196233907	-8.47548691008402	0	0	0	0	
2800000000	0	0	-65.7033423383273	31.4426652267475	0	0	0	0	
2825000000	0	0	-65.2014638475129	-91.5244774296966	0	0	0	0	
2850000000	0	0	-84.7601559466872	-115.136698562066	0	0	0	0	
2875000000	0	0	-68.4320101623581	-78.1892210701	0	0	0	0	
2900000000	0	0	-71.9934184778416	-117.739431406451	0	0	0	0	
2925000000	0	0	-70.3055569208244	-142.990375153601	0	0	0	0	
2950000000	0	0	-64.1322812781389	-81.3840258142613	0	0	0	0	
2975000000	0	0	-62.3527257366571	-50.5469818896298	0	0	0	0	
3000000000	0	0	-66.9039460397939	-56.8491343105967	0	0	0	0	
3025000000	0	0	-67.6198962618778	-133.984198699735	0	0	0	0	
3050000000	0	0	-60.9444534428997	-146.763962232154	0	0	0	0	
3075000000	0	0	-75.3049488396456	-78.8067196551966	0	0	0	0	
3100000000	0	0	-62.9715041200331	164.137433936196	0	0	0	0	
3125000000	0	0	-64.4030350635738	-146.548046654551	0	0	0	0	
3150000000	0	0	-68.8014879553389	-122.055931542498	0	0	0	0	
3175000000	0	0	-69.69994017085	176.904812014693	0	0	0	0	
3200000000	0	0	-62.5730913638505	176.840071937355	0	0	0	0	
3225000000	0	0	-63.5843430979603	-152.122514184812	0	0	0	0	
3250000000	0	0	-65.5455062288081	-167.849598367184	0	0	0	0	
3275000000	0	0	-64.0601568680199	146.28518758804	0	0	0	0	
3300000000	0	0	-60.6265162581104	141.533014140308	0	0	0	0	
3325000000	0	0	-60.3738742731117	157.557323984114	0	0	0	0	
3350000000	0	0	-59.8401254091377	101.435083114729	0	0	0	0	
3375000000	0	0	-60.79854898994	103.434215864808	0	0	0	0	
3400000000	0	0	-60.7752686781567	103.526142453237	0	0	0	0	
3425000000	0	0	-61.4410403490899	76.9247753537715	0	0	0	0	
3450000000	0	0	-63.9591892146869	94.0578069674604	0	0	0	0	
3475000000	0	0	-66.3235362406841	51.8082048559544	0	0	0	0	
3500000000	0	0	-59.0546865126607	78.3223492738405	0	0	0	0	
3525000000	0	0	-63.5627983284732	40.1503789786566	0	0	0	0	
3550000000	0	0	-60.189242613634	27.5431844417651	0	0	0	0	
3575000000	0	0	-62.1287230999846	33.8126892814064	0	0	0	0	
3600000000	0	0	-59.1672775704713	34.2003171975031	0	0	0	0	
3625000000	0	0	-60.9360508097742	-3.18082800205284	0	0	0	0	
3650000000	0	0	-57.8402722679866	9.63437576905618	0	0	0	0	
3675000000	0	0	-60.2838166327676	3.909765771065	0	0	0	0	
3700000000	0	0	-61.9397326052479	-6.64759532148309	0	0	0	0	
3725000000	0	0	-59.0989956340114	-39.1867089358346	0	0	0	0	
3750000000	0	0	-59.2754691070757	-36.1532156056532	0	0	0	0	
3775000000	0	0	-57.6184314373665	-60.3283032758547	0	0	0	0	
3800000000	0	0	-57.2714494019353	-59.3050420005132	0	0	0	0	
3825000000	0	0	-58.5878534427846	-66.4509763586387	0	0	0	0	
3850000000	0	0	-57.2609554159397	-75.8278855721872	0	0	0	0	
3875000000	0	0	-58.8974369465739	-86.2045462936187	0	0	0	0	
3900000000	0	0	-59.8458317715698	-114.191403615952	0	0	0	0	
3925000000	0	0	-57.46291496118	-110.482060041626	0	0	0	0	
3950000000	0	0	-58.5977676334321	-116.1484609775	0	0	0	0	
3975000000	0	0	-61.2841376355879	-138.365660171444	0	0	0	0	
4000000000	0	0	-57.7549442023344	-125.144743786107	0	0	0	0	
4025000000	0	0	-57.5425420104399	-135.863109806908	0	0	0	0	
4050000000	0	0	-57.7480339122602	-169.261720610654	0	0	0	0	
4075000000	0	0	-56.2802706234243	166.863218108312	0	0	0	0	
4100000000	0	0	-55.942857287661	173.255793001142	0	0	0	0	
4125000000	0	0	-56.535103044783	176.938590310517	0	0	0	0	
4150000000	0	0	-54.2385254385547	138.92596940284	0	0	0	0	
4175000000	0	0	-55.2026662368089	157.799168807192	0	0	0	0	
4200000000	0	0	-53.6454556219355	132.716755489126	0	0	0	0	
4225000000	0	0	-53.8475967668037	121.214943422305	0	0	0	0	
4250000000	0	0	-53.0662524270368	104.802115204831	0	0	0	0	
4275000000	0	0	-52.9571346595114	83.3232041019461	0	0	0	0	
4300000000	0	0	-53.5000062092915	96.6806741693832	0	0	0	0	
4325000000	0	0	-51.0045905963268	69.6209787691164	0	0	0	0	
4350000000	0	0	-51.7768990979472	63.1285853500238	0	0	0	0	
4375000000	0	0	-53.8926047710644	40.243192057367	0	0	0	0	
4400000000	0	0	-54.9086528140983	32.4599487707946	0	0	0	0	
4425000000	0	0	-51.3547112533683	32.8904395656026	0	0	0	0	
4450000000	0	0	-50.6621558364891	19.0092377924157	0	0	0	0	
4475000000	0	0	-48.7673137620485	7.18331888161166	0	0	0	0	
4500000000	0	0	-49.8690398281541	-10.4436630152223	0	0	0	0	
4525000000	0	0	-48.6227977555336	-15.3458729667465	0	0	0	0	
4550000000	0	0	-47.2037739285263	-22.6160332238834	0	0	0	0	
4575000000	0	0	-46.8809260953917	-39.5711598338927	0	0	0	0	
4600000000	0	0	-46.7263047431787	-50.9246555878257	0	0	0	0	
4625000000	0	0	-46.0800892301767	-63.7210577756931	0	0	0	0	
4650000000	0	0	-46.1355703327895	-76.688359188801	0	0	0	0	
4675000000	0	0	-45.5286427622783	-88.8402135467219	0	0	0	0	
4700000000	0	0	-43.4116680635477	-96.5656928617922	0	0	0	0	
4725000000	0	0	-43.2816842361237	-108.130380747908	0	0	0	0	
4750000000	0	0	-42.9269294948008	-135.644758255535	0	0	0	0	
4775000000	0	0	-42.1004675767012	-145.240707137228	0	0	0	0	
4800000000	0	0	-41.985771856786	-150.369137043918	0	0	0	0	
4825000000	0	0	-40.5606666320003	-164.516586578455	0	0	0	0	
4850000000	0	0	-38.793372020595	-176.461777388353	0	0	0	0	
4875000000	0	0	-37.845582603696	161.210886492904	0	0	0	0	
4900000000	0	0	-37.8594369938301	149.692765648212	0	0	0	0	
4925000000	0	0	-37.1556375012578	135.853091979186	0	0	0	0	
4950000000	0	0	-34.8328154465539	123.383845536939	0	0	0	0	
4975000000	0	0	-34.9166013453511	106.145882567947	0	0	0	0	
5000000000	0	0	-34.0238896817046	82.7603870276484	0	0	0	0	
5025000000	0	0	-33.3985100506729	71.7928837033176	0	0	0	0	
5050000000	0	0	-32.8455692185535	63.9595733907546	0	0	0	0	
5075000000	0	0	-31.1476083716665	44.4015680491729	0	0	0	0	
5100000000	0	0	-29.7290045659832	23.8374762459479	0	0	0	0	
5125000000	0	0	-29.6308003847362	6.10253788849529	0	0	0	0	
5150000000	0	0	-28.8724315524363	-13.0262137016929	0	0	0	0	
5175000000	0	0	-28.4793735162512	-34.7812825487683	0	0	0	0	
5200000000	0	0	-28.063931897268	-51.6953226154582	0	0	0	0	
5225000000	0	0	-27.9220503062471	-71.4465638602963	0	0	0	0	
5250000000	0	0	-27.8343914450924	-89.9494315935156	0	0	0	0	
5275000000	0	0	-27.9498084726255	-107.838540977961	0	0	0	0	
5300000000	0	0	-27.8724648573553	-127.315952627504	0	0	0	0	
5325000000	0	0	-28.1963191715	-145.866345001074	0	0	0	0	
5350000000	0	0	-29.0046215534406	-163.627603306475	0	0	0	0	
5375000000	0	0	-29.1525150350261	179.853189210732	0	0	0	0	
5400000000	0	0	-29.3016995562764	166.460221457023	0	0	0	0	
5425000000	0	0	-29.752780955004	145.560446110497	0	0	0	0	
5450000000	0	0	-30.9785517302834	127.782653207517	0	0	0	0	
5475000000	0	0	-31.8747483262055	120.420209970174	0	0	0	0	
5500000000	0	0	-31.9396317794127	103.019678137778	0	0	0	0	
5525000000	0	0	-32.7457963977907	90.1586290524753	0	0	0	0	
5550000000	0	0	-32.966987528092	76.7670449962529	0	0	0	0	
5575000000	0	0	-33.7757079550585	64.449782301489	0	0	0	0	
5600000000	0	0	-34.2571235674684	52.7789864755582	0	0	0	0	
5625000000	0	0	-34.2166647550182	39.9653023636033	0	0	0	0	
5650000000	0	0	-33.5853008617041	27.8688714704977	0	0	0	0	
5675000000	0	0	-35.7585358496686	9.21596679031545	0	0	0	0	
5700000000	0	0	-35.3489977819115	-4.44237648829455	0	0	0	0	
5725000000	0	0	-36.8360062809473	-13.0521140440095	0	0	0	0	
5750000000	0	0	-37.2921542579918	-26.2158213866599	0	0	0	0	
5775000000	0	0	-37.8444093216858	-33.764377928937	0	0	0	0	
5800000000	0	0	-38.5490684979237	-45.4363892249506	0	0	0	0	
5825000000	0	0	-38.7512113957589	-51.9706930139699	0	0	0	0	
5850000000	0	0	-38.4489540082045	-65.1894771529359	0	0	0	0	
5875000000	0	0	-40.2093599741272	-75.4721086803774	0	0	0	0	
5900000000	0	0	-39.1663321545312	-78.9918464901471	0	0	0	0	
5925000000	0	0	-39.0387810714041	-94.9631249316043	0	0	0	0	
5950000000	0	0	-40.8080700876084	-114.472443821504	0	0	0	0	
5975000000	0	0	-42.1981785265632	-116.230917030075	0	0	0	0	
6000000000	0	0	-41.3627001228828	-119.103067405699	0	0	0	0	
