!Keysight Technologies N9926A: A.08.19
!Date: Sunday, 01 March 2026 14:23:16
!Timezone: (GMT-06:00) Central Time (US & Canada)
!Model: N9926A
!Serial: MY53102721
!GPS Latitude: 
!GPS Longitude: 
!GPS TimeStamp: 0001-01-01 00:00:00Z
!GPS Seconds Since Last Read: 0
!CHECKSUM:1359669068
!Correction: S11()S21(ON U)S12()S22()
!S2P File: Measurements:S11,S21,S12,S22:
# Hz S DB R 50
1000000000	0	0	-72.771937946821	-109.232128702227	0	0	0	0	
1025000000	0	0	-73.3424736668206	-163.544538884029	0	0	0	0	
1050000000	0	0	-66.0061994676291	-119.057758656927	0	0	0	0	
1075000000	0	0	-72.0577073553132	-132.287253447628	0	0	0	0	
1100000000	0	0	-67.666695747054	107.689256586876	0	0	0	0	
1125000000	0	0	-64.1464965403816	20.5095137857369	0	0	0	0	
1150000000	0	0	-64.8195908204725	-77.7654787279171	0	0	0	0	
1175000000	0	0	-59.6998842004696	151.345702097095	0	0	0	0	
1200000000	0	0	-62.8012159734865	21.0919075664091	0	0	0	0	
1225000000	0	0	-64.0101928625698	25.8065317499341	0	0	0	0	
1250000000	0	0	-54.3224841386221	156.735012454839	0	0	0	0	
1275000000	0	0	-51.0265311545644	-20.5654842404731	0	0	0	0	
1300000000	0	0	-53.5999354396451	-137.286433230139	0	0	0	0	
1325000000	0	0	-55.0137627181153	8.55128309944326	0	0	0	0	
1350000000	0	0	-62.5741627821931	45.1614991360765	0	0	0	0	
1375000000	0	0	-51.4673225596156	-41.5057250450924	0	0	0	0	
1400000000	0	0	-56.5535849885225	1.30836763597385	0	0	0	0	
1425000000	0	0	-56.7730194507345	-77.9784116458835	0	0	0	0	
1450000000	0	0	-48.6408867156744	13.4435942538668	0	0	0	0	
1475000000	0	0	-47.5907321196816	10.7689782305539	0	0	0	0	
1500000000	0	0	-60.483616138392	22.9684104867013	0	0	0	0	
1525000000	0	0	-55.999040667184	17.2939588165938	0	0	0	0	
1550000000	0	0	-64.0599398949512	13.0712671274471	0	0	0	0	
1575000000	0	0	-59.7668875497506	33.428210855359	0	0	0	0	
1600000000	0	0	-49.877297506059	-150.308579084084	0	0	0	0	
1625000000	0	0	-63.7697143995317	-135.271412134869	0	0	0	0	
1650000000	0	0	-63.2720005802247	-133.413828647106	0	0	0	0	
1675000000	0	0	-62.3823626015799	173.745488950782	0	0	0	0	
1700000000	0	0	-59.026885482926	24.4230190806801	0	0	0	0	
1725000000	0	0	-66.3569025792529	41.3524022020446	0	0	0	0	
1750000000	0	0	-61.423653341274	-109.638839385712	0	0	0	0	
1775000000	0	0	-63.0977560616172	-138.988327689487	0	0	0	0	
1800000000	0	0	-67.3932780732919	61.9336661579213	0	0	0	0	
1825000000	0	0	-77.1916142145744	30.0290602902317	0	0	0	0	
1850000000	0	0	-69.1455831510588	13.1635169938116	0	0	0	0	
1875000000	0	0	-67.7446737706292	-33.5329048589827	0	0	0	0	
1900000000	0	0	-64.9772830388834	-6.69746498428659	0	0	0	0	
1925000000	0	0	-62.1843700827641	-65.5896273559362	0	0	0	0	
1950000000	0	0	-68.0959718204972	73.0953788718651	0	0	0	0	
1975000000	0	0	-65.4265081612525	-38.2884542312096	0	0	0	0	
2000000000	0	0	-62.7639492929832	25.2497910240121	0	0	0	0	
2025000000	0	0	-64.8440014025323	-48.3225315844751	0	0	0	0	
2050000000	0	0	-70.8028258173998	73.5552705884871	0	0	0	0	
2075000000	0	0	-76.2586285304299	-25.6177641452554	0	0	0	0	
2100000000	0	0	-63.4515263079195	-159.6783362314	0	0	0	0	
2125000000	0	0	-63.0958291590581	26.2726568131491	0	0	0	0	
2150000000	0	0	-75.5803062623775	16.2278699383969	0	0	0	0	
2175000000	0	0	-66.7580744559585	-149.781793688314	0	0	0	0	
2200000000	0	0	-67.7770077963152	-162.537273503674	0	0	0	0	
2225000000	0	0	-72.5433318644188	-118.65168950409	0	0	0	0	
2250000000	0	0	-76.1483587196685	8.2655008942029	0	0	0	0	
2275000000	0	0	-77.3506647803891	14.2898387873888	0	0	0	0	
2300000000	0	0	-66.1188071168015	28.4547832699391	0	0	0	0	
2325000000	0	0	-58.7224055906639	155.666710281456	0	0	0	0	
2350000000	0	0	-65.9452684593702	-108.237176326167	0	0	0	0	
2375000000	0	0	-74.0148146070189	99.8934775527019	0	0	0	0	
2400000000	0	0	-67.7638780460244	134.323333407666	0	0	0	0	
2425000000	0	0	-63.9861607019607	-88.9308360701411	0	0	0	0	
2450000000	0	0	-67.2110364244415	-49.3738110255277	0	0	0	0	
2475000000	0	0	-68.0896653825146	-49.567696681396	0	0	0	0	
2500000000	0	0	-69.4894483440522	1.87780803042357	0	0	0	0	
2525000000	0	0	-71.183547753995	-68.8155002023846	0	0	0	0	
2550000000	0	0	-69.7066350452097	-79.7492510419281	0	0	0	0	
2575000000	0	0	-82.942321113743	-57.0143711214333	0	0	0	0	
2600000000	0	0	-73.0358863154133	64.0011819056425	0	0	0	0	
2625000000	0	0	-67.3788466141155	130.637227238883	0	0	0	0	
2650000000	0	0	-72.9912001715327	161.625656444732	0	0	0	0	
2675000000	0	0	-73.3829276356859	-155.355514588015	0	0	0	0	
2700000000	0	0	-74.588720942388	60.0820832727634	0	0	0	0	
2725000000	0	0	-69.3379307461362	68.9684164443921	0	0	0	0	
2750000000	0	0	-71.6139374625672	-44.8121434457137	0	0	0	0	
2775000000	0	0	-66.9122635108024	-100.155180957832	0	0	0	0	
2800000000	0	0	-78.1715629691645	-29.9462993696103	0	0	0	0	
2825000000	0	0	-69.7763549500426	74.6414929415106	0	0	0	0	
2850000000	0	0	-66.9171603645669	56.5777732646963	0	0	0	0	
2875000000	0	0	-65.5937899958899	9.10340064414511	0	0	0	0	
2900000000	0	0	-74.873743736755	3.8203096857887	0	0	0	0	
2925000000	0	0	-73.7273472052324	-170.750604131391	0	0	0	0	
2950000000	0	0	-65.1926943314224	23.8991497396581	0	0	0	0	
2975000000	0	0	-66.3726254964293	149.984606182373	0	0	0	0	
3000000000	0	0	-82.5601878155653	-42.9166978952083	0	0	0	0	
3025000000	0	0	-89.7412303297152	-39.9380236542133	0	0	0	0	
3050000000	0	0	-67.7871270635463	-39.575801562896	0	0	0	0	
3075000000	0	0	-65.9863184924043	110.020162453396	0	0	0	0	
3100000000	0	0	-75.2406351202847	69.4359462996052	0	0	0	0	
3125000000	0	0	-89.2967337767416	-133.966629594852	0	0	0	0	
3150000000	0	0	-74.3492182732557	4.71867089137166	0	0	0	0	
3175000000	0	0	-67.3748378003612	-175.032301817655	0	0	0	0	
3200000000	0	0	-78.4737160733072	-14.0917179768755	0	0	0	0	
3225000000	0	0	-71.5900917173278	12.123862337836	0	0	0	0	
3250000000	0	0	-69.7186029465228	15.9408879845895	0	0	0	0	
3275000000	0	0	-68.4610379008345	137.284757014377	0	0	0	0	
3300000000	0	0	-69.8519007426808	101.412542971562	0	0	0	0	
3325000000	0	0	-65.0398300667977	29.4125191685278	0	0	0	0	
3350000000	0	0	-69.0134387120055	-58.9214406048167	0	0	0	0	
3375000000	0	0	-70.4216923007789	-84.8413272301456	0	0	0	0	
3400000000	0	0	-72.5418873067345	43.2624057446776	0	0	0	0	
3425000000	0	0	-81.9402901466513	-174.523147253526	0	0	0	0	
3450000000	0	0	-73.7624398895261	-57.9690723406928	0	0	0	0	
3475000000	0	0	-69.3837959423196	-64.9013522247817	0	0	0	0	
3500000000	0	0	-66.0526410882745	163.864984033777	0	0	0	0	
3525000000	0	0	-72.8887060050754	-162.301119137572	0	0	0	0	
3550000000	0	0	-82.0742564349043	-16.2471648005099	0	0	0	0	
3575000000	0	0	-72.2925118334751	-25.3523453755566	0	0	0	0	
3600000000	0	0	-74.093501780355	-58.4053141341837	0	0	0	0	
3625000000	0	0	-73.4520600354086	-94.8253483842088	0	0	0	0	
3650000000	0	0	-69.8066744114195	-143.090716675348	0	0	0	0	
3675000000	0	0	-81.3188177975165	126.861459670977	0	0	0	0	
3700000000	0	0	-68.1258754244841	109.546893796562	0	0	0	0	
3725000000	0	0	-76.2247495330646	139.624027778326	0	0	0	0	
3750000000	0	0	-67.5812750666362	35.7350651895173	0	0	0	0	
3775000000	0	0	-68.914061628071	144.281780883711	0	0	0	0	
3800000000	0	0	-78.9653254415621	19.1276311645524	0	0	0	0	
3825000000	0	0	-69.3197371359924	76.8459311075752	0	0	0	0	
3850000000	0	0	-68.9362549943141	24.4751817219511	0	0	0	0	
3875000000	0	0	-72.0979516028079	76.8060774691269	0	0	0	0	
3900000000	0	0	-70.623613209103	30.2122883432851	0	0	0	0	
3925000000	0	0	-66.6453482265653	46.6193339493439	0	0	0	0	
3950000000	0	0	-70.9320189527515	72.0876047840193	0	0	0	0	
3975000000	0	0	-71.0552224579517	-118.70023012353	0	0	0	0	
4000000000	0	0	-71.9553104676368	-44.5317144088571	0	0	0	0	
4025000000	0	0	-63.6125879526436	-11.0910402592739	0	0	0	0	
4050000000	0	0	-65.5401410349904	-63.7357706383331	0	0	0	0	
4075000000	0	0	-89.8323300725426	164.285464748753	0	0	0	0	
4100000000	0	0	-68.8274705969174	-26.9217817373093	0	0	0	0	
4125000000	0	0	-69.7420977536604	-78.8871505199754	0	0	0	0	
4150000000	0	0	-66.7789185346942	-57.7721278070383	0	0	0	0	
4175000000	0	0	-65.9935524897729	-104.916789171726	0	0	0	0	
4200000000	0	0	-66.8132998970737	-153.777853398121	0	0	0	0	
4225000000	0	0	-60.2304929648179	-134.166963599127	0	0	0	0	
4250000000	0	0	-63.6467198924351	-121.604563969471	0	0	0	0	
4275000000	0	0	-61.9431291260624	-137.173835520038	0	0	0	0	
4300000000	0	0	-64.1745452802678	-164.003281864945	0	0	0	0	
4325000000	0	0	-63.312343269466	150.594238795224	0	0	0	0	
4350000000	0	0	-68.5600668465913	-153.399124138999	0	0	0	0	
4375000000	0	0	-68.931906376785	136.167338179656	0	0	0	0	
4400000000	0	0	-63.6899933932915	131.329140161599	0	0	0	0	
4425000000	0	0	-70.1833347391307	-136.583506141873	0	0	0	0	
4450000000	0	0	-60.9977928914444	100.683516314584	0	0	0	0	
4475000000	0	0	-75.0052736284244	67.8561614216971	0	0	0	0	
4500000000	0	0	-63.9415322382149	58.0077737883582	0	0	0	0	
4525000000	0	0	-65.9781646717017	23.1088729963166	0	0	0	0	
4550000000	0	0	-60.2034429892287	22.8719698046287	0	0	0	0	
4575000000	0	0	-57.304304224038	14.0343041323496	0	0	0	0	
4600000000	0	0	-57.9788830696866	-1.17958123267847	0	0	0	0	
4625000000	0	0	-64.2140424580925	-31.0186636816515	0	0	0	0	
4650000000	0	0	-62.38603166578	-4.02854266918688	0	0	0	0	
4675000000	0	0	-60.4344111910127	-31.892618288696	0	0	0	0	
4700000000	0	0	-58.5922119435629	-39.7770274070546	0	0	0	0	
4725000000	0	0	-60.507898278579	-50.7852812424844	0	0	0	0	
4750000000	0	0	-58.7231684361117	-68.6836946625881	0	0	0	0	
4775000000	0	0	-60.2014913570566	-85.2044761568231	0	0	0	0	
4800000000	0	0	-54.9893432489279	-88.0853186167892	0	0	0	0	
4825000000	0	0	-53.8168891760257	-122.255154774176	0	0	0	0	
4850000000	0	0	-51.1243257177433	-128.104630295507	0	0	0	0	
4875000000	0	0	-51.5434636986361	-148.465831664517	0	0	0	0	
4900000000	0	0	-50.6123232295526	-157.720503408925	0	0	0	0	
4925000000	0	0	-49.6618943749831	171.709193270677	0	0	0	0	
4950000000	0	0	-47.3528375630097	158.792414886724	0	0	0	0	
4975000000	0	0	-48.4851388849747	122.493592829544	0	0	0	0	
5000000000	0	0	-48.2892580303108	109.209227559167	0	0	0	0	
5025000000	0	0	-46.5523462806232	93.239942887328	0	0	0	0	
5050000000	0	0	-46.2321279672324	76.0751821911717	0	0	0	0	
5075000000	0	0	-45.2948363599487	50.0907790784409	0	0	0	0	
5100000000	0	0	-45.0883042500565	26.3471567120904	0	0	0	0	
5125000000	0	0	-44.7135307479051	16.4099342405919	0	0	0	0	
5150000000	0	0	-42.9881261263923	-7.37160901184131	0	0	0	0	
5175000000	0	0	-42.6692918151096	-35.1950888205562	0	0	0	0	
5200000000	0	0	-42.8823882995847	-62.8142332915715	0	0	0	0	
5225000000	0	0	-42.9276145575275	-78.5475298698959	0	0	0	0	
5250000000	0	0	-43.362620817978	-101.943660480844	0	0	0	0	
5275000000	0	0	-42.0815038760166	-123.971386178604	0	0	0	0	
5300000000	0	0	-42.7972935538744	-153.06564490654	0	0	0	0	
5325000000	0	0	-43.9163955527016	-174.150417057994	0	0	0	0	
5350000000	0	0	-44.3396960794656	169.56907729849	0	0	0	0	
5375000000	0	0	-43.9234034906199	156.825307066724	0	0	0	0	
5400000000	0	0	-43.4423139535189	131.463104368702	0	0	0	0	
5425000000	0	0	-44.3729786688211	96.2959942853085	0	0	0	0	
5450000000	0	0	-46.7803584279694	91.6464638053513	0	0	0	0	
5475000000	0	0	-45.38887648338	74.701275264185	0	0	0	0	
5500000000	0	0	-46.2843221607934	50.6730891650303	0	0	0	0	
5525000000	0	0	-46.5966742870688	24.1238836600249	0	0	0	0	
5550000000	0	0	-47.1625094499851	15.0226898543067	0	0	0	0	
5575000000	0	0	-47.1901220436108	3.30070246598974	0	0	0	0	
5600000000	0	0	-47.1607896749411	-21.3915361271103	0	0	0	0	
5625000000	0	0	-49.9482026581513	-39.9589186685356	0	0	0	0	
5650000000	0	0	-48.0244581587997	-55.3395372952228	0	0	0	0	
5675000000	0	0	-48.8990608575973	-80.2541588375665	0	0	0	0	
5700000000	0	0	-48.3657374284129	-105.957132044568	0	0	0	0	
5725000000	0	0	-52.1958830510614	-106.819485062515	0	0	0	0	
5750000000	0	0	-52.1895851208087	-134.989014199073	0	0	0	0	
5775000000	0	0	-51.7165386876121	-130.028292680481	0	0	0	0	
5800000000	0	0	-52.4204389549765	-148.241708090688	0	0	0	0	
5825000000	0	0	-51.6988190637284	-170.332184530494	0	0	0	0	
5850000000	0	0	-53.2443870641904	174.670076643812	0	0	0	0	
5875000000	0	0	-56.8930973767823	145.135899216092	0	0	0	0	
5900000000	0	0	-51.7903226387829	153.45693193307	0	0	0	0	
5925000000	0	0	-53.0481172210227	124.175704820115	0	0	0	0	
5950000000	0	0	-53.368450023417	99.8494887383607	0	0	0	0	
5975000000	0	0	-54.2077293452742	96.5780606458879	0	0	0	0	
6000000000	0	0	-55.9653349152756	78.8003286428905	0	0	0	0	
