!Keysight Technologies N9926A: A.08.19
!Date: Sunday, 01 March 2026 14:27:24
!Timezone: (GMT-06:00) Central Time (US & Canada)
!Model: N9926A
!Serial: MY53102721
!GPS Latitude: 
!GPS Longitude: 
!GPS TimeStamp: 0001-01-01 00:00:00Z
!GPS Seconds Since Last Read: 0
!CHECKSUM:0615673300
!Correction: S11()S21(ON U)S12()S22()
!S2P File: Measurements:S11,S21,S12,S22:
# Hz S DB R 50
1000000000	0	0	-67.0540246034188	90.7109426645104	0	0	0	0	
1025000000	0	0	-65.9939719359937	99.4882061344058	0	0	0	0	
1050000000	0	0	-62.8697679489791	-174.161913474625	0	0	0	0	
1075000000	0	0	-85.192160033074	-70.6582650082215	0	0	0	0	
1100000000	0	0	-79.3451088218275	-117.639349439599	0	0	0	0	
1125000000	0	0	-65.7821059506318	-132.795441506614	0	0	0	0	
1150000000	0	0	-62.8809617934832	121.095685625916	0	0	0	0	
1175000000	0	0	-62.8179158273069	11.9329525733584	0	0	0	0	
1200000000	0	0	-77.813562174457	-136.579426428023	0	0	0	0	
1225000000	0	0	-67.0818727910172	66.5018129772109	0	0	0	0	
1250000000	0	0	-56.8891524350528	38.0392802768939	0	0	0	0	
1275000000	0	0	-55.0832980177994	63.2733327363392	0	0	0	0	
1300000000	0	0	-60.4542555603562	15.8921514609231	0	0	0	0	
1325000000	0	0	-63.5089263556641	178.762569177968	0	0	0	0	
1350000000	0	0	-61.3316011542555	158.300829669771	0	0	0	0	
1375000000	0	0	-53.5703972657332	-140.762724975864	0	0	0	0	
1400000000	0	0	-64.0905052466252	114.2185874181	0	0	0	0	
1425000000	0	0	-54.8473407382658	-30.7266704565227	0	0	0	0	
1450000000	0	0	-53.6152784886101	103.070627784157	0	0	0	0	
1475000000	0	0	-51.769798060013	29.0730896346221	0	0	0	0	
1500000000	0	0	-59.3826146156621	-4.58934267888977	0	0	0	0	
1525000000	0	0	-57.5275270584199	-101.243606215342	0	0	0	0	
1550000000	0	0	-57.3287872139144	-37.4931115002616	0	0	0	0	
1575000000	0	0	-52.5631859973929	151.39152895855	0	0	0	0	
1600000000	0	0	-62.5346297725226	175.612149036514	0	0	0	0	
1625000000	0	0	-55.0211498538797	39.5167390636675	0	0	0	0	
1650000000	0	0	-63.8845939724427	177.33133705497	0	0	0	0	
1675000000	0	0	-64.6906713051889	-57.9585506057714	0	0	0	0	
1700000000	0	0	-57.1064681149743	0.966520566446029	0	0	0	0	
1725000000	0	0	-62.880732517944	-1.91557683357881	0	0	0	0	
1750000000	0	0	-66.9457552824073	-9.11292194338556	0	0	0	0	
1775000000	0	0	-60.1649939530646	-165.196006983501	0	0	0	0	
1800000000	0	0	-74.3298232196548	73.5222641535125	0	0	0	0	
1825000000	0	0	-76.7142910772932	-147.767655691751	0	0	0	0	
1850000000	0	0	-66.3147720742049	129.24090704032	0	0	0	0	
1875000000	0	0	-57.986029363925	-128.158874995829	0	0	0	0	
1900000000	0	0	-69.8995574094424	-160.669592032032	0	0	0	0	
1925000000	0	0	-66.1776275191111	-11.8077500451433	0	0	0	0	
1950000000	0	0	-63.6340822639435	175.872541104068	0	0	0	0	
1975000000	0	0	-72.4151082793623	-126.632670740456	0	0	0	0	
2000000000	0	0	-76.5346704700243	106.495495833426	0	0	0	0	
2025000000	0	0	-64.9734197131285	133.971403170794	0	0	0	0	
2050000000	0	0	-77.2086192646707	-93.46123516015	0	0	0	0	
2075000000	0	0	-66.6161780102213	126.125307861397	0	0	0	0	
2100000000	0	0	-69.533703925642	-88.6695892492456	0	0	0	0	
2125000000	0	0	-68.047318621451	167.532854989205	0	0	0	0	
2150000000	0	0	-64.0210584929911	93.4610797835693	0	0	0	0	
2175000000	0	0	-62.7541371895103	5.46240652099978	0	0	0	0	
2200000000	0	0	-72.4730177648435	-86.0561757176348	0	0	0	0	
2225000000	0	0	-66.7540005929214	-104.818425717563	0	0	0	0	
2250000000	0	0	-68.6279772936987	-150.763793090426	0	0	0	0	
2275000000	0	0	-76.8711172472765	25.6518620768196	0	0	0	0	
2300000000	0	0	-69.1044914831946	-6.93438150646227	0	0	0	0	
2325000000	0	0	-74.9038938767009	20.8186647771169	0	0	0	0	
2350000000	0	0	-69.2041484863925	-53.8611147808066	0	0	0	0	
2375000000	0	0	-67.2268471800909	82.2228828282867	0	0	0	0	
2400000000	0	0	-68.3111160816518	-171.727010986249	0	0	0	0	
2425000000	0	0	-69.5826646588264	-57.8474849231847	0	0	0	0	
2450000000	0	0	-64.3815415899583	62.7305362643386	0	0	0	0	
2475000000	0	0	-73.5695744229675	4.52368397153449	0	0	0	0	
2500000000	0	0	-67.9126817067285	-73.391844278846	0	0	0	0	
2525000000	0	0	-84.8037884744344	-158.83492751396	0	0	0	0	
2550000000	0	0	-77.770380243381	15.2673675446352	0	0	0	0	
2575000000	0	0	-86.7791878805202	-12.8945834499507	0	0	0	0	
2600000000	0	0	-73.2688580695778	-112.110847287261	0	0	0	0	
2625000000	0	0	-75.1911401686069	-62.6428730398246	0	0	0	0	
2650000000	0	0	-65.5734942752977	4.91032932175514	0	0	0	0	
2675000000	0	0	-72.866387228635	42.5428982873898	0	0	0	0	
2700000000	0	0	-74.8337815748095	179.853706926508	0	0	0	0	
2725000000	0	0	-65.9136668657464	78.6517532973209	0	0	0	0	
2750000000	0	0	-66.7290794601692	-111.537900442711	0	0	0	0	
2775000000	0	0	-70.4435176686093	92.1747769417565	0	0	0	0	
2800000000	0	0	-67.0106176238379	-21.1435228229486	0	0	0	0	
2825000000	0	0	-71.8481874537449	-93.3363804273637	0	0	0	0	
2850000000	0	0	-79.6695189287784	-151.383752698236	0	0	0	0	
2875000000	0	0	-71.716695832035	-177.510348116252	0	0	0	0	
2900000000	0	0	-75.4481885918404	-143.789271986475	0	0	0	0	
2925000000	0	0	-75.4173124796713	-62.2907788187816	0	0	0	0	
2950000000	0	0	-65.1069257486184	-15.2149917170408	0	0	0	0	
2975000000	0	0	-94.4449249644437	122.476139745998	0	0	0	0	
3000000000	0	0	-66.975479906999	-12.6018756528057	0	0	0	0	
3025000000	0	0	-76.4589071002695	-46.9998233187889	0	0	0	0	
3050000000	0	0	-67.7610633521478	82.6949230811893	0	0	0	0	
3075000000	0	0	-70.0717711074783	140.201322227076	0	0	0	0	
3100000000	0	0	-66.5880305739341	-58.9466968618303	0	0	0	0	
3125000000	0	0	-86.98595632942	-78.7852793302247	0	0	0	0	
3150000000	0	0	-76.3172007427809	-126.015825889036	0	0	0	0	
3175000000	0	0	-68.8025921083009	-129.92962114548	0	0	0	0	
3200000000	0	0	-68.8824628500282	-47.7605090888512	0	0	0	0	
3225000000	0	0	-67.946010359682	169.168003979383	0	0	0	0	
3250000000	0	0	-73.9055052639974	164.719800385586	0	0	0	0	
3275000000	0	0	-64.2377378513236	158.949877094146	0	0	0	0	
3300000000	0	0	-64.3233866498621	-69.7141734468996	0	0	0	0	
3325000000	0	0	-70.477687184201	-141.550010583045	0	0	0	0	
3350000000	0	0	-73.76909158356	-122.622847244573	0	0	0	0	
3375000000	0	0	-71.7990765580176	-161.46446187761	0	0	0	0	
3400000000	0	0	-62.6418672471096	114.843602910076	0	0	0	0	
3425000000	0	0	-77.1292770334902	-40.8466637296857	0	0	0	0	
3450000000	0	0	-73.797118048595	-171.033420166219	0	0	0	0	
3475000000	0	0	-67.5185224741546	102.095926820197	0	0	0	0	
3500000000	0	0	-68.3626727044743	127.442075776292	0	0	0	0	
3525000000	0	0	-66.0590044559137	12.7481760751231	0	0	0	0	
3550000000	0	0	-71.1891929603331	153.07356051846	0	0	0	0	
3575000000	0	0	-66.7166005262812	79.1910879707821	0	0	0	0	
3600000000	0	0	-73.6039979603367	58.919209331956	0	0	0	0	
3625000000	0	0	-79.784000543169	25.1714566100364	0	0	0	0	
3650000000	0	0	-73.0893260656569	-18.6619218608262	0	0	0	0	
3675000000	0	0	-72.9655247556291	111.918708487942	0	0	0	0	
3700000000	0	0	-70.2078438832905	-60.5498522336853	0	0	0	0	
3725000000	0	0	-68.735814589622	-101.28102856336	0	0	0	0	
3750000000	0	0	-65.3928276574102	-45.5494176409645	0	0	0	0	
3775000000	0	0	-65.5584632488738	-119.880481693671	0	0	0	0	
3800000000	0	0	-66.9369687802352	122.378940848337	0	0	0	0	
3825000000	0	0	-72.5308874431026	-113.40529635123	0	0	0	0	
3850000000	0	0	-74.4691019037736	-27.0924497922017	0	0	0	0	
3875000000	0	0	-71.4505703745229	157.078378868488	0	0	0	0	
3900000000	0	0	-71.0701803754968	103.365897777038	0	0	0	0	
3925000000	0	0	-65.1727823042026	179.613508463816	0	0	0	0	
3950000000	0	0	-70.8326158289058	49.0785673055465	0	0	0	0	
3975000000	0	0	-78.7995141397958	-124.409982002327	0	0	0	0	
4000000000	0	0	-69.7849934080553	-9.88515189167795	0	0	0	0	
4025000000	0	0	-67.5122616841817	153.073603106153	0	0	0	0	
4050000000	0	0	-70.2724074485732	1.49173321976894	0	0	0	0	
4075000000	0	0	-65.0724490375991	80.7965716698373	0	0	0	0	
4100000000	0	0	-78.7222674703692	-81.1466317867944	0	0	0	0	
4125000000	0	0	-63.2224032882447	9.38644234696785	0	0	0	0	
4150000000	0	0	-70.0992089914985	-177.091560578644	0	0	0	0	
4175000000	0	0	-69.1624092006479	114.622307168825	0	0	0	0	
4200000000	0	0	-66.2504148192206	105.431723678921	0	0	0	0	
4225000000	0	0	-72.7950388897469	62.6469057988439	0	0	0	0	
4250000000	0	0	-66.9053965593732	82.9299303245566	0	0	0	0	
4275000000	0	0	-67.9208560862472	1.23689268988481	0	0	0	0	
4300000000	0	0	-72.4661746148672	133.503677187773	0	0	0	0	
4325000000	0	0	-68.0887592400462	6.96629100071336	0	0	0	0	
4350000000	0	0	-73.5594706411734	25.1365644722962	0	0	0	0	
4375000000	0	0	-70.8897361968887	-88.3103845512173	0	0	0	0	
4400000000	0	0	-69.2082849479224	-79.6921202380117	0	0	0	0	
4425000000	0	0	-64.3735673982447	-120.492395141043	0	0	0	0	
4450000000	0	0	-70.2458844094519	-166.454906340179	0	0	0	0	
4475000000	0	0	-65.4646335021881	-127.798599296534	0	0	0	0	
4500000000	0	0	-67.278520035278	-125.621581028397	0	0	0	0	
4525000000	0	0	-71.7271527171074	177.813943824702	0	0	0	0	
4550000000	0	0	-69.8323568085097	-164.090497146888	0	0	0	0	
4575000000	0	0	-65.3737622178868	179.699223120507	0	0	0	0	
4600000000	0	0	-65.1790392060539	-175.60826902031	0	0	0	0	
4625000000	0	0	-67.0955451871339	139.621488869504	0	0	0	0	
4650000000	0	0	-66.9583231947721	170.461626195737	0	0	0	0	
4675000000	0	0	-65.4217677163363	138.756746394285	0	0	0	0	
4700000000	0	0	-64.886934101237	66.967222952149	0	0	0	0	
4725000000	0	0	-68.5168489782565	83.3576272638641	0	0	0	0	
4750000000	0	0	-68.5123771313116	32.0547745088033	0	0	0	0	
4775000000	0	0	-62.5398926304955	48.7434860421608	0	0	0	0	
4800000000	0	0	-61.17848839075	23.2924536801837	0	0	0	0	
4825000000	0	0	-64.0552706182344	1.70090173193663	0	0	0	0	
4850000000	0	0	-65.0302323547883	77.3470124045141	0	0	0	0	
4875000000	0	0	-63.4302730338645	12.1367994862836	0	0	0	0	
4900000000	0	0	-61.6071359770188	-1.99614526440583	0	0	0	0	
4925000000	0	0	-60.8414699315642	-48.2967788294267	0	0	0	0	
4950000000	0	0	-66.7330471991854	24.7933712417207	0	0	0	0	
4975000000	0	0	-57.4216213164482	-27.5197195540619	0	0	0	0	
5000000000	0	0	-54.6615933030197	-57.3092549879948	0	0	0	0	
5025000000	0	0	-57.1440789771115	-117.327176956396	0	0	0	0	
5050000000	0	0	-63.8998098503949	-104.017206536287	0	0	0	0	
5075000000	0	0	-57.0438891512083	-91.1255958246342	0	0	0	0	
5100000000	0	0	-49.5291004811078	-117.791272549435	0	0	0	0	
5125000000	0	0	-47.9996022629989	-158.357780735196	0	0	0	0	
5150000000	0	0	-49.3385618492586	166.990126720905	0	0	0	0	
5175000000	0	0	-49.7603036617114	149.805892376216	0	0	0	0	
5200000000	0	0	-47.7507167647256	132.933004354886	0	0	0	0	
5225000000	0	0	-46.5872662403832	105.598516763752	0	0	0	0	
5250000000	0	0	-47.1431486254954	75.19335758833	0	0	0	0	
5275000000	0	0	-46.3772762423685	51.4382794859625	0	0	0	0	
5300000000	0	0	-47.9065892452051	21.8082644152766	0	0	0	0	
5325000000	0	0	-48.2369164608262	7.1329034245967	0	0	0	0	
5350000000	0	0	-48.0207471668092	-23.2385120746866	0	0	0	0	
5375000000	0	0	-48.5796859088172	-46.2866761429484	0	0	0	0	
5400000000	0	0	-47.473461092768	-72.4064920710059	0	0	0	0	
5425000000	0	0	-48.5697001569052	-87.0863927738182	0	0	0	0	
5450000000	0	0	-49.4962438281428	-113.789488542098	0	0	0	0	
5475000000	0	0	-51.2187755670636	-129.18752306064	0	0	0	0	
5500000000	0	0	-50.3033872635386	-149.100635727108	0	0	0	0	
5525000000	0	0	-51.1167976776059	-174.239989285055	0	0	0	0	
5550000000	0	0	-51.6980437437338	178.716814830289	0	0	0	0	
5575000000	0	0	-51.2866359762623	158.585979219433	0	0	0	0	
5600000000	0	0	-52.9867674123602	130.64189194208	0	0	0	0	
5625000000	0	0	-52.5874931196003	107.387191947793	0	0	0	0	
5650000000	0	0	-53.3019154143917	94.3464620621869	0	0	0	0	
5675000000	0	0	-54.1365654334612	84.4498659802391	0	0	0	0	
5700000000	0	0	-53.3150511490829	61.7964718356286	0	0	0	0	
5725000000	0	0	-54.6611703795834	45.0042025345506	0	0	0	0	
5750000000	0	0	-55.0967206560546	24.1113492587515	0	0	0	0	
5775000000	0	0	-59.0768014095263	22.599621085633	0	0	0	0	
5800000000	0	0	-55.4464088710037	4.88179877879699	0	0	0	0	
5825000000	0	0	-54.8189423613333	-12.2412426710279	0	0	0	0	
5850000000	0	0	-58.3523481605759	-56.2396569608218	0	0	0	0	
5875000000	0	0	-58.3381537019232	-60.6130898476637	0	0	0	0	
5900000000	0	0	-54.9194177944842	-69.0701988616988	0	0	0	0	
5925000000	0	0	-59.2478653946583	-76.1701339860327	0	0	0	0	
5950000000	0	0	-58.0564479204223	-111.653566626352	0	0	0	0	
5975000000	0	0	-58.9684394682882	-108.611185866999	0	0	0	0	
6000000000	0	0	-58.387301603041	-133.584593310189	0	0	0	0	
