!Keysight Technologies N9926A: A.08.19
!Date: Sunday, 01 March 2026 14:35:25
!Timezone: (GMT-06:00) Central Time (US & Canada)
!Model: N9926A
!Serial: MY53102721
!GPS Latitude: 
!GPS Longitude: 
!GPS TimeStamp: 0001-01-01 00:00:00Z
!GPS Seconds Since Last Read: 0
!CHECKSUM:0616281703
!Correction: S11()S21(ON U)S12()S22()
!S2P File: Measurements:S11,S21,S12,S22:
# Hz S DB R 50
1000000000	0	0	-65.9149098384503	109.819289967471	0	0	0	0	
1025000000	0	0	-71.9842568722751	-109.701843686825	0	0	0	0	
1050000000	0	0	-67.5365406792449	-60.1234388749694	0	0	0	0	
1075000000	0	0	-67.5693401121959	-79.1390710499254	0	0	0	0	
1100000000	0	0	-62.265917284119	50.6802016718851	0	0	0	0	
1125000000	0	0	-65.4924573068359	-162.544884130139	0	0	0	0	
1150000000	0	0	-62.7715158602209	-178.825299513364	0	0	0	0	
1175000000	0	0	-69.9366957522786	-28.1721910861966	0	0	0	0	
1200000000	0	0	-63.3772590354393	63.7029832714836	0	0	0	0	
1225000000	0	0	-60.8451321616792	135.789199962563	0	0	0	0	
1250000000	0	0	-56.4761163073808	-8.26075803478102	0	0	0	0	
1275000000	0	0	-56.6834645027912	-26.9458164973856	0	0	0	0	
1300000000	0	0	-61.0222716323596	64.2221976454158	0	0	0	0	
1325000000	0	0	-56.4292091047897	156.452098477033	0	0	0	0	
1350000000	0	0	-51.377814011075	-68.4715828615245	0	0	0	0	
1375000000	0	0	-51.8276266486973	36.5477957091295	0	0	0	0	
1400000000	0	0	-52.1776829041523	-25.296324402564	0	0	0	0	
1425000000	0	0	-57.3854707270779	87.7878433382709	0	0	0	0	
1450000000	0	0	-61.2781631236554	-77.0896887332533	0	0	0	0	
1475000000	0	0	-47.5408730826138	-17.094765557596	0	0	0	0	
1500000000	0	0	-55.7801928984051	-58.553588688257	0	0	0	0	
1525000000	0	0	-57.9340275242486	139.940139055889	0	0	0	0	
1550000000	0	0	-55.8616380620947	7.81243997963991	0	0	0	0	
1575000000	0	0	-60.4182908500831	-52.4846620406534	0	0	0	0	
1600000000	0	0	-59.6862214317091	-74.1951023070021	0	0	0	0	
1625000000	0	0	-57.9330241001327	14.4182580539557	0	0	0	0	
1650000000	0	0	-62.7974864142644	38.845587923836	0	0	0	0	
1675000000	0	0	-54.8316782685903	17.2299412232521	0	0	0	0	
1700000000	0	0	-62.7914931766792	119.966041734822	0	0	0	0	
1725000000	0	0	-56.766387886966	88.4529458960699	0	0	0	0	
1750000000	0	0	-58.0587552144949	103.560740166103	0	0	0	0	
1775000000	0	0	-63.4182176651624	-48.107498326389	0	0	0	0	
1800000000	0	0	-61.4285919759842	-100.930348984714	0	0	0	0	
1825000000	0	0	-60.52348890944	-45.8705102551307	0	0	0	0	
1850000000	0	0	-70.8578058939056	-59.8450446087562	0	0	0	0	
1875000000	0	0	-61.1099315870097	-36.7832909232415	0	0	0	0	
1900000000	0	0	-60.8006983598641	-166.719277724484	0	0	0	0	
1925000000	0	0	-61.6709966300275	129.211366418633	0	0	0	0	
1950000000	0	0	-65.5833118586564	64.3986697701745	0	0	0	0	
1975000000	0	0	-71.5292291532075	155.944776688922	0	0	0	0	
2000000000	0	0	-74.7381085803704	60.8991423195788	0	0	0	0	
2025000000	0	0	-62.4161277086946	-133.189697655955	0	0	0	0	
2050000000	0	0	-63.6625031820324	150.553536308475	0	0	0	0	
2075000000	0	0	-76.921836411412	-51.9555589751434	0	0	0	0	
2100000000	0	0	-60.3854695853286	11.794408166425	0	0	0	0	
2125000000	0	0	-71.5184576859343	-29.9068228491954	0	0	0	0	
2150000000	0	0	-80.5151627124475	6.03728949294192	0	0	0	0	
2175000000	0	0	-71.3835304100897	97.9970672504805	0	0	0	0	
2200000000	0	0	-71.9900419094569	-127.778520064309	0	0	0	0	
2225000000	0	0	-72.8849513896342	26.523339277741	0	0	0	0	
2250000000	0	0	-75.1077021867358	58.9003891603368	0	0	0	0	
2275000000	0	0	-85.2802979458219	35.8006269469422	0	0	0	0	
2300000000	0	0	-73.8976203773534	-141.184883804228	0	0	0	0	
2325000000	0	0	-64.8269238107197	-145.965040866609	0	0	0	0	
2350000000	0	0	-67.9225673924684	142.778840444483	0	0	0	0	
2375000000	0	0	-82.9486608165	-172.529378537914	0	0	0	0	
2400000000	0	0	-69.4234299829649	0.479239079064708	0	0	0	0	
2425000000	0	0	-66.4133125772963	-115.425365274604	0	0	0	0	
2450000000	0	0	-72.7595952147813	133.553822042767	0	0	0	0	
2475000000	0	0	-67.3665945815784	-116.792727879142	0	0	0	0	
2500000000	0	0	-67.2380583472968	-103.740044386693	0	0	0	0	
2525000000	0	0	-73.6656478765769	-11.1540484175439	0	0	0	0	
2550000000	0	0	-67.7191208266272	-67.888931807748	0	0	0	0	
2575000000	0	0	-71.0950334443734	-120.980413883171	0	0	0	0	
2600000000	0	0	-68.6479167078643	-80.7841429356804	0	0	0	0	
2625000000	0	0	-73.4282659547061	163.04174111346	0	0	0	0	
2650000000	0	0	-79.666082178582	89.6569562367847	0	0	0	0	
2675000000	0	0	-72.0578349573929	110.251561129969	0	0	0	0	
2700000000	0	0	-67.7882187021923	-158.047030231253	0	0	0	0	
2725000000	0	0	-67.3853200780814	86.4619305360707	0	0	0	0	
2750000000	0	0	-69.550769549119	177.301797308834	0	0	0	0	
2775000000	0	0	-66.5968082285018	62.5473004527655	0	0	0	0	
2800000000	0	0	-69.8544155623154	-125.09709205608	0	0	0	0	
2825000000	0	0	-65.0706604416567	46.7665993585818	0	0	0	0	
2850000000	0	0	-75.3951508296653	-48.0402789877441	0	0	0	0	
2875000000	0	0	-70.7639967574944	-20.4592466459308	0	0	0	0	
2900000000	0	0	-74.5237201278166	33.506459639746	0	0	0	0	
2925000000	0	0	-65.6335539777038	-137.096154890287	0	0	0	0	
2950000000	0	0	-72.4330945095727	135.11660931254	0	0	0	0	
2975000000	0	0	-71.9355418594931	-132.420956076243	0	0	0	0	
3000000000	0	0	-69.7436085654268	-66.975662523575	0	0	0	0	
3025000000	0	0	-78.7104757535024	-33.7511525034716	0	0	0	0	
3050000000	0	0	-75.4199100203709	-84.2266266929532	0	0	0	0	
3075000000	0	0	-67.5276818035373	-160.079873134167	0	0	0	0	
3100000000	0	0	-67.1057242244475	-158.884142203673	0	0	0	0	
3125000000	0	0	-74.7662692568598	-154.376253238985	0	0	0	0	
3150000000	0	0	-71.0351905147885	-46.6361177520508	0	0	0	0	
3175000000	0	0	-78.1507969032512	-65.541298825104	0	0	0	0	
3200000000	0	0	-67.358808102997	23.9091122109697	0	0	0	0	
3225000000	0	0	-66.1090119351	-165.234189823193	0	0	0	0	
3250000000	0	0	-75.9091300860101	165.045123022346	0	0	0	0	
3275000000	0	0	-61.1194329298061	33.3505666630822	0	0	0	0	
3300000000	0	0	-71.5522065859436	35.585569673478	0	0	0	0	
3325000000	0	0	-71.5489342754668	60.1756500447995	0	0	0	0	
3350000000	0	0	-76.1644047312385	12.0192659643774	0	0	0	0	
3375000000	0	0	-68.1412252381171	102.945551353092	0	0	0	0	
3400000000	0	0	-70.6896064940105	-41.3889112280851	0	0	0	0	
3425000000	0	0	-72.0197277770996	-171.915165257667	0	0	0	0	
3450000000	0	0	-67.3634699691781	17.7480392267733	0	0	0	0	
3475000000	0	0	-80.6278010598197	-160.99591397482	0	0	0	0	
3500000000	0	0	-72.8917704390934	-131.177073343829	0	0	0	0	
3525000000	0	0	-68.5704146522821	-113.641359965008	0	0	0	0	
3550000000	0	0	-75.1609216096332	-11.3487324504053	0	0	0	0	
3575000000	0	0	-66.0029589844825	-176.262398317486	0	0	0	0	
3600000000	0	0	-73.0736787020685	-35.2314514299634	0	0	0	0	
3625000000	0	0	-69.9062704500936	-143.961620608078	0	0	0	0	
3650000000	0	0	-76.3545284025819	-21.4378473785916	0	0	0	0	
3675000000	0	0	-74.7062477932227	51.2733193262867	0	0	0	0	
3700000000	0	0	-71.7787533833134	139.584218307188	0	0	0	0	
3725000000	0	0	-84.508615531069	-125.377453917187	0	0	0	0	
3750000000	0	0	-92.9698779007455	-151.213698380947	0	0	0	0	
3775000000	0	0	-63.895598556357	73.6851208390579	0	0	0	0	
3800000000	0	0	-77.0314351984051	11.8165555446754	0	0	0	0	
3825000000	0	0	-80.988185479378	-26.2898350549608	0	0	0	0	
3850000000	0	0	-66.0857457371497	78.5975248610205	0	0	0	0	
3875000000	0	0	-69.5286847583684	70.2518573402496	0	0	0	0	
3900000000	0	0	-72.2056622539484	153.591864264144	0	0	0	0	
3925000000	0	0	-76.3484980580677	-127.847066769507	0	0	0	0	
3950000000	0	0	-79.633688610683	-69.8942039712519	0	0	0	0	
3975000000	0	0	-72.1984210402921	-93.2164040657887	0	0	0	0	
4000000000	0	0	-66.3183442678374	-23.6513106504897	0	0	0	0	
4025000000	0	0	-70.4324403668643	-34.4536919835463	0	0	0	0	
4050000000	0	0	-63.4744738353948	-72.641232087439	0	0	0	0	
4075000000	0	0	-81.8464151258185	-83.9053202202252	0	0	0	0	
4100000000	0	0	-68.6354919060911	-39.3931606877139	0	0	0	0	
4125000000	0	0	-72.1150042087938	10.8662701296492	0	0	0	0	
4150000000	0	0	-72.8620053601102	-60.4637606528144	0	0	0	0	
4175000000	0	0	-73.7154367662906	-118.47402192826	0	0	0	0	
4200000000	0	0	-69.330771160486	-125.557069337238	0	0	0	0	
4225000000	0	0	-63.7379117071908	-155.245775003016	0	0	0	0	
4250000000	0	0	-75.2177486568039	-159.312155986919	0	0	0	0	
4275000000	0	0	-66.431984454894	144.623011070234	0	0	0	0	
4300000000	0	0	-61.6890189462851	102.016905966801	0	0	0	0	
4325000000	0	0	-67.8564176617637	96.9807139442782	0	0	0	0	
4350000000	0	0	-63.4267871390886	122.242869724004	0	0	0	0	
4375000000	0	0	-71.0230895927851	-6.09406465737084	0	0	0	0	
4400000000	0	0	-64.3289264526907	18.4706786810482	0	0	0	0	
4425000000	0	0	-65.5002862391518	111.177879013736	0	0	0	0	
4450000000	0	0	-70.5370908514979	3.18967630016117	0	0	0	0	
4475000000	0	0	-74.5006718265834	95.5566036837133	0	0	0	0	
4500000000	0	0	-62.6984408208634	2.33795758955804	0	0	0	0	
4525000000	0	0	-65.7396966970634	-91.8725668452734	0	0	0	0	
4550000000	0	0	-62.0795704120438	-71.9801600489481	0	0	0	0	
4575000000	0	0	-66.0247675559811	-74.8837618876887	0	0	0	0	
4600000000	0	0	-61.9480282216255	-100.805863877836	0	0	0	0	
4625000000	0	0	-64.002987035003	-138.741348936119	0	0	0	0	
4650000000	0	0	-60.43445413139	-133.327079887119	0	0	0	0	
4675000000	0	0	-60.9282279481157	-143.053974775547	0	0	0	0	
4700000000	0	0	-61.94762992191	-152.067082899863	0	0	0	0	
4725000000	0	0	-63.0025600829461	179.391572247167	0	0	0	0	
4750000000	0	0	-58.2662540996928	156.695191973712	0	0	0	0	
4775000000	0	0	-58.2905928405713	141.347309193899	0	0	0	0	
4800000000	0	0	-64.7736322194327	101.898068273428	0	0	0	0	
4825000000	0	0	-62.9374674684241	97.5109771445768	0	0	0	0	
4850000000	0	0	-62.4810514763697	106.652467531538	0	0	0	0	
4875000000	0	0	-53.7928618610489	63.3369435720513	0	0	0	0	
4900000000	0	0	-59.057594747876	21.3413535217573	0	0	0	0	
4925000000	0	0	-58.5115831683038	6.19394684903414	0	0	0	0	
4950000000	0	0	-55.9394087778733	5.90719295118221	0	0	0	0	
4975000000	0	0	-58.8667454492049	-43.3958490332808	0	0	0	0	
5000000000	0	0	-58.6425304984563	-55.2218490797108	0	0	0	0	
5025000000	0	0	-61.7496105892741	-79.9424212050183	0	0	0	0	
5050000000	0	0	-56.3948227355497	-49.7583112272247	0	0	0	0	
5075000000	0	0	-52.8799648764818	-87.5509895050045	0	0	0	0	
5100000000	0	0	-52.5297604709189	-130.994400147842	0	0	0	0	
5125000000	0	0	-58.8295905699814	166.789091543785	0	0	0	0	
5150000000	0	0	-58.1916737586247	-106.275118990716	0	0	0	0	
5175000000	0	0	-51.3787165852968	-156.491443392636	0	0	0	0	
5200000000	0	0	-49.8051681879842	165.887640909077	0	0	0	0	
5225000000	0	0	-54.7031878912443	111.82680193697	0	0	0	0	
5250000000	0	0	-57.6308539986738	111.069833783463	0	0	0	0	
5275000000	0	0	-53.9860240260259	101.619832455886	0	0	0	0	
5300000000	0	0	-49.1144842983657	79.4329801458969	0	0	0	0	
5325000000	0	0	-50.7759377178879	33.1964851836173	0	0	0	0	
5350000000	0	0	-53.2552561961722	7.81428356693572	0	0	0	0	
5375000000	0	0	-56.9047764988907	-3.34543309898592	0	0	0	0	
5400000000	0	0	-52.9849361868252	-8.39751282683303	0	0	0	0	
5425000000	0	0	-52.7291798815273	-54.554790685448	0	0	0	0	
5450000000	0	0	-54.9824920622382	-87.8375090272665	0	0	0	0	
5475000000	0	0	-59.5518978557726	-93.3041337537441	0	0	0	0	
5500000000	0	0	-59.1504798490616	-78.977732733576	0	0	0	0	
5525000000	0	0	-53.673403328384	-109.050622160667	0	0	0	0	
5550000000	0	0	-53.408269814898	-152.559985824512	0	0	0	0	
5575000000	0	0	-55.6334476999578	178.558208856942	0	0	0	0	
5600000000	0	0	-61.4372741665538	-168.590259215608	0	0	0	0	
5625000000	0	0	-58.3498408835892	179.447385239151	0	0	0	0	
5650000000	0	0	-55.4207055927611	159.211390043873	0	0	0	0	
5675000000	0	0	-57.3892656717873	117.330546694256	0	0	0	0	
5700000000	0	0	-56.9423181348486	82.2509889106804	0	0	0	0	
5725000000	0	0	-57.4383183790028	51.7889352067436	0	0	0	0	
5750000000	0	0	-54.5469072891529	40.5750945539231	0	0	0	0	
5775000000	0	0	-57.340294555966	32.8057587720434	0	0	0	0	
5800000000	0	0	-57.5504982428384	-5.10471643013704	0	0	0	0	
5825000000	0	0	-61.3490821744613	-38.7485364337878	0	0	0	0	
5850000000	0	0	-60.0777242090926	-29.8633282887758	0	0	0	0	
5875000000	0	0	-63.6850914496723	-28.6641771795678	0	0	0	0	
5900000000	0	0	-66.7220836457957	-48.3208531149796	0	0	0	0	
5925000000	0	0	-61.3684722997204	-57.1561248724207	0	0	0	0	
5950000000	0	0	-67.1094880157745	-135.591995190608	0	0	0	0	
5975000000	0	0	-68.048329845696	-61.3647211813604	0	0	0	0	
6000000000	0	0	-68.7460648668123	-160.383315196152	0	0	0	0	
