!Keysight Technologies N9926A: A.08.19
!Date: Sunday, 01 March 2026 14:33:15
!Timezone: (GMT-06:00) Central Time (US & Canada)
!Model: N9926A
!Serial: MY53102721
!GPS Latitude: 
!GPS Longitude: 
!GPS TimeStamp: 0001-01-01 00:00:00Z
!GPS Seconds Since Last Read: 0
!CHECKSUM:0438355014
!Correction: S11()S21(ON U)S12()S22()
!S2P File: Measurements:S11,S21,S12,S22:
# Hz S DB R 50
1000000000	0	0	-66.5714442215989	-42.3139400479105	0	0	0	0	
1025000000	0	0	-71.401345384788	28.1002721318317	0	0	0	0	
1050000000	0	0	-68.006999587508	30.1130158541957	0	0	0	0	
1075000000	0	0	-63.4128227720251	-88.1055784555813	0	0	0	0	
1100000000	0	0	-66.1546206947321	130.247881162482	0	0	0	0	
1125000000	0	0	-69.2963552392119	-41.3057668982812	0	0	0	0	
1150000000	0	0	-90.3339125813876	142.917545088065	0	0	0	0	
1175000000	0	0	-62.8182318240042	13.3630468935757	0	0	0	0	
1200000000	0	0	-78.8880566692908	-41.9046728454057	0	0	0	0	
1225000000	0	0	-67.9444094292955	92.0045687637303	0	0	0	0	
1250000000	0	0	-59.8850759223341	-6.62735814203897	0	0	0	0	
1275000000	0	0	-65.8608208229311	-113.126363648382	0	0	0	0	
1300000000	0	0	-58.5544352399658	-30.4654131755188	0	0	0	0	
1325000000	0	0	-59.1878581752371	85.5299205094419	0	0	0	0	
1350000000	0	0	-50.8266380626679	120.151696873699	0	0	0	0	
1375000000	0	0	-59.3933718159393	152.957076261032	0	0	0	0	
1400000000	0	0	-56.2339646274815	-136.121416193469	0	0	0	0	
1425000000	0	0	-55.9423440382544	22.4533566777315	0	0	0	0	
1450000000	0	0	-57.4685752294121	5.17965033602501	0	0	0	0	
1475000000	0	0	-59.7699756597817	-123.481777496774	0	0	0	0	
1500000000	0	0	-58.2975100147781	98.9619718065536	0	0	0	0	
1525000000	0	0	-57.2004733224462	-5.52446871221825	0	0	0	0	
1550000000	0	0	-53.9397251296041	21.9437671258949	0	0	0	0	
1575000000	0	0	-53.1998789795179	-47.5936857907519	0	0	0	0	
1600000000	0	0	-57.7732454310764	-158.44036046043	0	0	0	0	
1625000000	0	0	-61.983639805654	126.07555632315	0	0	0	0	
1650000000	0	0	-69.1792502720367	-103.222275156135	0	0	0	0	
1675000000	0	0	-67.3628745172651	-109.202423259857	0	0	0	0	
1700000000	0	0	-64.8301656023422	-16.8658311689344	0	0	0	0	
1725000000	0	0	-65.0204838437346	-20.245852968129	0	0	0	0	
1750000000	0	0	-60.0264872887738	-70.5203714121777	0	0	0	0	
1775000000	0	0	-64.2726240456476	17.3773919138144	0	0	0	0	
1800000000	0	0	-65.4410205013285	-106.589873461311	0	0	0	0	
1825000000	0	0	-70.3825190364709	-65.1416509557946	0	0	0	0	
1850000000	0	0	-64.8428443110656	-70.8620395177563	0	0	0	0	
1875000000	0	0	-64.0609676561116	-21.6639715289112	0	0	0	0	
1900000000	0	0	-67.3451765438348	68.8000754882243	0	0	0	0	
1925000000	0	0	-68.6319592411574	-152.433617816393	0	0	0	0	
1950000000	0	0	-67.5930320035678	36.9924953368358	0	0	0	0	
1975000000	0	0	-73.366995767368	33.3092125970697	0	0	0	0	
2000000000	0	0	-73.5659434120371	-20.9523540642681	0	0	0	0	
2025000000	0	0	-69.0317797585675	40.443502648505	0	0	0	0	
2050000000	0	0	-74.9187857605691	-56.2144630484135	0	0	0	0	
2075000000	0	0	-63.0454311317661	-156.800358272126	0	0	0	0	
2100000000	0	0	-62.4543485155903	-100.951429681794	0	0	0	0	
2125000000	0	0	-74.4799336459045	-9.54328488136637	0	0	0	0	
2150000000	0	0	-78.0108193382012	12.6439513672894	0	0	0	0	
2175000000	0	0	-66.9475625758342	88.2339661755103	0	0	0	0	
2200000000	0	0	-66.0024183977358	-156.559013951449	0	0	0	0	
2225000000	0	0	-60.7211724001794	119.869763177451	0	0	0	0	
2250000000	0	0	-70.4656585285848	130.383924994139	0	0	0	0	
2275000000	0	0	-69.8747476077833	34.7192658561364	0	0	0	0	
2300000000	0	0	-71.3945641922796	-174.577115943299	0	0	0	0	
2325000000	0	0	-68.3179692650277	-152.880901870823	0	0	0	0	
2350000000	0	0	-72.5800164508315	-12.5486222488936	0	0	0	0	
2375000000	0	0	-73.5613530677424	177.929938832203	0	0	0	0	
2400000000	0	0	-67.7734355073224	-114.353355395952	0	0	0	0	
2425000000	0	0	-65.7349896403405	49.3834430159203	0	0	0	0	
2450000000	0	0	-75.1609835879687	87.2592752475074	0	0	0	0	
2475000000	0	0	-64.6486464535233	-17.1847438944405	0	0	0	0	
2500000000	0	0	-69.5657851874632	-56.686314560113	0	0	0	0	
2525000000	0	0	-65.8533681693251	105.126240702492	0	0	0	0	
2550000000	0	0	-69.2173500376719	-156.668075732094	0	0	0	0	
2575000000	0	0	-75.2327509658687	36.9974084130889	0	0	0	0	
2600000000	0	0	-85.0563587366577	-107.994348021854	0	0	0	0	
2625000000	0	0	-70.8222264018717	147.032830301154	0	0	0	0	
2650000000	0	0	-65.9839184336798	159.440862559713	0	0	0	0	
2675000000	0	0	-72.9659569728345	-97.0713771974014	0	0	0	0	
2700000000	0	0	-74.2327462503391	106.956024459409	0	0	0	0	
2725000000	0	0	-66.4278860764102	-69.1407279094087	0	0	0	0	
2750000000	0	0	-66.9121124929763	-110.067924778708	0	0	0	0	
2775000000	0	0	-67.4221022872112	63.3560482041938	0	0	0	0	
2800000000	0	0	-75.6835083789549	-104.245422590599	0	0	0	0	
2825000000	0	0	-74.9793689586465	-99.1563469684286	0	0	0	0	
2850000000	0	0	-66.8880473255812	-25.832593988967	0	0	0	0	
2875000000	0	0	-69.813438084622	-114.370502802929	0	0	0	0	
2900000000	0	0	-71.9614980640675	-34.4492031141551	0	0	0	0	
2925000000	0	0	-79.1587135654039	-51.8584156247668	0	0	0	0	
2950000000	0	0	-69.8633413882639	163.237874099754	0	0	0	0	
2975000000	0	0	-66.6873723677917	-82.9447585136472	0	0	0	0	
3000000000	0	0	-65.7763737347442	-178.872343831783	0	0	0	0	
3025000000	0	0	-67.2704484081636	-32.6252249901006	0	0	0	0	
3050000000	0	0	-81.1527735224909	88.3209041965811	0	0	0	0	
3075000000	0	0	-66.1467018566519	177.446493878644	0	0	0	0	
3100000000	0	0	-71.2628205620759	132.836547741921	0	0	0	0	
3125000000	0	0	-81.8332194199525	-159.485516929688	0	0	0	0	
3150000000	0	0	-70.5539206142018	114.73312434058	0	0	0	0	
3175000000	0	0	-70.6012328333409	138.333153484194	0	0	0	0	
3200000000	0	0	-66.2112645256371	74.7096182421977	0	0	0	0	
3225000000	0	0	-65.6613073159771	144.922269344145	0	0	0	0	
3250000000	0	0	-75.4308957487693	66.9384845469508	0	0	0	0	
3275000000	0	0	-68.46031436447	168.45139829194	0	0	0	0	
3300000000	0	0	-64.8618346921776	79.1396477277606	0	0	0	0	
3325000000	0	0	-66.2383962632836	6.68866031645509	0	0	0	0	
3350000000	0	0	-79.2073307444353	-166.428993212409	0	0	0	0	
3375000000	0	0	-71.1703188225232	8.87418060404535	0	0	0	0	
3400000000	0	0	-71.6691505012392	-0.181533371151192	0	0	0	0	
3425000000	0	0	-66.5436490772764	31.0431885031667	0	0	0	0	
3450000000	0	0	-69.8195852408761	-24.965765954144	0	0	0	0	
3475000000	0	0	-69.2850125358793	-114.998081084902	0	0	0	0	
3500000000	0	0	-70.7867646886622	-128.003092825027	0	0	0	0	
3525000000	0	0	-69.8786578000154	7.52927307653312	0	0	0	0	
3550000000	0	0	-69.4341425512518	-101.34095829887	0	0	0	0	
3575000000	0	0	-79.8476268633887	50.0058434302091	0	0	0	0	
3600000000	0	0	-63.1571761570848	-97.1942603410088	0	0	0	0	
3625000000	0	0	-66.5520402867266	-107.079614090315	0	0	0	0	
3650000000	0	0	-81.5995488310908	62.2852507972816	0	0	0	0	
3675000000	0	0	-86.8291591276411	-16.5137912073102	0	0	0	0	
3700000000	0	0	-67.4244184904753	103.18980486659	0	0	0	0	
3725000000	0	0	-72.8672343229186	-35.3423419941506	0	0	0	0	
3750000000	0	0	-67.8355193787831	167.884809453805	0	0	0	0	
3775000000	0	0	-70.2393291021996	86.8060950235799	0	0	0	0	
3800000000	0	0	-83.8311149108694	-23.6089880249212	0	0	0	0	
3825000000	0	0	-70.817026466595	50.2491449709491	0	0	0	0	
3850000000	0	0	-80.144360229391	7.81749598853476	0	0	0	0	
3875000000	0	0	-74.4042688411569	-127.294414097283	0	0	0	0	
3900000000	0	0	-69.8288867772935	24.0245543075803	0	0	0	0	
3925000000	0	0	-68.4724919179268	127.515981587329	0	0	0	0	
3950000000	0	0	-66.3588786420896	5.91944035052102	0	0	0	0	
3975000000	0	0	-77.232292219506	162.662953666042	0	0	0	0	
4000000000	0	0	-67.0154372350032	-25.2396857875995	0	0	0	0	
4025000000	0	0	-68.7994386901119	-94.3501437942295	0	0	0	0	
4050000000	0	0	-63.8200840582386	1.53207469290705	0	0	0	0	
4075000000	0	0	-85.3561933742925	89.5373420180163	0	0	0	0	
4100000000	0	0	-66.8903740457267	-153.896106607981	0	0	0	0	
4125000000	0	0	-71.6117207561387	51.7186205694192	0	0	0	0	
4150000000	0	0	-74.2634856966903	67.1768008705453	0	0	0	0	
4175000000	0	0	-68.7595764386425	-38.3175882795472	0	0	0	0	
4200000000	0	0	-72.3560293080742	-160.82888828658	0	0	0	0	
4225000000	0	0	-71.7121488015454	-67.3611474304344	0	0	0	0	
4250000000	0	0	-70.4597991126831	125.972478276584	0	0	0	0	
4275000000	0	0	-67.9708831746165	-178.453075359123	0	0	0	0	
4300000000	0	0	-66.1130979037234	110.066955163989	0	0	0	0	
4325000000	0	0	-63.707080886991	86.3946645129609	0	0	0	0	
4350000000	0	0	-60.0279590520378	96.0431302656654	0	0	0	0	
4375000000	0	0	-69.990746354667	128.849033867426	0	0	0	0	
4400000000	0	0	-81.5046253032361	-4.68669028764069	0	0	0	0	
4425000000	0	0	-63.9232860718085	70.7488363869669	0	0	0	0	
4450000000	0	0	-66.8397848945348	124.735592209674	0	0	0	0	
4475000000	0	0	-65.6917474266288	7.94886501405544	0	0	0	0	
4500000000	0	0	-63.8346914854499	-18.4143784162965	0	0	0	0	
4525000000	0	0	-60.9229962316381	-0.987839437091647	0	0	0	0	
4550000000	0	0	-60.5441465134316	-45.0150015959478	0	0	0	0	
4575000000	0	0	-66.5747366066953	-60.5460293371459	0	0	0	0	
4600000000	0	0	-67.7574062889561	-80.1708330913018	0	0	0	0	
4625000000	0	0	-61.7510420089213	-101.680601552364	0	0	0	0	
4650000000	0	0	-60.1791888940927	-114.234114062435	0	0	0	0	
4675000000	0	0	-60.877297378428	-147.16590124403	0	0	0	0	
4700000000	0	0	-63.7748542465652	-144.791786590461	0	0	0	0	
4725000000	0	0	-64.9507753840732	-145.351028458836	0	0	0	0	
4750000000	0	0	-62.1427565619844	158.440519006775	0	0	0	0	
4775000000	0	0	-64.2573117596585	145.865181436622	0	0	0	0	
4800000000	0	0	-59.2685457076964	146.922413560275	0	0	0	0	
4825000000	0	0	-64.0339710876162	166.047112304647	0	0	0	0	
4850000000	0	0	-59.0608708860742	110.39943332752	0	0	0	0	
4875000000	0	0	-56.6475592043528	70.7938758031392	0	0	0	0	
4900000000	0	0	-66.4987289176356	49.181709590167	0	0	0	0	
4925000000	0	0	-66.7277451261818	101.264271761835	0	0	0	0	
4950000000	0	0	-55.3015334451747	58.7055359125292	0	0	0	0	
4975000000	0	0	-60.1950201011737	12.8398293720662	0	0	0	0	
5000000000	0	0	-58.2728728946984	-15.1028900581907	0	0	0	0	
5025000000	0	0	-60.9488258712008	-23.9963920403906	0	0	0	0	
5050000000	0	0	-60.1158466547108	-10.0829210608965	0	0	0	0	
5075000000	0	0	-54.2590784109549	-28.7927905359753	0	0	0	0	
5100000000	0	0	-55.6836873163961	-71.9942169293228	0	0	0	0	
5125000000	0	0	-55.6305250326089	-90.7801081094154	0	0	0	0	
5150000000	0	0	-57.0429214155776	-100.448046892226	0	0	0	0	
5175000000	0	0	-54.6561565332878	-129.548144734189	0	0	0	0	
5200000000	0	0	-52.925137424235	-157.182689719047	0	0	0	0	
5225000000	0	0	-51.536688015232	-171.58614315079	0	0	0	0	
5250000000	0	0	-52.5998307752889	159.751576706941	0	0	0	0	
5275000000	0	0	-51.8105113825809	135.717341026434	0	0	0	0	
5300000000	0	0	-53.4897585887227	106.631539073053	0	0	0	0	
5325000000	0	0	-54.178124846423	79.0103907063545	0	0	0	0	
5350000000	0	0	-57.5988052562431	63.428575073199	0	0	0	0	
5375000000	0	0	-55.2683544499917	16.3565646538374	0	0	0	0	
5400000000	0	0	-54.3329725605851	12.5821697492645	0	0	0	0	
5425000000	0	0	-55.1962516227424	-10.4503552834886	0	0	0	0	
5450000000	0	0	-56.1875289140043	-24.1317249658507	0	0	0	0	
5475000000	0	0	-55.2579641313224	-40.3570478765456	0	0	0	0	
5500000000	0	0	-55.6255801964569	-48.2417375454453	0	0	0	0	
5525000000	0	0	-58.4458058419893	-73.9162798301013	0	0	0	0	
5550000000	0	0	-59.0666859061673	-95.7959786879275	0	0	0	0	
5575000000	0	0	-59.2611809368523	-114.206498601802	0	0	0	0	
5600000000	0	0	-56.9769748623524	-140.521929499655	0	0	0	0	
5625000000	0	0	-56.8125545770207	-162.788955052914	0	0	0	0	
5650000000	0	0	-56.0737483753226	179.950549513415	0	0	0	0	
5675000000	0	0	-56.8318925897687	163.411448897713	0	0	0	0	
5700000000	0	0	-63.1178493197863	139.385633245858	0	0	0	0	
5725000000	0	0	-61.0103671888445	139.939723662396	0	0	0	0	
5750000000	0	0	-63.2948980003305	92.7031829192608	0	0	0	0	
5775000000	0	0	-62.5108319494845	91.3125553221907	0	0	0	0	
5800000000	0	0	-60.9412340888502	66.7098248259883	0	0	0	0	
5825000000	0	0	-60.5699849562241	17.2197246783389	0	0	0	0	
5850000000	0	0	-63.1606973823467	16.0004798367786	0	0	0	0	
5875000000	0	0	-60.990301602513	7.4221490914836	0	0	0	0	
5900000000	0	0	-59.6755132848382	-2.83047862153618	0	0	0	0	
5925000000	0	0	-67.7791052217371	-2.00191819044217	0	0	0	0	
5950000000	0	0	-63.3121521708956	2.37379009470519	0	0	0	0	
5975000000	0	0	-64.0576194376349	31.3714372382327	0	0	0	0	
6000000000	0	0	-65.0889611590446	-31.7758522766315	0	0	0	0	
