!Keysight Technologies N9926A: A.08.19
!Date: Sunday, 01 March 2026 14:38:00
!Timezone: (GMT-06:00) Central Time (US & Canada)
!Model: N9926A
!Serial: MY53102721
!GPS Latitude: 
!GPS Longitude: 
!GPS TimeStamp: 0001-01-01 00:00:00Z
!GPS Seconds Since Last Read: 0
!CHECKSUM:1579449515
!Correction: S11()S21(ON U)S12()S22()
!S2P File: Measurements:S11,S21,S12,S22:
# Hz S DB R 50
1000000000	0	0	-68.3727683641049	81.978351062291	0	0	0	0	
1025000000	0	0	-79.6253868411956	-48.1315474168073	0	0	0	0	
1050000000	0	0	-62.419465499491	-23.4276031510598	0	0	0	0	
1075000000	0	0	-62.3650709900266	34.6716399667955	0	0	0	0	
1100000000	0	0	-72.5433611798387	163.901850688928	0	0	0	0	
1125000000	0	0	-68.3860447819593	-88.9218553536735	0	0	0	0	
1150000000	0	0	-79.2075408786285	87.4259363334465	0	0	0	0	
1175000000	0	0	-69.4477085498662	-159.283310697311	0	0	0	0	
1200000000	0	0	-63.8693563071604	-55.4411798696045	0	0	0	0	
1225000000	0	0	-67.938333131004	45.4114832988118	0	0	0	0	
1250000000	0	0	-61.1926484109835	-19.7372002323315	0	0	0	0	
1275000000	0	0	-66.5335333802914	50.4288341743758	0	0	0	0	
1300000000	0	0	-62.7598397783379	161.945298702311	0	0	0	0	
1325000000	0	0	-56.4020929089517	-83.6205885143671	0	0	0	0	
1350000000	0	0	-52.7355911800276	132.415862342028	0	0	0	0	
1375000000	0	0	-48.0592964195051	33.086192712759	0	0	0	0	
1400000000	0	0	-65.188723082226	-145.854783025458	0	0	0	0	
1425000000	0	0	-53.3317417846968	128.452244885426	0	0	0	0	
1450000000	0	0	-50.3998223483573	173.589857833782	0	0	0	0	
1475000000	0	0	-50.7581932851844	35.9990518557322	0	0	0	0	
1500000000	0	0	-53.0517771264914	79.9483922542899	0	0	0	0	
1525000000	0	0	-57.5699232086897	-59.1541530444928	0	0	0	0	
1550000000	0	0	-55.8461518648464	-142.141586699865	0	0	0	0	
1575000000	0	0	-51.2991749710182	-64.4192669603509	0	0	0	0	
1600000000	0	0	-67.0565711370135	127.960641569116	0	0	0	0	
1625000000	0	0	-63.7621832961104	79.6169148379966	0	0	0	0	
1650000000	0	0	-57.4731014209676	-120.579277674159	0	0	0	0	
1675000000	0	0	-61.6301969191615	150.453942977485	0	0	0	0	
1700000000	0	0	-59.4677849670654	-178.865066531587	0	0	0	0	
1725000000	0	0	-62.8732730427573	126.864405265162	0	0	0	0	
1750000000	0	0	-59.9634840443474	-160.717350459843	0	0	0	0	
1775000000	0	0	-58.2074180937338	114.425202846445	0	0	0	0	
1800000000	0	0	-60.5939944453109	-68.058180308298	0	0	0	0	
1825000000	0	0	-68.1727231247318	98.2290797710496	0	0	0	0	
1850000000	0	0	-63.4310997321961	-3.88509131444281	0	0	0	0	
1875000000	0	0	-58.810475960393	-81.4648899958026	0	0	0	0	
1900000000	0	0	-68.7460883229794	-178.900034916822	0	0	0	0	
1925000000	0	0	-78.1631164123421	-55.0528530347469	0	0	0	0	
1950000000	0	0	-65.2191517072469	149.259986723745	0	0	0	0	
1975000000	0	0	-66.5092838331992	-2.79978061348425	0	0	0	0	
2000000000	0	0	-61.9379664156425	165.275752782742	0	0	0	0	
2025000000	0	0	-71.6879307790437	9.73434101896583	0	0	0	0	
2050000000	0	0	-68.9395125268145	-115.733509568626	0	0	0	0	
2075000000	0	0	-68.1663909422672	-9.91695078763217	0	0	0	0	
2100000000	0	0	-69.6637440095178	-173.530677625975	0	0	0	0	
2125000000	0	0	-64.640721728552	52.2287810090107	0	0	0	0	
2150000000	0	0	-64.76557586999	-118.012304527398	0	0	0	0	
2175000000	0	0	-69.2919687985384	32.5313403173252	0	0	0	0	
2200000000	0	0	-76.8538637368487	-3.64211341174297	0	0	0	0	
2225000000	0	0	-75.8505401347496	69.3843165257498	0	0	0	0	
2250000000	0	0	-75.8238552318573	60.5862764529525	0	0	0	0	
2275000000	0	0	-74.2922712217116	-166.251293116289	0	0	0	0	
2300000000	0	0	-65.2443064169994	91.9956759735362	0	0	0	0	
2325000000	0	0	-65.2016165281057	-127.43351309385	0	0	0	0	
2350000000	0	0	-69.8642195413144	-37.3312059607899	0	0	0	0	
2375000000	0	0	-74.3121443677072	123.023884974256	0	0	0	0	
2400000000	0	0	-81.6474626100706	20.5239581418322	0	0	0	0	
2425000000	0	0	-70.3609293550045	-53.387901325932	0	0	0	0	
2450000000	0	0	-64.3409419850836	-113.351572683618	0	0	0	0	
2475000000	0	0	-68.7006854284897	69.1575198996927	0	0	0	0	
2500000000	0	0	-67.9549716246678	113.788142247019	0	0	0	0	
2525000000	0	0	-67.0393836669004	-73.0461858627977	0	0	0	0	
2550000000	0	0	-64.4459643016847	109.941476386205	0	0	0	0	
2575000000	0	0	-72.8298874444002	18.0408950073131	0	0	0	0	
2600000000	0	0	-71.1164384814868	19.1979873439329	0	0	0	0	
2625000000	0	0	-67.4542053304082	-167.382171697199	0	0	0	0	
2650000000	0	0	-73.4144859113898	2.12640160210739	0	0	0	0	
2675000000	0	0	-67.4787464374986	52.3040628023205	0	0	0	0	
2700000000	0	0	-85.6266565662374	170.857611110628	0	0	0	0	
2725000000	0	0	-68.733629264506	72.1410592876189	0	0	0	0	
2750000000	0	0	-62.8874492969079	-51.8913507676511	0	0	0	0	
2775000000	0	0	-74.075916592552	74.4522367445012	0	0	0	0	
2800000000	0	0	-65.6001712841869	-77.6547855558379	0	0	0	0	
2825000000	0	0	-70.6823190157812	178.297643195452	0	0	0	0	
2850000000	0	0	-75.0018259887142	-28.6000826903748	0	0	0	0	
2875000000	0	0	-71.7893793728441	-169.691864286439	0	0	0	0	
2900000000	0	0	-61.5004080334714	3.25947691462413	0	0	0	0	
2925000000	0	0	-76.5028713317251	9.57391803513362	0	0	0	0	
2950000000	0	0	-66.8709780212935	47.8606362003893	0	0	0	0	
2975000000	0	0	-70.6415201988924	112.563294448745	0	0	0	0	
3000000000	0	0	-65.9547112071758	-92.1795446137873	0	0	0	0	
3025000000	0	0	-67.7173199776705	-27.9126495152008	0	0	0	0	
3050000000	0	0	-68.4227076577772	60.5137258401622	0	0	0	0	
3075000000	0	0	-68.0335453408399	-163.852733200905	0	0	0	0	
3100000000	0	0	-70.075902766217	-11.1851601223912	0	0	0	0	
3125000000	0	0	-69.3807431076196	174.430186025315	0	0	0	0	
3150000000	0	0	-77.9246125820662	11.5095513743467	0	0	0	0	
3175000000	0	0	-69.2073924051661	137.89269343399	0	0	0	0	
3200000000	0	0	-83.5753951346087	143.959254606291	0	0	0	0	
3225000000	0	0	-67.09094888634	107.462748006337	0	0	0	0	
3250000000	0	0	-64.1227191439574	136.232147764695	0	0	0	0	
3275000000	0	0	-71.8554578591743	77.4854653274773	0	0	0	0	
3300000000	0	0	-65.825349731218	-12.8257273075342	0	0	0	0	
3325000000	0	0	-67.4741394468967	154.305517457651	0	0	0	0	
3350000000	0	0	-67.4593654600659	-26.6216436430482	0	0	0	0	
3375000000	0	0	-71.4210645102654	-100.97200646624	0	0	0	0	
3400000000	0	0	-62.4701585656651	-137.487040116879	0	0	0	0	
3425000000	0	0	-70.1834457806827	91.9608966489898	0	0	0	0	
3450000000	0	0	-65.6054571245163	67.2021482937136	0	0	0	0	
3475000000	0	0	-64.5857836193952	-30.9682970037466	0	0	0	0	
3500000000	0	0	-70.4422899474465	90.8094300081699	0	0	0	0	
3525000000	0	0	-63.6822760469727	136.336378639577	0	0	0	0	
3550000000	0	0	-89.5213762102333	-155.132183147663	0	0	0	0	
3575000000	0	0	-71.4549703971609	150.974165043266	0	0	0	0	
3600000000	0	0	-66.6964922757732	-143.488491255992	0	0	0	0	
3625000000	0	0	-68.2240848954852	134.613436779245	0	0	0	0	
3650000000	0	0	-76.937626157856	144.020844795521	0	0	0	0	
3675000000	0	0	-65.2627935046518	-112.272180186846	0	0	0	0	
3700000000	0	0	-75.4749881071467	-2.10678230281411	0	0	0	0	
3725000000	0	0	-67.9139011268344	-120.419797578715	0	0	0	0	
3750000000	0	0	-84.2184547593437	144.415008916394	0	0	0	0	
3775000000	0	0	-70.6946306225641	177.870884047121	0	0	0	0	
3800000000	0	0	-68.3332515962317	-118.817779242034	0	0	0	0	
3825000000	0	0	-78.0582338623536	-74.5119869204098	0	0	0	0	
3850000000	0	0	-74.8897795817749	-17.3079050613458	0	0	0	0	
3875000000	0	0	-70.7894748460501	-65.5738186289205	0	0	0	0	
3900000000	0	0	-71.8688496774993	87.5350453704146	0	0	0	0	
3925000000	0	0	-85.3837515385301	-24.9151519408898	0	0	0	0	
3950000000	0	0	-66.2288766568735	-107.394623052444	0	0	0	0	
3975000000	0	0	-66.3759885091833	26.0747431283895	0	0	0	0	
4000000000	0	0	-64.6407659613973	-15.8562251931812	0	0	0	0	
4025000000	0	0	-64.2757060470824	-124.735305295402	0	0	0	0	
4050000000	0	0	-87.7489749176298	127.508721808109	0	0	0	0	
4075000000	0	0	-82.8920223475615	152.351022567519	0	0	0	0	
4100000000	0	0	-72.9370733181012	174.030719880612	0	0	0	0	
4125000000	0	0	-63.9986152073687	-92.287632810417	0	0	0	0	
4150000000	0	0	-77.7165753399433	112.209752670744	0	0	0	0	
4175000000	0	0	-70.6125376331802	155.486657178638	0	0	0	0	
4200000000	0	0	-63.5788023637931	-179.366717530127	0	0	0	0	
4225000000	0	0	-63.9759324497288	167.530269757266	0	0	0	0	
4250000000	0	0	-67.9200277310054	147.035870593389	0	0	0	0	
4275000000	0	0	-69.3530871774783	98.5367415176604	0	0	0	0	
4300000000	0	0	-73.0839837465485	44.2647935222655	0	0	0	0	
4325000000	0	0	-65.1733078776992	137.430584446066	0	0	0	0	
4350000000	0	0	-70.1890847224754	96.221637769692	0	0	0	0	
4375000000	0	0	-65.8724637191465	109.863146079197	0	0	0	0	
4400000000	0	0	-65.7281453539478	71.3497578723599	0	0	0	0	
4425000000	0	0	-67.8620072982044	64.0020281059164	0	0	0	0	
4450000000	0	0	-62.1586075012066	75.1095487625898	0	0	0	0	
4475000000	0	0	-60.8222001602901	-2.62820644189515	0	0	0	0	
4500000000	0	0	-68.9869051760562	-41.7321108369931	0	0	0	0	
4525000000	0	0	-63.7279329816003	-3.73145323149732	0	0	0	0	
4550000000	0	0	-66.7011782525193	-8.802758065261	0	0	0	0	
4575000000	0	0	-60.9826953833251	-101.636901246474	0	0	0	0	
4600000000	0	0	-59.6097250609014	-90.1519857135771	0	0	0	0	
4625000000	0	0	-62.2346641796382	-134.620223686034	0	0	0	0	
4650000000	0	0	-66.8975460691455	-166.480664433488	0	0	0	0	
4675000000	0	0	-61.9101823870615	-143.978172026656	0	0	0	0	
4700000000	0	0	-59.2661864310045	-173.581010500318	0	0	0	0	
4725000000	0	0	-61.2823722794652	178.553234037543	0	0	0	0	
4750000000	0	0	-60.913715077284	136.156010737499	0	0	0	0	
4775000000	0	0	-62.6007595515028	102.98538244085	0	0	0	0	
4800000000	0	0	-60.1229149313117	127.676441161533	0	0	0	0	
4825000000	0	0	-57.0316495509428	91.6236281791062	0	0	0	0	
4850000000	0	0	-58.1968136491453	69.006031407355	0	0	0	0	
4875000000	0	0	-59.4831616206878	60.3588259466411	0	0	0	0	
4900000000	0	0	-63.6389188228005	57.4205353444082	0	0	0	0	
4925000000	0	0	-56.58412470218	15.9222542387206	0	0	0	0	
4950000000	0	0	-54.4654120030957	0.287115984447503	0	0	0	0	
4975000000	0	0	-56.0342378180427	-7.80952829212153	0	0	0	0	
5000000000	0	0	-56.1108586564746	-83.7210045706212	0	0	0	0	
5025000000	0	0	-60.2414322587745	-81.4534594075507	0	0	0	0	
5050000000	0	0	-55.9623198219794	-68.3311512612322	0	0	0	0	
5075000000	0	0	-53.9554591205757	-95.8062987169682	0	0	0	0	
5100000000	0	0	-54.2551562161291	-142.162419678723	0	0	0	0	
5125000000	0	0	-56.6410081155339	-162.006636290669	0	0	0	0	
5150000000	0	0	-55.4277344532137	-156.614307215985	0	0	0	0	
5175000000	0	0	-53.5284373623759	-162.652359793556	0	0	0	0	
5200000000	0	0	-51.4257713274206	148.207170666167	0	0	0	0	
5225000000	0	0	-51.8231459639641	105.005049302861	0	0	0	0	
5250000000	0	0	-56.299576694959	88.9126940973897	0	0	0	0	
5275000000	0	0	-57.419682281481	101.418951818345	0	0	0	0	
5300000000	0	0	-52.8490042007908	73.2221872825356	0	0	0	0	
5325000000	0	0	-49.5965543808288	40.2222944018004	0	0	0	0	
5350000000	0	0	-53.532037528794	-7.86726451683872	0	0	0	0	
5375000000	0	0	-57.4794271552538	-35.4722257976567	0	0	0	0	
5400000000	0	0	-55.7852677716391	-18.9951023174547	0	0	0	0	
5425000000	0	0	-53.35993439114	-38.9295021288633	0	0	0	0	
5450000000	0	0	-53.7375850551279	-85.8854444733634	0	0	0	0	
5475000000	0	0	-56.0488449609504	-100.9603887082	0	0	0	0	
5500000000	0	0	-59.1704560324158	-117.588811796796	0	0	0	0	
5525000000	0	0	-54.6633462564815	-126.682322987814	0	0	0	0	
5550000000	0	0	-54.7327011762311	-157.101994663545	0	0	0	0	
5575000000	0	0	-54.4252456462427	169.425432701427	0	0	0	0	
5600000000	0	0	-59.8293803168373	169.780293552213	0	0	0	0	
5625000000	0	0	-58.331867385087	146.612860581743	0	0	0	0	
5650000000	0	0	-56.2567145626082	131.036908394136	0	0	0	0	
5675000000	0	0	-60.4820268150232	129.049449073702	0	0	0	0	
5700000000	0	0	-57.9856847816173	88.0582874256688	0	0	0	0	
5725000000	0	0	-57.5499397532926	54.8208261714543	0	0	0	0	
5750000000	0	0	-56.4819851930428	69.8835612966518	0	0	0	0	
5775000000	0	0	-56.5110466158596	15.0811825291963	0	0	0	0	
5800000000	0	0	-57.0619246616382	-13.4732260901644	0	0	0	0	
5825000000	0	0	-59.6857925187321	-25.3935904626754	0	0	0	0	
5850000000	0	0	-59.60944042127	-47.8280414998459	0	0	0	0	
5875000000	0	0	-64.236245067196	-74.0382062287218	0	0	0	0	
5900000000	0	0	-55.7495011331956	-68.2295224055459	0	0	0	0	
5925000000	0	0	-61.1545866892748	-88.4758346029812	0	0	0	0	
5950000000	0	0	-59.4220764275577	-145.782762795219	0	0	0	0	
5975000000	0	0	-68.1801852316319	-115.762100121866	0	0	0	0	
6000000000	0	0	-62.1235243369516	-123.714911985759	0	0	0	0	
