!Keysight Technologies N9926A: A.08.19
!Date: Sunday, 01 March 2026 14:03:35
!Timezone: (GMT-06:00) Central Time (US & Canada)
!Model: N9926A
!Serial: MY53102721
!GPS Latitude: 
!GPS Longitude: 
!GPS TimeStamp: 0001-01-01 00:00:00Z
!GPS Seconds Since Last Read: 0
!CHECKSUM:1825003702
!Correction: S11()S21(ON U)S12()S22()
!S2P File: Measurements:S11,S21,S12,S22:
# Hz S DB R 50
1000000000	0	0	-75.425585508321	-47.7772204433352	0	0	0	0	
1025000000	0	0	-76.6286941711119	157.559282944121	0	0	0	0	
1050000000	0	0	-66.6932688918495	-67.29873618981	0	0	0	0	
1075000000	0	0	-75.4572596201743	-69.3784131470846	0	0	0	0	
1100000000	0	0	-70.1519676072486	-95.9593548838192	0	0	0	0	
1125000000	0	0	-64.6484621512632	17.2877113709746	0	0	0	0	
1150000000	0	0	-68.1428838567497	-79.2342042382198	0	0	0	0	
1175000000	0	0	-63.5079989764923	-43.856372157096	0	0	0	0	
1200000000	0	0	-58.9059165891486	97.3703413747131	0	0	0	0	
1225000000	0	0	-62.9380393124819	-64.2707123283283	0	0	0	0	
1250000000	0	0	-58.6892654592442	151.927074548029	0	0	0	0	
1275000000	0	0	-62.7906601777314	10.816113907322	0	0	0	0	
1300000000	0	0	-67.2100988394802	6.24121546644051	0	0	0	0	
1325000000	0	0	-53.9340915104423	112.587452955282	0	0	0	0	
1350000000	0	0	-51.0013640744284	-178.541170237042	0	0	0	0	
1375000000	0	0	-59.7453644960372	-137.120492540483	0	0	0	0	
1400000000	0	0	-55.8301336907401	19.4905291154561	0	0	0	0	
1425000000	0	0	-52.9618650610042	147.791591015245	0	0	0	0	
1450000000	0	0	-64.6065783617015	-78.1720032696278	0	0	0	0	
1475000000	0	0	-61.6196390657267	80.2212328445879	0	0	0	0	
1500000000	0	0	-59.0211710006835	-174.564568757962	0	0	0	0	
1525000000	0	0	-61.2093461957829	-98.717292139165	0	0	0	0	
1550000000	0	0	-57.4685987363039	136.845601688757	0	0	0	0	
1575000000	0	0	-54.5684650786802	9.12440909298018	0	0	0	0	
1600000000	0	0	-56.6587438611239	-0.625583675659976	0	0	0	0	
1625000000	0	0	-59.4960788213835	-85.2671425438993	0	0	0	0	
1650000000	0	0	-60.2017878430841	-51.4035907058381	0	0	0	0	
1675000000	0	0	-84.8710724476915	-171.525490529866	0	0	0	0	
1700000000	0	0	-70.417168164403	113.471880338446	0	0	0	0	
1725000000	0	0	-65.9621944928085	25.3475927960059	0	0	0	0	
1750000000	0	0	-58.9927806382433	-47.893439177142	0	0	0	0	
1775000000	0	0	-60.260829532545	0.602300013338153	0	0	0	0	
1800000000	0	0	-75.426784629188	120.817014747874	0	0	0	0	
1825000000	0	0	-62.1620656315495	-105.513843988808	0	0	0	0	
1850000000	0	0	-66.1927807698438	124.325036541988	0	0	0	0	
1875000000	0	0	-76.0393287200806	-123.68222966923	0	0	0	0	
1900000000	0	0	-58.8819481429891	157.006749343329	0	0	0	0	
1925000000	0	0	-64.8559728841351	42.1191446577115	0	0	0	0	
1950000000	0	0	-66.3930555857603	85.814847963891	0	0	0	0	
1975000000	0	0	-71.2799639651698	-124.891973779637	0	0	0	0	
2000000000	0	0	-69.9435592273322	-131.426501975458	0	0	0	0	
2025000000	0	0	-68.9978235247256	-72.2821982438376	0	0	0	0	
2050000000	0	0	-71.1047409410513	-81.420167192825	0	0	0	0	
2075000000	0	0	-61.697705339447	-165.512963614587	0	0	0	0	
2100000000	0	0	-64.4704359905046	22.3382563717993	0	0	0	0	
2125000000	0	0	-72.5418564503518	-10.2422052129764	0	0	0	0	
2150000000	0	0	-60.5783963623419	78.9462518816952	0	0	0	0	
2175000000	0	0	-68.0217780990435	81.1747990815102	0	0	0	0	
2200000000	0	0	-63.7301740178629	42.0556052193567	0	0	0	0	
2225000000	0	0	-78.5010441725744	-57.5063068834186	0	0	0	0	
2250000000	0	0	-69.7718280829258	68.4799331064817	0	0	0	0	
2275000000	0	0	-75.4085381647933	-31.43571310485	0	0	0	0	
2300000000	0	0	-61.1296748538924	15.5819212624746	0	0	0	0	
2325000000	0	0	-71.7826554795307	-60.657308627682	0	0	0	0	
2350000000	0	0	-77.2377246555224	-20.7864062177237	0	0	0	0	
2375000000	0	0	-78.3069478877111	-12.246103178827	0	0	0	0	
2400000000	0	0	-71.4913632645777	-43.7404511886582	0	0	0	0	
2425000000	0	0	-61.5271640113357	-34.9731477820855	0	0	0	0	
2450000000	0	0	-69.3017591738474	-30.0557254482675	0	0	0	0	
2475000000	0	0	-74.8800515766164	-114.687031301371	0	0	0	0	
2500000000	0	0	-62.2008425631423	-120.422174809516	0	0	0	0	
2525000000	0	0	-72.8044565170966	-23.0520023095114	0	0	0	0	
2550000000	0	0	-66.3269670043913	-174.080127354713	0	0	0	0	
2575000000	0	0	-68.9862300929557	-150.690695951791	0	0	0	0	
2600000000	0	0	-75.5500040829171	-167.656958940859	0	0	0	0	
2625000000	0	0	-65.8480104742528	94.279446778115	0	0	0	0	
2650000000	0	0	-70.0677186020839	-145.245826272036	0	0	0	0	
2675000000	0	0	-65.2617268882394	143.866111181272	0	0	0	0	
2700000000	0	0	-68.8902984836752	144.823700591864	0	0	0	0	
2725000000	0	0	-70.3511377271417	-158.614875899644	0	0	0	0	
2750000000	0	0	-63.9073089615697	-145.012295016016	0	0	0	0	
2775000000	0	0	-64.8964424051267	145.357088980649	0	0	0	0	
2800000000	0	0	-74.8160275523347	179.572796454789	0	0	0	0	
2825000000	0	0	-68.5293676815398	97.5844487350438	0	0	0	0	
2850000000	0	0	-68.4213706474614	87.28609656396	0	0	0	0	
2875000000	0	0	-63.2920245587458	44.0137639980796	0	0	0	0	
2900000000	0	0	-69.616181556794	112.944000647045	0	0	0	0	
2925000000	0	0	-66.5372889841219	45.5854666886819	0	0	0	0	
2950000000	0	0	-67.0746298889504	20.7584761100512	0	0	0	0	
2975000000	0	0	-85.2211792354814	132.162733925571	0	0	0	0	
3000000000	0	0	-65.5119746919552	-2.40156471301943	0	0	0	0	
3025000000	0	0	-67.2521118357595	18.5833819657292	0	0	0	0	
3050000000	0	0	-66.8784181833302	-43.9926337268084	0	0	0	0	
3075000000	0	0	-66.3772656344922	77.1673506406693	0	0	0	0	
3100000000	0	0	-65.5229991190929	1.36356909181877	0	0	0	0	
3125000000	0	0	-78.1065676309356	5.44603528521872	0	0	0	0	
3150000000	0	0	-63.4900832524065	6.75403808036175	0	0	0	0	
3175000000	0	0	-62.2036347794737	-22.6659575893713	0	0	0	0	
3200000000	0	0	-62.7322056475415	-74.4048468545347	0	0	0	0	
3225000000	0	0	-61.8177599755162	-47.5514302763984	0	0	0	0	
3250000000	0	0	-66.2125087665831	-99.86935084016	0	0	0	0	
3275000000	0	0	-62.4431246002663	-40.0879338252171	0	0	0	0	
3300000000	0	0	-63.4033394637001	-142.895488513429	0	0	0	0	
3325000000	0	0	-61.1520859365793	-120.518850747707	0	0	0	0	
3350000000	0	0	-61.3058065888173	-61.0779697726106	0	0	0	0	
3375000000	0	0	-63.2986257077856	-114.619835408124	0	0	0	0	
3400000000	0	0	-59.7378453431463	-106.364175417529	0	0	0	0	
3425000000	0	0	-62.2159717224744	-141.009699372577	0	0	0	0	
3450000000	0	0	-60.5428182710725	-131.692748472239	0	0	0	0	
3475000000	0	0	-64.3485495319583	153.697877917899	0	0	0	0	
3500000000	0	0	-57.6458587598199	-143.113624542575	0	0	0	0	
3525000000	0	0	-56.1164411572028	-172.269995663149	0	0	0	0	
3550000000	0	0	-58.8605897045111	176.811547255355	0	0	0	0	
3575000000	0	0	-60.543788369426	172.439055423056	0	0	0	0	
3600000000	0	0	-58.5839624255589	172.230979331169	0	0	0	0	
3625000000	0	0	-57.7344082563378	134.990585288966	0	0	0	0	
3650000000	0	0	-60.7158725096349	157.993685759893	0	0	0	0	
3675000000	0	0	-56.3235532461302	128.072590733715	0	0	0	0	
3700000000	0	0	-55.5641981091342	121.348539758516	0	0	0	0	
3725000000	0	0	-59.0286608332106	100.610025050448	0	0	0	0	
3750000000	0	0	-58.9335425688048	101.594791920626	0	0	0	0	
3775000000	0	0	-59.3699226349396	87.7550481980886	0	0	0	0	
3800000000	0	0	-57.8360725164048	75.5663794949257	0	0	0	0	
3825000000	0	0	-56.2745832142693	70.9698852959556	0	0	0	0	
3850000000	0	0	-56.2786963527743	49.9436763833971	0	0	0	0	
3875000000	0	0	-58.571866895379	47.6839908130291	0	0	0	0	
3900000000	0	0	-54.8253214274786	36.3403356591256	0	0	0	0	
3925000000	0	0	-56.0463790447861	23.4774041073244	0	0	0	0	
3950000000	0	0	-54.8938567598658	32.9770748169175	0	0	0	0	
3975000000	0	0	-53.7633848782589	4.55465130045675	0	0	0	0	
4000000000	0	0	-53.4156996659892	-4.57651351098982	0	0	0	0	
4025000000	0	0	-53.9113665466163	-2.07609246471305	0	0	0	0	
4050000000	0	0	-51.4977350869734	-27.5023999736087	0	0	0	0	
4075000000	0	0	-51.9133347616581	-34.0995103995656	0	0	0	0	
4100000000	0	0	-52.8662912938344	-44.130139149632	0	0	0	0	
4125000000	0	0	-53.7689575616329	-46.2402389717361	0	0	0	0	
4150000000	0	0	-53.9009808068523	-62.6156148198234	0	0	0	0	
4175000000	0	0	-51.8520523172564	-75.6285278551818	0	0	0	0	
4200000000	0	0	-50.1570399625208	-93.9296780632135	0	0	0	0	
4225000000	0	0	-50.1263755503765	-94.2680596178603	0	0	0	0	
4250000000	0	0	-49.8533054458535	-106.444399429396	0	0	0	0	
4275000000	0	0	-48.798833452719	-124.49810139131	0	0	0	0	
4300000000	0	0	-48.8791558294175	-124.418681532961	0	0	0	0	
4325000000	0	0	-47.5472624156818	-144.034397768355	0	0	0	0	
4350000000	0	0	-47.9982878139658	-163.318264231399	0	0	0	0	
4375000000	0	0	-47.2169057343906	-174.029395707994	0	0	0	0	
4400000000	0	0	-47.7720617646478	-167.641278909921	0	0	0	0	
4425000000	0	0	-48.8465532231132	-178.057970101855	0	0	0	0	
4450000000	0	0	-44.9491932624394	-179.522703980385	0	0	0	0	
4475000000	0	0	-44.415347021473	163.984621553764	0	0	0	0	
4500000000	0	0	-45.3074193000863	140.405852893744	0	0	0	0	
4525000000	0	0	-44.4553541343106	138.593694302077	0	0	0	0	
4550000000	0	0	-42.0859430521242	133.419173130332	0	0	0	0	
4575000000	0	0	-42.9103175206916	108.099990320559	0	0	0	0	
4600000000	0	0	-42.7980476551867	99.6927801897369	0	0	0	0	
4625000000	0	0	-41.9902714419813	92.3033179073906	0	0	0	0	
4650000000	0	0	-41.0795150646716	78.2554796977703	0	0	0	0	
4675000000	0	0	-41.7431247282507	66.4353088243819	0	0	0	0	
4700000000	0	0	-39.390447287808	60.8718785061823	0	0	0	0	
4725000000	0	0	-39.4695785912079	50.2365445575423	0	0	0	0	
4750000000	0	0	-38.607738391635	29.213903414214	0	0	0	0	
4775000000	0	0	-37.9549023398143	16.4105268510262	0	0	0	0	
4800000000	0	0	-38.1958655831737	12.7023816057666	0	0	0	0	
4825000000	0	0	-36.7690467611684	-2.02174818362186	0	0	0	0	
4850000000	0	0	-35.1603335848049	-11.3927193926347	0	0	0	0	
4875000000	0	0	-34.2590668175233	-32.4000025344996	0	0	0	0	
4900000000	0	0	-34.2388936986742	-44.5067576054724	0	0	0	0	
4925000000	0	0	-33.6395915507174	-58.9420463988231	0	0	0	0	
4950000000	0	0	-31.3281638697544	-68.786156495466	0	0	0	0	
4975000000	0	0	-31.6490571999217	-88.5305123992534	0	0	0	0	
5000000000	0	0	-30.8780254485463	-109.818409578739	0	0	0	0	
5025000000	0	0	-30.6098122210384	-119.931841929189	0	0	0	0	
5050000000	0	0	-30.0653489918505	-128.71325250189	0	0	0	0	
5075000000	0	0	-28.6775627796788	-149.295272474345	0	0	0	0	
5100000000	0	0	-27.3232781733946	-170.234519126812	0	0	0	0	
5125000000	0	0	-27.5300684568933	174.455221567165	0	0	0	0	
5150000000	0	0	-26.9597010192422	154.908766977298	0	0	0	0	
5175000000	0	0	-26.7512124318768	134.637942236606	0	0	0	0	
5200000000	0	0	-26.3587849558365	117.126793166377	0	0	0	0	
5225000000	0	0	-26.4255567587159	96.90777919179	0	0	0	0	
5250000000	0	0	-26.4645177657069	78.1232255971345	0	0	0	0	
5275000000	0	0	-26.6455451648305	59.9653063146804	0	0	0	0	
5300000000	0	0	-26.681664661704	40.7586672187272	0	0	0	0	
5325000000	0	0	-27.2285976305505	22.7946457146534	0	0	0	0	
5350000000	0	0	-28.1245092732782	4.15971796010848	0	0	0	0	
5375000000	0	0	-28.4018783828573	-12.1908191255893	0	0	0	0	
5400000000	0	0	-28.7154783003834	-26.9253602020043	0	0	0	0	
5425000000	0	0	-29.4147670638393	-47.7051797702255	0	0	0	0	
5450000000	0	0	-30.5899953748307	-65.255941727245	0	0	0	0	
5475000000	0	0	-31.6228406265989	-73.7309362615843	0	0	0	0	
5500000000	0	0	-31.5799899359938	-91.1844854980124	0	0	0	0	
5525000000	0	0	-32.5716585287068	-102.804542037568	0	0	0	0	
5550000000	0	0	-33.0732299203119	-116.358738433981	0	0	0	0	
5575000000	0	0	-33.9558482899242	-129.986543464847	0	0	0	0	
5600000000	0	0	-34.3133353015371	-143.35991495482	0	0	0	0	
5625000000	0	0	-34.7693167745225	-157.122045456187	0	0	0	0	
5650000000	0	0	-34.0976837422418	-167.164262255258	0	0	0	0	
5675000000	0	0	-36.2207234081745	173.344481580781	0	0	0	0	
5700000000	0	0	-35.9723445740648	160.305631825292	0	0	0	0	
5725000000	0	0	-37.2614683483956	148.49116325794	0	0	0	0	
5750000000	0	0	-37.857749524756	136.848217523241	0	0	0	0	
5775000000	0	0	-38.499485888552	126.255170877638	0	0	0	0	
5800000000	0	0	-38.7772358640868	112.902532949014	0	0	0	0	
5825000000	0	0	-39.5583561961738	104.417979311656	0	0	0	0	
5850000000	0	0	-39.2959883826851	89.9777069660162	0	0	0	0	
5875000000	0	0	-40.9346804469255	77.9850310969567	0	0	0	0	
5900000000	0	0	-40.6110468078989	74.3014741389183	0	0	0	0	
5925000000	0	0	-40.9698933936363	60.5486010033918	0	0	0	0	
5950000000	0	0	-42.6885242570807	36.9218596536496	0	0	0	0	
5975000000	0	0	-42.7016742044131	40.1985792422204	0	0	0	0	
6000000000	0	0	-42.1970024504998	29.1625835177253	0	0	0	0	
