!Keysight Technologies N9926A: A.08.19
!Date: Sunday, 01 March 2026 14:06:03
!Timezone: (GMT-06:00) Central Time (US & Canada)
!Model: N9926A
!Serial: MY53102721
!GPS Latitude: 
!GPS Longitude: 
!GPS TimeStamp: 0001-01-01 00:00:00Z
!GPS Seconds Since Last Read: 0
!CHECKSUM:0950831716
!Correction: S11()S21(ON U)S12()S22()
!S2P File: Measurements:S11,S21,S12,S22:
# Hz S DB R 50
1000000000	0	0	-69.3177611808566	-96.472106291543	0	0	0	0	
1025000000	0	0	-69.6576380979216	141.888180408781	0	0	0	0	
1050000000	0	0	-65.1053136953662	118.281570650059	0	0	0	0	
1075000000	0	0	-61.0366508865134	-15.8552960357626	0	0	0	0	
1100000000	0	0	-65.6074389426381	-72.2442447354661	0	0	0	0	
1125000000	0	0	-79.1604193026673	-156.791901179704	0	0	0	0	
1150000000	0	0	-67.8783550981055	-113.326765069562	0	0	0	0	
1175000000	0	0	-66.5796695319606	-105.816216328762	0	0	0	0	
1200000000	0	0	-58.7802975335811	10.6884134382726	0	0	0	0	
1225000000	0	0	-60.309269962471	-138.331249449851	0	0	0	0	
1250000000	0	0	-63.9177952165719	-47.3855673075077	0	0	0	0	
1275000000	0	0	-55.6291728209275	-1.82246884631812	0	0	0	0	
1300000000	0	0	-65.2964584609174	-138.547010856868	0	0	0	0	
1325000000	0	0	-69.6201943967692	68.2150430241504	0	0	0	0	
1350000000	0	0	-54.1453917487936	-93.7426353084256	0	0	0	0	
1375000000	0	0	-65.088194864528	133.602054815849	0	0	0	0	
1400000000	0	0	-52.0085489159009	167.2503108591	0	0	0	0	
1425000000	0	0	-51.3012038824808	-62.4279361030136	0	0	0	0	
1450000000	0	0	-53.957978560179	-127.599130695343	0	0	0	0	
1475000000	0	0	-60.5149414331379	145.976244140479	0	0	0	0	
1500000000	0	0	-53.2683617977464	108.527656019608	0	0	0	0	
1525000000	0	0	-54.980134255117	-115.375763545423	0	0	0	0	
1550000000	0	0	-57.3786361795112	-100.516147585599	0	0	0	0	
1575000000	0	0	-54.4126065672613	53.4747400416906	0	0	0	0	
1600000000	0	0	-57.6829759067348	-121.686602782542	0	0	0	0	
1625000000	0	0	-69.5802488740777	-61.6954914875556	0	0	0	0	
1650000000	0	0	-69.2411398820063	-50.0488607624076	0	0	0	0	
1675000000	0	0	-65.7855145730124	-18.7166674286063	0	0	0	0	
1700000000	0	0	-61.8376740516128	69.7735053372587	0	0	0	0	
1725000000	0	0	-75.9965588920109	-133.469305656236	0	0	0	0	
1750000000	0	0	-71.2684295813792	130.93426788889	0	0	0	0	
1775000000	0	0	-69.8379555823845	-139.610513491427	0	0	0	0	
1800000000	0	0	-63.3988921184691	90.7412306803315	0	0	0	0	
1825000000	0	0	-67.6643786334848	-36.1004334119085	0	0	0	0	
1850000000	0	0	-68.978777457362	-109.413885422411	0	0	0	0	
1875000000	0	0	-66.2345973856179	-132.481235637921	0	0	0	0	
1900000000	0	0	-65.8198129470158	-40.580153165058	0	0	0	0	
1925000000	0	0	-69.6956125396945	-141.528923512679	0	0	0	0	
1950000000	0	0	-70.2260695269834	92.1356144322305	0	0	0	0	
1975000000	0	0	-69.7647030680299	-160.12196097467	0	0	0	0	
2000000000	0	0	-64.2972588617722	-159.707829650897	0	0	0	0	
2025000000	0	0	-78.586087852019	144.334253406657	0	0	0	0	
2050000000	0	0	-79.3073391742376	-66.7556359071374	0	0	0	0	
2075000000	0	0	-65.9278012034144	-14.55237661577	0	0	0	0	
2100000000	0	0	-65.1933215839445	-121.114077901303	0	0	0	0	
2125000000	0	0	-67.107723233445	-125.491784218779	0	0	0	0	
2150000000	0	0	-65.2259806076333	99.8206708547155	0	0	0	0	
2175000000	0	0	-68.5998563367183	40.9733934809783	0	0	0	0	
2200000000	0	0	-80.313821990766	137.281648603622	0	0	0	0	
2225000000	0	0	-72.5753765055207	162.320389207959	0	0	0	0	
2250000000	0	0	-64.8087568255661	-40.7623322677802	0	0	0	0	
2275000000	0	0	-68.3046676945249	-25.211556652256	0	0	0	0	
2300000000	0	0	-71.0839904100156	-138.610692177149	0	0	0	0	
2325000000	0	0	-74.053229542377	-59.5970925870812	0	0	0	0	
2350000000	0	0	-72.5492577238442	119.313003955226	0	0	0	0	
2375000000	0	0	-67.6619666385562	61.6158035387599	0	0	0	0	
2400000000	0	0	-67.7105133869648	-129.59214303389	0	0	0	0	
2425000000	0	0	-66.3325256143474	178.057284703631	0	0	0	0	
2450000000	0	0	-68.6696165985085	-117.613794591013	0	0	0	0	
2475000000	0	0	-63.6070204933895	-39.4344657745378	0	0	0	0	
2500000000	0	0	-69.7279228195485	-169.470124667658	0	0	0	0	
2525000000	0	0	-68.3825936000397	-89.2094280422566	0	0	0	0	
2550000000	0	0	-65.1077872970584	-106.897341889582	0	0	0	0	
2575000000	0	0	-67.8966910738573	-161.681898342304	0	0	0	0	
2600000000	0	0	-65.5659961937005	-176.699472067747	0	0	0	0	
2625000000	0	0	-76.9939020795451	-59.3274153719074	0	0	0	0	
2650000000	0	0	-66.5336618995884	-175.824797235375	0	0	0	0	
2675000000	0	0	-77.3764355159275	-66.1244056879435	0	0	0	0	
2700000000	0	0	-71.9826269318486	87.4817468944986	0	0	0	0	
2725000000	0	0	-75.6198954985347	19.7293621696155	0	0	0	0	
2750000000	0	0	-64.4996709170587	144.204289877546	0	0	0	0	
2775000000	0	0	-89.7483787659008	-115.123243441506	0	0	0	0	
2800000000	0	0	-68.5853703967089	103.289885628437	0	0	0	0	
2825000000	0	0	-63.5487996198713	76.1662762496149	0	0	0	0	
2850000000	0	0	-68.8588594928114	15.4671114661901	0	0	0	0	
2875000000	0	0	-81.4414160775628	65.4257166560154	0	0	0	0	
2900000000	0	0	-66.9546526343202	68.0841422680338	0	0	0	0	
2925000000	0	0	-68.2584659909222	53.7678407500242	0	0	0	0	
2950000000	0	0	-76.2160795612544	3.84390253195554	0	0	0	0	
2975000000	0	0	-63.1090950913412	34.6774837303024	0	0	0	0	
3000000000	0	0	-65.8193694670982	34.3744747985237	0	0	0	0	
3025000000	0	0	-69.4132841541827	-6.04862389159701	0	0	0	0	
3050000000	0	0	-66.0903040402236	-4.39985672481443	0	0	0	0	
3075000000	0	0	-75.9731129748575	40.9338675253891	0	0	0	0	
3100000000	0	0	-59.948016991133	-41.2801682987259	0	0	0	0	
3125000000	0	0	-64.7217129299011	-26.0830517292183	0	0	0	0	
3150000000	0	0	-62.9254486734551	-38.4147887073847	0	0	0	0	
3175000000	0	0	-63.92323334765	-12.8294426675762	0	0	0	0	
3200000000	0	0	-57.061900910319	-60.315211514078	0	0	0	0	
3225000000	0	0	-64.8933045189576	-78.3083265236661	0	0	0	0	
3250000000	0	0	-68.4540195249738	-50.5012651662758	0	0	0	0	
3275000000	0	0	-68.196799445877	-59.6902475550488	0	0	0	0	
3300000000	0	0	-60.2117398893441	-109.361834901912	0	0	0	0	
3325000000	0	0	-63.4092525174167	-112.71250119777	0	0	0	0	
3350000000	0	0	-66.2974664283734	-123.659567168839	0	0	0	0	
3375000000	0	0	-64.68620408436	-137.733299944345	0	0	0	0	
3400000000	0	0	-63.0660585583943	-156.940084512448	0	0	0	0	
3425000000	0	0	-63.0196080623605	-155.072987858081	0	0	0	0	
3450000000	0	0	-57.0207034672867	-170.189383795705	0	0	0	0	
3475000000	0	0	-60.3992954477752	-173.5684779844	0	0	0	0	
3500000000	0	0	-63.7604299749504	-150.347638064462	0	0	0	0	
3525000000	0	0	-58.9107975036471	160.990521616111	0	0	0	0	
3550000000	0	0	-64.7001313109463	142.495580851899	0	0	0	0	
3575000000	0	0	-59.5511347659194	135.752689717439	0	0	0	0	
3600000000	0	0	-62.9049356661718	109.210522093649	0	0	0	0	
3625000000	0	0	-58.2201802498252	120.837391071411	0	0	0	0	
3650000000	0	0	-59.1045499364672	120.691068936201	0	0	0	0	
3675000000	0	0	-58.1731390853667	98.7905111831137	0	0	0	0	
3700000000	0	0	-58.1088543379483	71.6374792168087	0	0	0	0	
3725000000	0	0	-61.5187876845846	70.4480758655642	0	0	0	0	
3750000000	0	0	-55.4526443639447	52.4088676315603	0	0	0	0	
3775000000	0	0	-58.7784862629274	64.50158881819	0	0	0	0	
3800000000	0	0	-57.5653902661254	76.7448038688952	0	0	0	0	
3825000000	0	0	-56.4350381083297	52.4150581610817	0	0	0	0	
3850000000	0	0	-56.6160126392895	52.3126235838118	0	0	0	0	
3875000000	0	0	-56.100649415353	22.2603130313051	0	0	0	0	
3900000000	0	0	-56.2175679993269	22.6594077246045	0	0	0	0	
3925000000	0	0	-55.8723034037326	13.1909524833714	0	0	0	0	
3950000000	0	0	-54.7131791145323	-8.69165041968933	0	0	0	0	
3975000000	0	0	-54.9001032870159	-29.295624208796	0	0	0	0	
4000000000	0	0	-56.1135355117406	-32.2019106696191	0	0	0	0	
4025000000	0	0	-54.105631701471	-41.7905441373454	0	0	0	0	
4050000000	0	0	-51.2939635988718	-58.2522089733918	0	0	0	0	
4075000000	0	0	-52.7265518803345	-68.3245231270748	0	0	0	0	
4100000000	0	0	-54.1057414748399	-83.7612273968794	0	0	0	0	
4125000000	0	0	-53.9438533997842	-85.9301506490232	0	0	0	0	
4150000000	0	0	-54.813379002349	-103.316052721587	0	0	0	0	
4175000000	0	0	-52.9864968682889	-102.812438914886	0	0	0	0	
4200000000	0	0	-51.3965871605016	-106.458797458773	0	0	0	0	
4225000000	0	0	-50.9789630352248	-120.454939480211	0	0	0	0	
4250000000	0	0	-48.7355783557073	-130.131916439432	0	0	0	0	
4275000000	0	0	-48.4111480835317	-150.511383021054	0	0	0	0	
4300000000	0	0	-50.3635387796981	-157.479762828059	0	0	0	0	
4325000000	0	0	-47.3230063294177	-165.359599915398	0	0	0	0	
4350000000	0	0	-48.0701343276009	165.370441178129	0	0	0	0	
4375000000	0	0	-48.7448353403222	160.365704409648	0	0	0	0	
4400000000	0	0	-49.4701216788923	160.27136658158	0	0	0	0	
4425000000	0	0	-49.0657784137954	150.957942491509	0	0	0	0	
4450000000	0	0	-45.244698966519	151.535199850949	0	0	0	0	
4475000000	0	0	-44.4570024824004	134.9036849688	0	0	0	0	
4500000000	0	0	-45.829595765157	113.243812113167	0	0	0	0	
4525000000	0	0	-45.3046518026374	114.818414593064	0	0	0	0	
4550000000	0	0	-41.694774196508	102.239639144976	0	0	0	0	
4575000000	0	0	-42.2134536989098	79.1849190586439	0	0	0	0	
4600000000	0	0	-42.7345650667829	71.5031853250962	0	0	0	0	
4625000000	0	0	-42.4648089835317	64.9110173870564	0	0	0	0	
4650000000	0	0	-41.8171554132711	51.5378862542442	0	0	0	0	
4675000000	0	0	-41.8377861321042	37.9922799508381	0	0	0	0	
4700000000	0	0	-40.4843572714631	32.1923307701139	0	0	0	0	
4725000000	0	0	-40.3613683117875	21.8058324074147	0	0	0	0	
4750000000	0	0	-39.410901040051	-1.29632855974841	0	0	0	0	
4775000000	0	0	-38.5577220132297	-12.3467396781465	0	0	0	0	
4800000000	0	0	-39.153553597265	-12.6714172372704	0	0	0	0	
4825000000	0	0	-37.1793607612659	-30.0932968501498	0	0	0	0	
4850000000	0	0	-35.3929109151263	-40.2389544734698	0	0	0	0	
4875000000	0	0	-34.6651507665567	-60.9918317071064	0	0	0	0	
4900000000	0	0	-35.057687288153	-70.4411333683151	0	0	0	0	
4925000000	0	0	-34.2557221809743	-86.3827309045645	0	0	0	0	
4950000000	0	0	-31.8783620514914	-97.5805196111783	0	0	0	0	
4975000000	0	0	-32.4115410214565	-117.860820230061	0	0	0	0	
5000000000	0	0	-31.8086135581142	-140.660884557216	0	0	0	0	
5025000000	0	0	-31.2541995428368	-150.038179571876	0	0	0	0	
5050000000	0	0	-31.0299204035976	-159.557018341613	0	0	0	0	
5075000000	0	0	-29.559785192482	-178.779272677653	0	0	0	0	
5100000000	0	0	-28.4037758664272	160.53896263114	0	0	0	0	
5125000000	0	0	-28.6344314876499	144.779223815779	0	0	0	0	
5150000000	0	0	-28.0126329678986	126.230616059885	0	0	0	0	
5175000000	0	0	-27.8570975057284	105.515653349179	0	0	0	0	
5200000000	0	0	-27.5230776839706	88.5178510204367	0	0	0	0	
5225000000	0	0	-27.41484837602	69.5127806409562	0	0	0	0	
5250000000	0	0	-27.3542448958639	50.33968686463	0	0	0	0	
5275000000	0	0	-27.5432168138557	32.6124757289117	0	0	0	0	
5300000000	0	0	-27.7238926316018	12.0548123766028	0	0	0	0	
5325000000	0	0	-28.1892530547909	-5.96376829751421	0	0	0	0	
5350000000	0	0	-29.0468327791642	-23.7204714209338	0	0	0	0	
5375000000	0	0	-29.2235114866771	-40.8266828262011	0	0	0	0	
5400000000	0	0	-29.5585802390665	-56.6363200962796	0	0	0	0	
5425000000	0	0	-30.2652800476077	-77.4832649909406	0	0	0	0	
5450000000	0	0	-31.9584606375954	-94.1558163399128	0	0	0	0	
5475000000	0	0	-32.5792679445773	-101.884758773609	0	0	0	0	
5500000000	0	0	-32.7640082031278	-119.581368573916	0	0	0	0	
5525000000	0	0	-33.5647827357303	-131.305755031127	0	0	0	0	
5550000000	0	0	-33.959660778984	-146.498243910663	0	0	0	0	
5575000000	0	0	-34.878646505881	-158.42710427126	0	0	0	0	
5600000000	0	0	-35.1701540010074	-172.617075348546	0	0	0	0	
5625000000	0	0	-35.7866001900063	173.929960688726	0	0	0	0	
5650000000	0	0	-35.2944629169041	162.866085491176	0	0	0	0	
5675000000	0	0	-37.6643131922765	143.807648846035	0	0	0	0	
5700000000	0	0	-37.0719302413104	132.710629149045	0	0	0	0	
5725000000	0	0	-38.5892892709456	125.331479744629	0	0	0	0	
5750000000	0	0	-39.1548996358627	108.832706470611	0	0	0	0	
5775000000	0	0	-39.5219448889152	103.772040090583	0	0	0	0	
5800000000	0	0	-40.0899218280646	87.7232092880411	0	0	0	0	
5825000000	0	0	-39.4796157696106	80.4090575945747	0	0	0	0	
5850000000	0	0	-40.3283603497742	67.0353790976777	0	0	0	0	
5875000000	0	0	-42.0732826102261	53.298178238096	0	0	0	0	
5900000000	0	0	-41.5300064010781	46.5888579068067	0	0	0	0	
5925000000	0	0	-41.0872604262451	33.1886463227275	0	0	0	0	
5950000000	0	0	-43.0105743380416	16.5483510084842	0	0	0	0	
5975000000	0	0	-44.6305590847999	13.4314103373598	0	0	0	0	
6000000000	0	0	-43.1403340108484	8.09829006553134	0	0	0	0	
