!Keysight Technologies N9926A: A.08.19
!Date: Sunday, 01 March 2026 14:07:54
!Timezone: (GMT-06:00) Central Time (US & Canada)
!Model: N9926A
!Serial: MY53102721
!GPS Latitude: 
!GPS Longitude: 
!GPS TimeStamp: 0001-01-01 00:00:00Z
!GPS Seconds Since Last Read: 0
!CHECKSUM:0163728570
!Correction: S11()S21(ON U)S12()S22()
!S2P File: Measurements:S11,S21,S12,S22:
# Hz S DB R 50
1000000000	0	0	-68.0147911488439	102.057022608809	0	0	0	0	
1025000000	0	0	-66.059595771286	167.171060445046	0	0	0	0	
1050000000	0	0	-69.6887403672992	69.4467240231304	0	0	0	0	
1075000000	0	0	-63.853435446125	-89.7974720682547	0	0	0	0	
1100000000	0	0	-74.9716602746597	-70.8597837731356	0	0	0	0	
1125000000	0	0	-63.8772809260172	137.045093570488	0	0	0	0	
1150000000	0	0	-58.4292641280191	-67.3960786484863	0	0	0	0	
1175000000	0	0	-69.8616899277995	24.369696822817	0	0	0	0	
1200000000	0	0	-59.7512465508915	177.244667693679	0	0	0	0	
1225000000	0	0	-65.3477707140626	34.7690303504318	0	0	0	0	
1250000000	0	0	-70.0803537298107	159.259635696244	0	0	0	0	
1275000000	0	0	-63.8687126403469	-85.0381361322068	0	0	0	0	
1300000000	0	0	-58.5739612186579	13.5671673738936	0	0	0	0	
1325000000	0	0	-52.3045605918184	156.149182792558	0	0	0	0	
1350000000	0	0	-50.7425567462846	-131.069902393283	0	0	0	0	
1375000000	0	0	-51.5775443659732	-5.48501945096274	0	0	0	0	
1400000000	0	0	-53.8727152213166	-151.518741308256	0	0	0	0	
1425000000	0	0	-59.2388331740203	169.335009789244	0	0	0	0	
1450000000	0	0	-58.863429802072	-11.3021310135476	0	0	0	0	
1475000000	0	0	-52.3046932029567	178.837717718202	0	0	0	0	
1500000000	0	0	-59.2104740283182	-147.129244969797	0	0	0	0	
1525000000	0	0	-70.1487675128972	-173.346580943344	0	0	0	0	
1550000000	0	0	-59.5494701783355	71.2469220629506	0	0	0	0	
1575000000	0	0	-59.2589859333425	-41.3119662499561	0	0	0	0	
1600000000	0	0	-63.0763662972967	87.3234291328617	0	0	0	0	
1625000000	0	0	-59.1788727276738	131.864026324471	0	0	0	0	
1650000000	0	0	-59.3600674709153	4.46251345780947	0	0	0	0	
1675000000	0	0	-59.1622109639348	-30.7180201031196	0	0	0	0	
1700000000	0	0	-60.7355505193256	12.9941754882887	0	0	0	0	
1725000000	0	0	-64.4773733147536	5.11511046870163	0	0	0	0	
1750000000	0	0	-66.8870130803613	39.849963688466	0	0	0	0	
1775000000	0	0	-60.9872383323265	-11.5097089798605	0	0	0	0	
1800000000	0	0	-68.5050595832133	29.5088947812463	0	0	0	0	
1825000000	0	0	-68.4285477210728	66.9264605368612	0	0	0	0	
1850000000	0	0	-70.2594925944962	61.5458238404012	0	0	0	0	
1875000000	0	0	-80.5645984199953	154.973717506196	0	0	0	0	
1900000000	0	0	-69.1088232425087	0.717861550971692	0	0	0	0	
1925000000	0	0	-77.8052020610402	37.9137694672833	0	0	0	0	
1950000000	0	0	-64.9564894600883	25.2200356249036	0	0	0	0	
1975000000	0	0	-75.6276076889078	-148.961427134371	0	0	0	0	
2000000000	0	0	-64.8726888282461	35.3580385685658	0	0	0	0	
2025000000	0	0	-60.989831261676	-161.779275610877	0	0	0	0	
2050000000	0	0	-66.012628671492	-137.399266325294	0	0	0	0	
2075000000	0	0	-76.4898219328246	149.572727218043	0	0	0	0	
2100000000	0	0	-71.7202210599883	-153.652542386578	0	0	0	0	
2125000000	0	0	-69.8483095616211	-34.1288090448789	0	0	0	0	
2150000000	0	0	-67.0128003121204	-56.4218119564212	0	0	0	0	
2175000000	0	0	-76.5059121761154	-46.0201913471963	0	0	0	0	
2200000000	0	0	-65.0644896134932	29.4460876086744	0	0	0	0	
2225000000	0	0	-74.2823328304719	152.993629116694	0	0	0	0	
2250000000	0	0	-65.9475350111784	-46.3018651317352	0	0	0	0	
2275000000	0	0	-61.7249051010375	-40.3924147990211	0	0	0	0	
2300000000	0	0	-68.4683274138699	174.052999189673	0	0	0	0	
2325000000	0	0	-66.1582834606945	-177.224327412459	0	0	0	0	
2350000000	0	0	-85.2512161436345	-18.2770316434946	0	0	0	0	
2375000000	0	0	-64.4765010814324	-147.862308751776	0	0	0	0	
2400000000	0	0	-66.1167630500306	-125.876134328204	0	0	0	0	
2425000000	0	0	-69.8598091206879	-130.064982419347	0	0	0	0	
2450000000	0	0	-68.2293197106138	148.466878173567	0	0	0	0	
2475000000	0	0	-73.4831548874366	-127.182533537864	0	0	0	0	
2500000000	0	0	-65.3646660066229	179.118293333222	0	0	0	0	
2525000000	0	0	-73.1337508925815	14.9135051070578	0	0	0	0	
2550000000	0	0	-66.3723606288023	130.172738368334	0	0	0	0	
2575000000	0	0	-77.3156522965228	-78.7458880087975	0	0	0	0	
2600000000	0	0	-74.331500840659	-43.8501422330311	0	0	0	0	
2625000000	0	0	-66.6181561748043	106.684936808204	0	0	0	0	
2650000000	0	0	-70.0682389536379	152.126871621356	0	0	0	0	
2675000000	0	0	-70.169528413672	65.3366258104617	0	0	0	0	
2700000000	0	0	-67.7454561801879	87.6614006695934	0	0	0	0	
2725000000	0	0	-69.3302226946332	31.4934232929359	0	0	0	0	
2750000000	0	0	-73.4275539956287	-16.186931339414	0	0	0	0	
2775000000	0	0	-70.9547803266199	96.8961501609587	0	0	0	0	
2800000000	0	0	-61.8303610867149	81.8760577548161	0	0	0	0	
2825000000	0	0	-62.4005902193739	32.3755582730232	0	0	0	0	
2850000000	0	0	-77.1173123068857	-12.5347412643332	0	0	0	0	
2875000000	0	0	-74.9520026488081	59.8775453160918	0	0	0	0	
2900000000	0	0	-76.8195378155384	67.0074795539507	0	0	0	0	
2925000000	0	0	-66.8444899217696	-5.82645504049137	0	0	0	0	
2950000000	0	0	-64.3373892800931	29.9897746616589	0	0	0	0	
2975000000	0	0	-66.3457227055878	-79.2555951372067	0	0	0	0	
3000000000	0	0	-70.4605495898291	-31.6697899370453	0	0	0	0	
3025000000	0	0	-67.7943639665195	10.404852721387	0	0	0	0	
3050000000	0	0	-73.0437199702505	-91.5391583068477	0	0	0	0	
3075000000	0	0	-70.4424073027295	-84.8724005879342	0	0	0	0	
3100000000	0	0	-64.8374730267872	-65.6930060488014	0	0	0	0	
3125000000	0	0	-68.6020367968051	-23.9645357458394	0	0	0	0	
3150000000	0	0	-65.427414395039	-30.5245392640968	0	0	0	0	
3175000000	0	0	-61.5005377778956	-65.1565355365676	0	0	0	0	
3200000000	0	0	-64.1954519114591	-85.1930271034796	0	0	0	0	
3225000000	0	0	-60.989325895816	-137.914992302393	0	0	0	0	
3250000000	0	0	-64.0802311082391	-130.066214925785	0	0	0	0	
3275000000	0	0	-71.1540005677358	-122.370733002506	0	0	0	0	
3300000000	0	0	-64.0994055674736	-128.700008567666	0	0	0	0	
3325000000	0	0	-66.7786512921143	-140.992725851066	0	0	0	0	
3350000000	0	0	-61.5823819182546	-153.715029920751	0	0	0	0	
3375000000	0	0	-64.8699963130319	175.80770700522	0	0	0	0	
3400000000	0	0	-63.2106345817233	-153.521526558933	0	0	0	0	
3425000000	0	0	-66.0279045638808	162.349188265056	0	0	0	0	
3450000000	0	0	-60.2702217404351	147.893102714704	0	0	0	0	
3475000000	0	0	-62.8511736575164	134.842196051403	0	0	0	0	
3500000000	0	0	-58.9585853492083	143.99932697524	0	0	0	0	
3525000000	0	0	-60.2093623853253	144.613545366199	0	0	0	0	
3550000000	0	0	-58.0639998914559	123.426827245651	0	0	0	0	
3575000000	0	0	-62.2801743743287	106.353804315062	0	0	0	0	
3600000000	0	0	-62.3785641119138	96.6435740206694	0	0	0	0	
3625000000	0	0	-59.3729593840113	95.8436455337473	0	0	0	0	
3650000000	0	0	-59.9947474126323	41.8825254160178	0	0	0	0	
3675000000	0	0	-66.5223303945693	36.1816193407252	0	0	0	0	
3700000000	0	0	-63.2033001778486	24.8471402407031	0	0	0	0	
3725000000	0	0	-60.3453939141387	17.8246424890358	0	0	0	0	
3750000000	0	0	-57.8638838841805	26.3960754584459	0	0	0	0	
3775000000	0	0	-60.4806108128192	32.7577383433071	0	0	0	0	
3800000000	0	0	-58.9460071748244	29.8570602671158	0	0	0	0	
3825000000	0	0	-58.788224563667	6.75142407361961	0	0	0	0	
3850000000	0	0	-56.2362096277602	-37.1654481952643	0	0	0	0	
3875000000	0	0	-55.9309675903162	-13.3475632927703	0	0	0	0	
3900000000	0	0	-54.1521192650416	-35.9741045652139	0	0	0	0	
3925000000	0	0	-56.9561178126722	-50.8494987654413	0	0	0	0	
3950000000	0	0	-53.9620123265548	-60.352562286972	0	0	0	0	
3975000000	0	0	-55.5649745181444	-66.391189214792	0	0	0	0	
4000000000	0	0	-57.7855445648702	-80.4157199344267	0	0	0	0	
4025000000	0	0	-53.2618550879413	-65.7214660139143	0	0	0	0	
4050000000	0	0	-55.936609736234	-106.415834440831	0	0	0	0	
4075000000	0	0	-55.8238720204647	-108.562182782271	0	0	0	0	
4100000000	0	0	-54.1614807657324	-132.972667795262	0	0	0	0	
4125000000	0	0	-55.2149882304136	-141.496714898246	0	0	0	0	
4150000000	0	0	-52.5248382077322	-140.326807663961	0	0	0	0	
4175000000	0	0	-54.2013557175895	-140.183641524262	0	0	0	0	
4200000000	0	0	-50.8875673838244	-165.719313275059	0	0	0	0	
4225000000	0	0	-50.6928620564858	-164.097569482575	0	0	0	0	
4250000000	0	0	-50.8601158262272	174.605551367309	0	0	0	0	
4275000000	0	0	-49.5653858399015	166.454835362061	0	0	0	0	
4300000000	0	0	-49.617957689108	155.543413918946	0	0	0	0	
4325000000	0	0	-48.9324103494666	143.744245182372	0	0	0	0	
4350000000	0	0	-49.669937598104	127.599848720515	0	0	0	0	
4375000000	0	0	-49.1727236883173	112.481450380042	0	0	0	0	
4400000000	0	0	-49.5097913343554	106.088104476604	0	0	0	0	
4425000000	0	0	-49.1390761876402	103.007222040731	0	0	0	0	
4450000000	0	0	-46.5704561402168	93.9691031137151	0	0	0	0	
4475000000	0	0	-45.626312825726	81.021233030975	0	0	0	0	
4500000000	0	0	-46.8079726255831	61.0358922843349	0	0	0	0	
4525000000	0	0	-46.5889349757807	59.7316271805614	0	0	0	0	
4550000000	0	0	-43.4646888963186	50.6722396719303	0	0	0	0	
4575000000	0	0	-44.0022283571854	28.5512958888548	0	0	0	0	
4600000000	0	0	-44.3557781882647	20.3897282792761	0	0	0	0	
4625000000	0	0	-44.1956575474815	7.41502697032349	0	0	0	0	
4650000000	0	0	-43.3690251911198	-5.25063450627208	0	0	0	0	
4675000000	0	0	-43.5911581562017	-17.2284559992018	0	0	0	0	
4700000000	0	0	-41.7704833292772	-20.2555376961452	0	0	0	0	
4725000000	0	0	-40.9720690219522	-32.4399298322904	0	0	0	0	
4750000000	0	0	-41.0403503266765	-55.5133431415939	0	0	0	0	
4775000000	0	0	-40.29181222263	-64.5845860291391	0	0	0	0	
4800000000	0	0	-40.4455130114233	-70.9736956487772	0	0	0	0	
4825000000	0	0	-38.8196282277481	-81.9121188296078	0	0	0	0	
4850000000	0	0	-37.1643347849617	-95.7452418203382	0	0	0	0	
4875000000	0	0	-36.3237225362477	-117.526461820112	0	0	0	0	
4900000000	0	0	-36.1640441819826	-129.005269947555	0	0	0	0	
4925000000	0	0	-35.5953907627616	-142.597169322449	0	0	0	0	
4950000000	0	0	-33.5624766111553	-154.437960948127	0	0	0	0	
4975000000	0	0	-33.8271636459756	-176.079943707901	0	0	0	0	
5000000000	0	0	-33.3847929559587	161.600387361483	0	0	0	0	
5025000000	0	0	-33.0500720018095	152.857176367776	0	0	0	0	
5050000000	0	0	-32.6211983044627	143.272416622322	0	0	0	0	
5075000000	0	0	-31.1151049142276	123.630289306217	0	0	0	0	
5100000000	0	0	-30.0815779122313	103.954808978889	0	0	0	0	
5125000000	0	0	-30.1049112175205	88.7083323559149	0	0	0	0	
5150000000	0	0	-29.5124951439332	68.375562572452	0	0	0	0	
5175000000	0	0	-29.2403440932569	47.2149956446072	0	0	0	0	
5200000000	0	0	-29.1070348450194	30.7476384743715	0	0	0	0	
5225000000	0	0	-29.1094975792147	11.2987671449906	0	0	0	0	
5250000000	0	0	-29.0784103168407	-7.765081088454	0	0	0	0	
5275000000	0	0	-29.1911634835829	-26.1289085583935	0	0	0	0	
5300000000	0	0	-29.429336338642	-46.5497886472623	0	0	0	0	
5325000000	0	0	-29.8355336482817	-63.8796570677402	0	0	0	0	
5350000000	0	0	-30.7171642816136	-81.6717300061905	0	0	0	0	
5375000000	0	0	-30.9756299493683	-99.3747298099001	0	0	0	0	
5400000000	0	0	-31.3611303688887	-114.956455950407	0	0	0	0	
5425000000	0	0	-31.8312885478172	-136.244002532636	0	0	0	0	
5450000000	0	0	-33.5733061615273	-153.013767395159	0	0	0	0	
5475000000	0	0	-34.1189406265678	-160.333503372798	0	0	0	0	
5500000000	0	0	-34.5100416398855	-177.583556735948	0	0	0	0	
5525000000	0	0	-35.6114863281984	168.839811067917	0	0	0	0	
5550000000	0	0	-36.0228933524155	154.917931405948	0	0	0	0	
5575000000	0	0	-36.5801347227814	141.732404008642	0	0	0	0	
5600000000	0	0	-37.0975080179432	128.533979479083	0	0	0	0	
5625000000	0	0	-37.5634285511191	115.103119280429	0	0	0	0	
5650000000	0	0	-36.8673891359282	103.834600658751	0	0	0	0	
5675000000	0	0	-38.8995464895433	85.4210034413636	0	0	0	0	
5700000000	0	0	-38.7826253308461	72.0970438548551	0	0	0	0	
5725000000	0	0	-40.0298199938341	63.6458943497263	0	0	0	0	
5750000000	0	0	-40.63868831943	52.6906728398206	0	0	0	0	
5775000000	0	0	-40.8207306096209	44.898265127134	0	0	0	0	
5800000000	0	0	-41.651258939373	30.3840889424879	0	0	0	0	
5825000000	0	0	-41.783163097681	22.6115210110777	0	0	0	0	
5850000000	0	0	-42.447507018725	4.83656930204202	0	0	0	0	
5875000000	0	0	-43.5355865420874	-5.03883199791966	0	0	0	0	
5900000000	0	0	-42.4989274361871	-11.4846523065158	0	0	0	0	
5925000000	0	0	-43.5313434271398	-23.082173392341	0	0	0	0	
5950000000	0	0	-43.8467521290396	-48.0366358107889	0	0	0	0	
5975000000	0	0	-46.1887338849201	-47.4930249202788	0	0	0	0	
6000000000	0	0	-44.0840070799011	-52.2687003823283	0	0	0	0	
