!Keysight Technologies N9926A: A.08.19
!Date: Sunday, 01 March 2026 14:12:02
!Timezone: (GMT-06:00) Central Time (US & Canada)
!Model: N9926A
!Serial: MY53102721
!GPS Latitude: 
!GPS Longitude: 
!GPS TimeStamp: 0001-01-01 00:00:00Z
!GPS Seconds Since Last Read: 0
!CHECKSUM:0828978690
!Correction: S11()S21(ON U)S12()S22()
!S2P File: Measurements:S11,S21,S12,S22:
# Hz S DB R 50
1000000000	0	0	-75.3759385280307	15.2062293822189	0	0	0	0	
1025000000	0	0	-73.3784628515122	11.0426163022828	0	0	0	0	
1050000000	0	0	-65.7529542176773	-80.346546249679	0	0	0	0	
1075000000	0	0	-72.3435179133048	-124.13859097224	0	0	0	0	
1100000000	0	0	-61.4514318942276	-123.758192435273	0	0	0	0	
1125000000	0	0	-59.2473359073043	53.6368341919547	0	0	0	0	
1150000000	0	0	-56.912025078723	173.005333907169	0	0	0	0	
1175000000	0	0	-65.9341642773106	-63.8930851222364	0	0	0	0	
1200000000	0	0	-65.6269213344152	46.3687011024782	0	0	0	0	
1225000000	0	0	-69.9455726754117	-70.632201575455	0	0	0	0	
1250000000	0	0	-57.2714961792274	-160.244846044182	0	0	0	0	
1275000000	0	0	-54.3147021203857	98.1814521172235	0	0	0	0	
1300000000	0	0	-60.8949645667634	131.965051955951	0	0	0	0	
1325000000	0	0	-52.2477581224514	58.3554570152584	0	0	0	0	
1350000000	0	0	-52.2443394372008	-81.3035158449666	0	0	0	0	
1375000000	0	0	-53.1289971742247	79.0184187243147	0	0	0	0	
1400000000	0	0	-60.2927365553359	139.186597284211	0	0	0	0	
1425000000	0	0	-55.598713688932	167.538283239353	0	0	0	0	
1450000000	0	0	-52.1109463192989	-35.5889661928425	0	0	0	0	
1475000000	0	0	-52.3760306636659	136.222758736516	0	0	0	0	
1500000000	0	0	-55.3609189274539	-59.3523109174721	0	0	0	0	
1525000000	0	0	-55.3701354752346	12.3952612385068	0	0	0	0	
1550000000	0	0	-61.3002659697872	43.086672556079	0	0	0	0	
1575000000	0	0	-60.8446945458745	127.958399913312	0	0	0	0	
1600000000	0	0	-56.3240072493577	-177.40154011566	0	0	0	0	
1625000000	0	0	-53.1533150130648	-176.72868433071	0	0	0	0	
1650000000	0	0	-68.15173762127	122.900957074499	0	0	0	0	
1675000000	0	0	-63.0320441960859	77.336862506565	0	0	0	0	
1700000000	0	0	-51.2711649410219	-119.16048830689	0	0	0	0	
1725000000	0	0	-58.2781889221906	-23.2143492347653	0	0	0	0	
1750000000	0	0	-64.9076505939854	-22.3895087059422	0	0	0	0	
1775000000	0	0	-68.061105802894	94.0726050334995	0	0	0	0	
1800000000	0	0	-58.1318061327814	22.4439626350221	0	0	0	0	
1825000000	0	0	-60.8324395890663	1.54281757312065	0	0	0	0	
1850000000	0	0	-62.8864725450861	19.4974991883863	0	0	0	0	
1875000000	0	0	-59.9883448208456	152.923597665299	0	0	0	0	
1900000000	0	0	-60.0471806838301	-13.8685220887154	0	0	0	0	
1925000000	0	0	-67.4736323947074	-119.813536292639	0	0	0	0	
1950000000	0	0	-67.9831716903179	-62.012228461075	0	0	0	0	
1975000000	0	0	-66.7123251852634	99.6390536205912	0	0	0	0	
2000000000	0	0	-76.683449426389	114.598239936561	0	0	0	0	
2025000000	0	0	-68.1661176557679	-148.116625534458	0	0	0	0	
2050000000	0	0	-69.9537023990984	-155.65959461405	0	0	0	0	
2075000000	0	0	-69.9598121933635	98.4539724985517	0	0	0	0	
2100000000	0	0	-72.6067668019292	175.156438663842	0	0	0	0	
2125000000	0	0	-65.1289096101435	123.499533378695	0	0	0	0	
2150000000	0	0	-67.4427897513949	140.707136500263	0	0	0	0	
2175000000	0	0	-73.47850153097	-17.318817035069	0	0	0	0	
2200000000	0	0	-64.7639910252273	82.0478740569894	0	0	0	0	
2225000000	0	0	-75.8822485340081	-114.406279507886	0	0	0	0	
2250000000	0	0	-67.0685628693969	-109.95247074333	0	0	0	0	
2275000000	0	0	-73.2866062790906	71.6843078578233	0	0	0	0	
2300000000	0	0	-65.695267075343	-104.295708309193	0	0	0	0	
2325000000	0	0	-66.0645095210466	131.591696911599	0	0	0	0	
2350000000	0	0	-61.9762599018648	-166.431575957205	0	0	0	0	
2375000000	0	0	-66.6545166373359	-164.702691248314	0	0	0	0	
2400000000	0	0	-73.6349919464892	-159.518297638165	0	0	0	0	
2425000000	0	0	-65.9580617623269	114.953453784312	0	0	0	0	
2450000000	0	0	-76.4300486609382	106.92963079754	0	0	0	0	
2475000000	0	0	-70.6497762275277	43.2311604023703	0	0	0	0	
2500000000	0	0	-67.6775750933152	172.992125241265	0	0	0	0	
2525000000	0	0	-74.5983052295305	-14.2174205876015	0	0	0	0	
2550000000	0	0	-69.9167101578418	23.5959380787883	0	0	0	0	
2575000000	0	0	-72.3029846102884	97.6586347148329	0	0	0	0	
2600000000	0	0	-62.5228847366276	32.4192582092878	0	0	0	0	
2625000000	0	0	-70.1286104687539	6.75968884794336	0	0	0	0	
2650000000	0	0	-67.617825752295	25.3413395311186	0	0	0	0	
2675000000	0	0	-74.8747464382858	67.4242748244883	0	0	0	0	
2700000000	0	0	-66.2859854544638	6.85741679282988	0	0	0	0	
2725000000	0	0	-75.5462468981722	-168.164169390986	0	0	0	0	
2750000000	0	0	-68.2858493417478	-134.984033460994	0	0	0	0	
2775000000	0	0	-67.4241101467916	2.95934211242968	0	0	0	0	
2800000000	0	0	-71.3539525134572	31.5494888784419	0	0	0	0	
2825000000	0	0	-76.526490507166	-156.949081437918	0	0	0	0	
2850000000	0	0	-62.5783987128935	-77.7789628281534	0	0	0	0	
2875000000	0	0	-67.4183029326605	0.779977673005106	0	0	0	0	
2900000000	0	0	-70.0949235244844	-85.0334833986682	0	0	0	0	
2925000000	0	0	-80.1565616778812	-94.0607709281516	0	0	0	0	
2950000000	0	0	-69.4524136602141	-22.0686249842597	0	0	0	0	
2975000000	0	0	-73.3544397777525	-39.0141736839467	0	0	0	0	
3000000000	0	0	-69.8049439092804	-136.50299513242	0	0	0	0	
3025000000	0	0	-65.7164945889338	-114.049836444295	0	0	0	0	
3050000000	0	0	-63.4505814573418	-102.573329902468	0	0	0	0	
3075000000	0	0	-64.2675310449188	165.924893303359	0	0	0	0	
3100000000	0	0	-75.0456590110398	-158.441302945577	0	0	0	0	
3125000000	0	0	-68.7725434593962	157.162012882359	0	0	0	0	
3150000000	0	0	-64.7750115578743	128.449521886864	0	0	0	0	
3175000000	0	0	-67.3261855859442	-32.7328386455999	0	0	0	0	
3200000000	0	0	-64.0463605650916	150.447775909125	0	0	0	0	
3225000000	0	0	-61.3785457029178	96.4557370840553	0	0	0	0	
3250000000	0	0	-71.3228145985487	102.81948080662	0	0	0	0	
3275000000	0	0	-63.9785916273198	158.433873549647	0	0	0	0	
3300000000	0	0	-60.9849548777637	73.0819340375647	0	0	0	0	
3325000000	0	0	-62.7021079656029	118.030913086164	0	0	0	0	
3350000000	0	0	-67.4043479607842	41.861535408071	0	0	0	0	
3375000000	0	0	-67.4746363744602	81.6764519001647	0	0	0	0	
3400000000	0	0	-71.8760317164624	14.0593819397203	0	0	0	0	
3425000000	0	0	-73.7526395397701	-164.533830482402	0	0	0	0	
3450000000	0	0	-75.9721345962982	74.8988138112001	0	0	0	0	
3475000000	0	0	-69.0837481945852	-46.8791487104786	0	0	0	0	
3500000000	0	0	-59.9929261810717	27.6829468011463	0	0	0	0	
3525000000	0	0	-74.0104379151779	34.2776295233705	0	0	0	0	
3550000000	0	0	-69.3115171976757	-4.753638151301	0	0	0	0	
3575000000	0	0	-63.7816018468831	-19.0182332593886	0	0	0	0	
3600000000	0	0	-68.2358185590662	-3.37878555961893	0	0	0	0	
3625000000	0	0	-63.0646615199359	-35.524835007874	0	0	0	0	
3650000000	0	0	-64.0333975855406	-52.0293875093707	0	0	0	0	
3675000000	0	0	-60.6130533105597	-79.3958853232748	0	0	0	0	
3700000000	0	0	-61.0679539450823	-78.1741810051054	0	0	0	0	
3725000000	0	0	-62.9269514049266	-77.8084708816067	0	0	0	0	
3750000000	0	0	-62.2268688375612	-126.26545626364	0	0	0	0	
3775000000	0	0	-59.7109014676055	-94.6656057076397	0	0	0	0	
3800000000	0	0	-61.2768634943256	-102.647829148411	0	0	0	0	
3825000000	0	0	-57.8487994971436	-133.356499852824	0	0	0	0	
3850000000	0	0	-60.6327242778471	-136.087405035536	0	0	0	0	
3875000000	0	0	-62.5262696600311	-143.218272126818	0	0	0	0	
3900000000	0	0	-64.7374237197928	-130.6047361715	0	0	0	0	
3925000000	0	0	-61.8357874920846	172.170143627862	0	0	0	0	
3950000000	0	0	-57.2463767466625	163.418716220251	0	0	0	0	
3975000000	0	0	-57.6006252285447	162.902861772158	0	0	0	0	
4000000000	0	0	-56.559244303644	149.64707294036	0	0	0	0	
4025000000	0	0	-60.3264072932505	159.162572161029	0	0	0	0	
4050000000	0	0	-55.3052667852314	132.233101835823	0	0	0	0	
4075000000	0	0	-59.4584562102487	117.391869530441	0	0	0	0	
4100000000	0	0	-57.2459699453573	102.352487652141	0	0	0	0	
4125000000	0	0	-56.0166453597869	93.4842973117424	0	0	0	0	
4150000000	0	0	-58.1891365715621	86.8876062641372	0	0	0	0	
4175000000	0	0	-58.841034582338	74.4100243586153	0	0	0	0	
4200000000	0	0	-56.51499458074	69.4317535993141	0	0	0	0	
4225000000	0	0	-53.2486760709381	48.7634896424548	0	0	0	0	
4250000000	0	0	-56.4769341566032	33.9922298807066	0	0	0	0	
4275000000	0	0	-52.3533042265351	32.6918936690355	0	0	0	0	
4300000000	0	0	-53.9289892471994	6.67780852304094	0	0	0	0	
4325000000	0	0	-52.3324967614959	-3.12632017036474	0	0	0	0	
4350000000	0	0	-52.2916012897431	-23.2302936842307	0	0	0	0	
4375000000	0	0	-53.4507457955221	-29.4336397853042	0	0	0	0	
4400000000	0	0	-52.6082268582374	-40.9898866121102	0	0	0	0	
4425000000	0	0	-53.081461623829	-38.774132452683	0	0	0	0	
4450000000	0	0	-49.7059234479608	-43.5724672859236	0	0	0	0	
4475000000	0	0	-48.4769785154721	-61.5527259684601	0	0	0	0	
4500000000	0	0	-50.559103427729	-83.5626918352812	0	0	0	0	
4525000000	0	0	-50.749736073893	-76.9156733514479	0	0	0	0	
4550000000	0	0	-47.0565990965506	-92.973185691164	0	0	0	0	
4575000000	0	0	-48.113505459357	-118.768448439497	0	0	0	0	
4600000000	0	0	-48.1298447298187	-133.174638731185	0	0	0	0	
4625000000	0	0	-47.0180060456645	-139.518860339466	0	0	0	0	
4650000000	0	0	-45.7103433367204	-146.48526506503	0	0	0	0	
4675000000	0	0	-46.2647794154127	-167.713982283828	0	0	0	0	
4700000000	0	0	-44.9299570858349	-174.467583404651	0	0	0	0	
4725000000	0	0	-45.4070260956511	174.104908085068	0	0	0	0	
4750000000	0	0	-43.9223873983539	152.232891097788	0	0	0	0	
4775000000	0	0	-43.2577158108512	141.119732697452	0	0	0	0	
4800000000	0	0	-43.932461309374	132.891475310183	0	0	0	0	
4825000000	0	0	-42.1475110406366	119.204818841059	0	0	0	0	
4850000000	0	0	-41.1197233383244	112.256573214903	0	0	0	0	
4875000000	0	0	-40.3422490095342	88.2619612611773	0	0	0	0	
4900000000	0	0	-40.5391681131228	76.5436635874009	0	0	0	0	
4925000000	0	0	-39.5062977366771	63.1803676987356	0	0	0	0	
4950000000	0	0	-37.214179574783	49.4897008462357	0	0	0	0	
4975000000	0	0	-37.5201666632054	28.2730594667677	0	0	0	0	
5000000000	0	0	-37.0805457724316	7.58468857751388	0	0	0	0	
5025000000	0	0	-36.4199899850325	-4.30825362706566	0	0	0	0	
5050000000	0	0	-36.1390166740621	-15.4184776489687	0	0	0	0	
5075000000	0	0	-34.7676257828355	-37.5047796927325	0	0	0	0	
5100000000	0	0	-33.718852199487	-56.8842350612201	0	0	0	0	
5125000000	0	0	-33.8349579509136	-72.3883710767287	0	0	0	0	
5150000000	0	0	-32.8753771061253	-93.7891197646567	0	0	0	0	
5175000000	0	0	-32.8288183711942	-117.484866479566	0	0	0	0	
5200000000	0	0	-32.6916077936053	-135.598491849078	0	0	0	0	
5225000000	0	0	-32.6472039334851	-154.442665705471	0	0	0	0	
5250000000	0	0	-32.7789580024081	-174.774292581518	0	0	0	0	
5275000000	0	0	-33.2058144428127	166.647889831747	0	0	0	0	
5300000000	0	0	-33.519491355752	148.607054600193	0	0	0	0	
5325000000	0	0	-33.9321391758283	129.880126988507	0	0	0	0	
5350000000	0	0	-34.5466027284666	111.55199435958	0	0	0	0	
5375000000	0	0	-34.9487471701635	92.842145085639	0	0	0	0	
5400000000	0	0	-35.3977125831062	76.7650921103526	0	0	0	0	
5425000000	0	0	-35.7596354903717	57.2556029649387	0	0	0	0	
5450000000	0	0	-36.9134110364134	38.1275551085073	0	0	0	0	
5475000000	0	0	-38.1790183771856	29.7878373455877	0	0	0	0	
5500000000	0	0	-38.7259511756476	12.5815714317279	0	0	0	0	
5525000000	0	0	-39.4617712073237	-0.966683649858011	0	0	0	0	
5550000000	0	0	-39.8349699787743	-14.3984541085135	0	0	0	0	
5575000000	0	0	-40.4474128291284	-27.4371127999208	0	0	0	0	
5600000000	0	0	-40.8041921646162	-42.9204713274142	0	0	0	0	
5625000000	0	0	-41.4016659381239	-57.5595761240944	0	0	0	0	
5650000000	0	0	-40.8592028357506	-66.2990203482232	0	0	0	0	
5675000000	0	0	-42.9564563905932	-86.3615771643881	0	0	0	0	
5700000000	0	0	-42.9293071044985	-100.238224123944	0	0	0	0	
5725000000	0	0	-43.237639820596	-112.612042770567	0	0	0	0	
5750000000	0	0	-44.6096161948906	-122.573230089321	0	0	0	0	
5775000000	0	0	-44.9628620092851	-130.274778665608	0	0	0	0	
5800000000	0	0	-45.3961693775373	-147.627081405566	0	0	0	0	
5825000000	0	0	-45.0763360784948	-158.773575396706	0	0	0	0	
5850000000	0	0	-45.7443667460518	-171.835614237132	0	0	0	0	
5875000000	0	0	-47.5622077580768	167.966621500972	0	0	0	0	
5900000000	0	0	-46.7614007221815	173.568685059838	0	0	0	0	
5925000000	0	0	-46.9299928807334	152.349686852123	0	0	0	0	
5950000000	0	0	-48.4065063052659	129.440150965899	0	0	0	0	
5975000000	0	0	-48.818992916225	130.074368496098	0	0	0	0	
6000000000	0	0	-48.6800393941148	131.42226824904	0	0	0	0	
