!Keysight Technologies N9926A: A.08.19
!Date: Sunday, 01 March 2026 14:13:17
!Timezone: (GMT-06:00) Central Time (US & Canada)
!Model: N9926A
!Serial: MY53102721
!GPS Latitude: 
!GPS Longitude: 
!GPS TimeStamp: 0001-01-01 00:00:00Z
!GPS Seconds Since Last Read: 0
!CHECKSUM:0491690468
!Correction: S11()S21(ON U)S12()S22()
!S2P File: Measurements:S11,S21,S12,S22:
# Hz S DB R 50
1000000000	0	0	-69.200129113904	55.3416719950097	0	0	0	0	
1025000000	0	0	-71.2858004131271	-2.74445004875557	0	0	0	0	
1050000000	0	0	-68.1275022563667	174.316260909636	0	0	0	0	
1075000000	0	0	-65.3252407357156	-24.4816240947304	0	0	0	0	
1100000000	0	0	-64.4900351348633	-96.9414302874606	0	0	0	0	
1125000000	0	0	-73.5128063554049	115.694955577889	0	0	0	0	
1150000000	0	0	-64.0733981939646	169.041848601163	0	0	0	0	
1175000000	0	0	-64.203875342108	137.17082676883	0	0	0	0	
1200000000	0	0	-60.7640731811381	-176.292716891384	0	0	0	0	
1225000000	0	0	-60.395010562639	73.6099790133966	0	0	0	0	
1250000000	0	0	-58.2586345655738	-10.541553437144	0	0	0	0	
1275000000	0	0	-59.6970871934616	88.2731803671587	0	0	0	0	
1300000000	0	0	-56.6608063848422	125.708897030756	0	0	0	0	
1325000000	0	0	-50.5831976603275	148.258238713112	0	0	0	0	
1350000000	0	0	-51.8440335343384	-9.71075869594805	0	0	0	0	
1375000000	0	0	-49.3087902297676	-54.1097814199486	0	0	0	0	
1400000000	0	0	-53.5859378881201	62.011086069255	0	0	0	0	
1425000000	0	0	-63.189295465756	97.7218790286913	0	0	0	0	
1450000000	0	0	-59.2519445249126	-36.9808106063829	0	0	0	0	
1475000000	0	0	-50.7799675922371	18.9822344962781	0	0	0	0	
1500000000	0	0	-64.6448925095607	-160.368521214917	0	0	0	0	
1525000000	0	0	-69.0044635331425	-82.4839882464234	0	0	0	0	
1550000000	0	0	-61.0481322996895	42.346293857076	0	0	0	0	
1575000000	0	0	-55.0475557371801	45.1186596362386	0	0	0	0	
1600000000	0	0	-66.3940964028123	168.842181884497	0	0	0	0	
1625000000	0	0	-56.9384249249954	-38.7029629415927	0	0	0	0	
1650000000	0	0	-75.8788489477437	110.783696200643	0	0	0	0	
1675000000	0	0	-72.3377933476535	-69.2112424782924	0	0	0	0	
1700000000	0	0	-60.2126764957419	-139.651637885394	0	0	0	0	
1725000000	0	0	-68.6698926971198	-60.7032770172297	0	0	0	0	
1750000000	0	0	-59.1862562186773	83.7875856920552	0	0	0	0	
1775000000	0	0	-62.1670186186676	-78.8023936928254	0	0	0	0	
1800000000	0	0	-63.7331897826676	42.8325041186793	0	0	0	0	
1825000000	0	0	-61.8054373222104	-170.363350150718	0	0	0	0	
1850000000	0	0	-66.6096930585618	-0.262519385541776	0	0	0	0	
1875000000	0	0	-69.1345808248799	60.6219437612569	0	0	0	0	
1900000000	0	0	-69.5662609911161	120.656602332933	0	0	0	0	
1925000000	0	0	-77.0309683179806	-27.7765668560969	0	0	0	0	
1950000000	0	0	-69.4407636221402	103.740395834821	0	0	0	0	
1975000000	0	0	-65.1701069404245	-81.4730105858689	0	0	0	0	
2000000000	0	0	-60.3987180317628	125.908069597705	0	0	0	0	
2025000000	0	0	-66.5911909787177	-82.8530866110536	0	0	0	0	
2050000000	0	0	-72.3044438885967	-5.7482859451483	0	0	0	0	
2075000000	0	0	-65.0580087862803	-107.115737319993	0	0	0	0	
2100000000	0	0	-76.9336413497182	-87.5311212881503	0	0	0	0	
2125000000	0	0	-70.1351068713626	-27.0842406607922	0	0	0	0	
2150000000	0	0	-80.7847098269115	0.549865732448242	0	0	0	0	
2175000000	0	0	-68.9872425684061	50.8952290166894	0	0	0	0	
2200000000	0	0	-71.3961116080199	-12.5457221639786	0	0	0	0	
2225000000	0	0	-71.2847620805503	-92.9991268553755	0	0	0	0	
2250000000	0	0	-62.4861205882514	-69.0199616817757	0	0	0	0	
2275000000	0	0	-69.8999724255546	134.183537221045	0	0	0	0	
2300000000	0	0	-69.6651632628893	107.76210668534	0	0	0	0	
2325000000	0	0	-71.8529736408452	78.3347561593666	0	0	0	0	
2350000000	0	0	-69.4171287789485	-128.8983982922	0	0	0	0	
2375000000	0	0	-77.6473830164261	-24.8567460365048	0	0	0	0	
2400000000	0	0	-61.7073365060472	71.1637180598097	0	0	0	0	
2425000000	0	0	-73.1249708235663	157.85531197196	0	0	0	0	
2450000000	0	0	-74.6545341789966	-170.670010848421	0	0	0	0	
2475000000	0	0	-69.820387751787	-14.8679767075552	0	0	0	0	
2500000000	0	0	-74.3012655823132	16.7810524970779	0	0	0	0	
2525000000	0	0	-64.9648561320356	-80.7505360662326	0	0	0	0	
2550000000	0	0	-74.7032916190732	96.5917733270035	0	0	0	0	
2575000000	0	0	-63.5290293341004	-98.1782907444006	0	0	0	0	
2600000000	0	0	-66.7884785683889	-19.3452741674932	0	0	0	0	
2625000000	0	0	-73.4727597208983	171.664196662898	0	0	0	0	
2650000000	0	0	-70.1618912099643	150.892985574151	0	0	0	0	
2675000000	0	0	-72.8877460961338	-62.3109668781822	0	0	0	0	
2700000000	0	0	-71.2202880370471	14.8599644884081	0	0	0	0	
2725000000	0	0	-85.8230328194534	-147.170019368816	0	0	0	0	
2750000000	0	0	-81.6466556326741	-1.5557872062607	0	0	0	0	
2775000000	0	0	-69.7721139685237	-79.176976749714	0	0	0	0	
2800000000	0	0	-83.3398384330337	160.648527463279	0	0	0	0	
2825000000	0	0	-65.1746293508935	-120.954251114599	0	0	0	0	
2850000000	0	0	-68.0965722141215	-153.258279247335	0	0	0	0	
2875000000	0	0	-68.0134905938598	-48.6388053455615	0	0	0	0	
2900000000	0	0	-66.4056166988196	-120.17889658065	0	0	0	0	
2925000000	0	0	-67.3680566149389	-117.772835454719	0	0	0	0	
2950000000	0	0	-68.6813100603136	-27.6034091634495	0	0	0	0	
2975000000	0	0	-66.1491063381226	-109.564638851733	0	0	0	0	
3000000000	0	0	-70.0371688802404	88.4896824609647	0	0	0	0	
3025000000	0	0	-86.7344474309952	107.058293074746	0	0	0	0	
3050000000	0	0	-61.2944721584378	89.26843224264	0	0	0	0	
3075000000	0	0	-77.6731107470328	-175.291906088781	0	0	0	0	
3100000000	0	0	-66.9628521978648	121.099468466206	0	0	0	0	
3125000000	0	0	-67.8278203109595	74.2310768291793	0	0	0	0	
3150000000	0	0	-68.8237592234737	125.276712121758	0	0	0	0	
3175000000	0	0	-73.8683645896479	133.988511317055	0	0	0	0	
3200000000	0	0	-82.9229464306551	97.2360963573136	0	0	0	0	
3225000000	0	0	-67.9986293696676	130.544552406782	0	0	0	0	
3250000000	0	0	-61.7888131603527	65.5731155828727	0	0	0	0	
3275000000	0	0	-73.0340622256607	144.149114444633	0	0	0	0	
3300000000	0	0	-66.3585951866606	45.4471661400131	0	0	0	0	
3325000000	0	0	-69.4137884246283	-75.5172388408892	0	0	0	0	
3350000000	0	0	-73.8522080182141	-39.2310660352378	0	0	0	0	
3375000000	0	0	-63.9315448296444	26.9683899359177	0	0	0	0	
3400000000	0	0	-60.6603608975237	34.7663374897459	0	0	0	0	
3425000000	0	0	-73.288542257697	78.1572915845916	0	0	0	0	
3450000000	0	0	-66.0195386688657	-38.8609112326829	0	0	0	0	
3475000000	0	0	-72.6756827590763	88.0901140210159	0	0	0	0	
3500000000	0	0	-62.6778632825901	-7.28831640587543	0	0	0	0	
3525000000	0	0	-60.9993525378297	-52.9575800546338	0	0	0	0	
3550000000	0	0	-65.006286638599	-86.2881223052759	0	0	0	0	
3575000000	0	0	-63.109777368365	-106.170651203652	0	0	0	0	
3600000000	0	0	-61.6505720835628	-64.652172844444	0	0	0	0	
3625000000	0	0	-85.8135866798333	-39.5292756617804	0	0	0	0	
3650000000	0	0	-61.9080012444218	-123.305733219085	0	0	0	0	
3675000000	0	0	-62.2637307271636	-149.394048548837	0	0	0	0	
3700000000	0	0	-64.0823093077453	-154.600448372388	0	0	0	0	
3725000000	0	0	-63.9785474321638	-153.687675629412	0	0	0	0	
3750000000	0	0	-66.7226914304815	159.804559331582	0	0	0	0	
3775000000	0	0	-63.7298634821385	175.975639728422	0	0	0	0	
3800000000	0	0	-62.6865092232713	163.226451606405	0	0	0	0	
3825000000	0	0	-62.1697353293852	157.233295673699	0	0	0	0	
3850000000	0	0	-58.4633861839913	169.324309328165	0	0	0	0	
3875000000	0	0	-61.0663689950898	142.151058367149	0	0	0	0	
3900000000	0	0	-65.6332012837181	113.895920738555	0	0	0	0	
3925000000	0	0	-63.7481642303566	87.7590650366792	0	0	0	0	
3950000000	0	0	-61.7166309312328	108.272146770235	0	0	0	0	
3975000000	0	0	-58.2457675937632	87.8997675109481	0	0	0	0	
4000000000	0	0	-67.3483839891904	116.735345579558	0	0	0	0	
4025000000	0	0	-56.8323879883843	45.6778880099247	0	0	0	0	
4050000000	0	0	-57.1843598503723	39.8604287098576	0	0	0	0	
4075000000	0	0	-63.0814069885501	43.9456231884112	0	0	0	0	
4100000000	0	0	-61.0539715914123	48.2521897248813	0	0	0	0	
4125000000	0	0	-58.5103804656165	23.1806062306792	0	0	0	0	
4150000000	0	0	-58.439183524025	-4.97198223886159	0	0	0	0	
4175000000	0	0	-56.2217585584034	2.47384770517889	0	0	0	0	
4200000000	0	0	-54.2783730303427	-16.70656563347	0	0	0	0	
4225000000	0	0	-55.9766488548598	-23.3294286800425	0	0	0	0	
4250000000	0	0	-54.7459762725603	-42.8019930505358	0	0	0	0	
4275000000	0	0	-55.2950805443839	-50.1683183588959	0	0	0	0	
4300000000	0	0	-56.5702664485881	-72.0636727755511	0	0	0	0	
4325000000	0	0	-52.9118407797842	-81.3069293404947	0	0	0	0	
4350000000	0	0	-54.0519013619857	-111.579169349888	0	0	0	0	
4375000000	0	0	-53.4315366216391	-110.328433145135	0	0	0	0	
4400000000	0	0	-55.2256408646159	-114.392918822421	0	0	0	0	
4425000000	0	0	-55.2591475989549	-105.273733439287	0	0	0	0	
4450000000	0	0	-51.0839092850042	-125.323526679001	0	0	0	0	
4475000000	0	0	-51.3079205424815	-148.696739617834	0	0	0	0	
4500000000	0	0	-51.5134678049112	-168.137908846404	0	0	0	0	
4525000000	0	0	-51.8114710021331	-164.960252493605	0	0	0	0	
4550000000	0	0	-48.6366846160741	-173.900738771303	0	0	0	0	
4575000000	0	0	-49.5351695479534	155.765110073972	0	0	0	0	
4600000000	0	0	-49.0297670410009	140.995398911297	0	0	0	0	
4625000000	0	0	-49.0772556411756	141.010228077179	0	0	0	0	
4650000000	0	0	-48.1918313362172	123.256261441438	0	0	0	0	
4675000000	0	0	-48.7446828181988	112.822239698423	0	0	0	0	
4700000000	0	0	-47.0128962830067	110.109530159413	0	0	0	0	
4725000000	0	0	-47.188113789841	90.1117564836003	0	0	0	0	
4750000000	0	0	-45.5381395588452	67.7207340461441	0	0	0	0	
4775000000	0	0	-45.16521322498	55.533627951101	0	0	0	0	
4800000000	0	0	-45.5674753779355	54.3189828130629	0	0	0	0	
4825000000	0	0	-44.2977597137368	35.0187913828191	0	0	0	0	
4850000000	0	0	-42.5420939564018	23.8434781560761	0	0	0	0	
4875000000	0	0	-41.9837049281598	-5.02233903601071	0	0	0	0	
4900000000	0	0	-42.2464046815253	-13.4360141391629	0	0	0	0	
4925000000	0	0	-41.064788082051	-27.0575491655485	0	0	0	0	
4950000000	0	0	-38.9907516978243	-42.3591543851177	0	0	0	0	
4975000000	0	0	-39.0693331044294	-64.1899576790813	0	0	0	0	
5000000000	0	0	-38.8858333721183	-86.1740863699728	0	0	0	0	
5025000000	0	0	-38.6979600327985	-97.6163059840663	0	0	0	0	
5050000000	0	0	-37.7055891577394	-105.204692308599	0	0	0	0	
5075000000	0	0	-36.4490860375194	-126.656955752979	0	0	0	0	
5100000000	0	0	-35.1673416823728	-147.804485732122	0	0	0	0	
5125000000	0	0	-35.6591742192693	-164.857700577403	0	0	0	0	
5150000000	0	0	-35.3202615486026	175.332410903019	0	0	0	0	
5175000000	0	0	-34.5957418387463	154.195084379027	0	0	0	0	
5200000000	0	0	-34.2396040096619	134.390146928332	0	0	0	0	
5225000000	0	0	-34.2198990570395	113.157572628527	0	0	0	0	
5250000000	0	0	-34.3480304978014	93.6488835447777	0	0	0	0	
5275000000	0	0	-34.4170045827727	71.6469889207578	0	0	0	0	
5300000000	0	0	-34.8269870212095	50.2168664798971	0	0	0	0	
5325000000	0	0	-35.5227408996714	31.7288111102332	0	0	0	0	
5350000000	0	0	-36.3354954959045	13.4920849113782	0	0	0	0	
5375000000	0	0	-36.530112628756	-3.04885062217875	0	0	0	0	
5400000000	0	0	-36.6254948002756	-16.4220426662421	0	0	0	0	
5425000000	0	0	-37.5597644607512	-40.2340889982396	0	0	0	0	
5450000000	0	0	-38.613138421541	-60.7627258746885	0	0	0	0	
5475000000	0	0	-39.3953456750737	-68.1441023071432	0	0	0	0	
5500000000	0	0	-39.7642177787694	-89.355991828762	0	0	0	0	
5525000000	0	0	-41.0245857630712	-106.29773900618	0	0	0	0	
5550000000	0	0	-41.1210699183123	-115.188912759702	0	0	0	0	
5575000000	0	0	-41.8508178930025	-128.933193766103	0	0	0	0	
5600000000	0	0	-42.8341071161563	-145.194753182575	0	0	0	0	
5625000000	0	0	-43.2535318871095	-162.198346923397	0	0	0	0	
5650000000	0	0	-42.4573145499264	-170.722557474302	0	0	0	0	
5675000000	0	0	-45.9191846802408	167.886930826859	0	0	0	0	
5700000000	0	0	-44.1308627637795	158.625702955369	0	0	0	0	
5725000000	0	0	-45.2847563812538	147.162515052251	0	0	0	0	
5750000000	0	0	-46.4975480038365	135.545967750173	0	0	0	0	
5775000000	0	0	-47.314266934478	129.748647643056	0	0	0	0	
5800000000	0	0	-46.4078093125815	103.829949931239	0	0	0	0	
5825000000	0	0	-47.0194066132475	104.378827023927	0	0	0	0	
5850000000	0	0	-47.5633358768379	83.706476365654	0	0	0	0	
5875000000	0	0	-48.8221994838171	77.0070077713571	0	0	0	0	
5900000000	0	0	-47.2059425630412	68.5967156024089	0	0	0	0	
5925000000	0	0	-47.1684095397025	46.2974879400937	0	0	0	0	
5950000000	0	0	-49.652274933903	30.6064186984794	0	0	0	0	
5975000000	0	0	-50.2854021169839	15.944177610857	0	0	0	0	
6000000000	0	0	-49.3613300139744	17.5896226076251	0	0	0	0	
