!Keysight Technologies N9926A: A.08.19
!Date: Sunday, 01 March 2026 14:17:15
!Timezone: (GMT-06:00) Central Time (US & Canada)
!Model: N9926A
!Serial: MY53102721
!GPS Latitude: 
!GPS Longitude: 
!GPS TimeStamp: 0001-01-01 00:00:00Z
!GPS Seconds Since Last Read: 0
!CHECKSUM:0683078787
!Correction: S11()S21(ON U)S12()S22()
!S2P File: Measurements:S11,S21,S12,S22:
# Hz S DB R 50
1000000000	0	0	-70.6538237832813	35.9620782943646	0	0	0	0	
1025000000	0	0	-62.3489293867127	98.7209678650809	0	0	0	0	
1050000000	0	0	-70.3305340909852	52.8681276385348	0	0	0	0	
1075000000	0	0	-65.7117748094801	-21.4574341610203	0	0	0	0	
1100000000	0	0	-78.4396542502356	-102.533861747953	0	0	0	0	
1125000000	0	0	-68.804100988732	-143.31546310603	0	0	0	0	
1150000000	0	0	-62.4582736328564	14.117389703822	0	0	0	0	
1175000000	0	0	-68.267540365848	149.06857565623	0	0	0	0	
1200000000	0	0	-57.2785635958315	-57.0764323809582	0	0	0	0	
1225000000	0	0	-74.1142805436805	56.4588174659856	0	0	0	0	
1250000000	0	0	-56.9906111298772	-66.2148904040817	0	0	0	0	
1275000000	0	0	-57.4644428254531	88.7167780899439	0	0	0	0	
1300000000	0	0	-56.0680409142442	-93.9468233045973	0	0	0	0	
1325000000	0	0	-56.6667675229309	144.164389965441	0	0	0	0	
1350000000	0	0	-60.8804252488969	-137.760732153841	0	0	0	0	
1375000000	0	0	-46.432336541632	19.6081706658647	0	0	0	0	
1400000000	0	0	-55.0756576304879	50.9344328327156	0	0	0	0	
1425000000	0	0	-57.2765098786871	138.885823569276	0	0	0	0	
1450000000	0	0	-56.8682518994507	-133.015511401205	0	0	0	0	
1475000000	0	0	-54.2055846483442	73.68318305495	0	0	0	0	
1500000000	0	0	-65.6518913356071	-65.7579038687959	0	0	0	0	
1525000000	0	0	-57.5846779393354	92.8382312866712	0	0	0	0	
1550000000	0	0	-51.0886083358719	-163.748516130508	0	0	0	0	
1575000000	0	0	-79.8677630604291	-58.7249340953378	0	0	0	0	
1600000000	0	0	-78.8078392574933	-95.8541506222692	0	0	0	0	
1625000000	0	0	-65.7830931606622	-6.29419688335196	0	0	0	0	
1650000000	0	0	-63.9588169578021	-115.511689840307	0	0	0	0	
1675000000	0	0	-58.7973010150624	88.4197111860749	0	0	0	0	
1700000000	0	0	-55.4554539809872	-92.063178181422	0	0	0	0	
1725000000	0	0	-61.2984257525359	123.050621360905	0	0	0	0	
1750000000	0	0	-62.8760883468867	69.4615341395606	0	0	0	0	
1775000000	0	0	-60.9906762451374	107.528530282568	0	0	0	0	
1800000000	0	0	-68.8805622967311	156.146907752706	0	0	0	0	
1825000000	0	0	-65.6166489693416	-90.325325906334	0	0	0	0	
1850000000	0	0	-68.9998966067176	-177.231605279128	0	0	0	0	
1875000000	0	0	-62.8421700905692	80.266661488671	0	0	0	0	
1900000000	0	0	-61.630502875571	-69.8553913642612	0	0	0	0	
1925000000	0	0	-61.5958287961988	-162.649786371164	0	0	0	0	
1950000000	0	0	-65.2131493582674	-179.289677180637	0	0	0	0	
1975000000	0	0	-77.9990605994314	145.069227914356	0	0	0	0	
2000000000	0	0	-89.3104103350893	26.4299827719765	0	0	0	0	
2025000000	0	0	-75.404222141424	153.666690416271	0	0	0	0	
2050000000	0	0	-67.0380747983991	176.524401774093	0	0	0	0	
2075000000	0	0	-67.0814819464027	43.422861438655	0	0	0	0	
2100000000	0	0	-82.4366880879065	-35.2632204094439	0	0	0	0	
2125000000	0	0	-58.7079263915319	122.494841138319	0	0	0	0	
2150000000	0	0	-63.9166680616246	82.7071790439072	0	0	0	0	
2175000000	0	0	-68.9700549705598	27.4474859043907	0	0	0	0	
2200000000	0	0	-62.8848568906228	-140.958947885557	0	0	0	0	
2225000000	0	0	-64.3835866074619	-138.572416429583	0	0	0	0	
2250000000	0	0	-79.4708812695509	104.836673656846	0	0	0	0	
2275000000	0	0	-69.3216861361936	-56.9189713486133	0	0	0	0	
2300000000	0	0	-63.8306292606159	20.6178921107893	0	0	0	0	
2325000000	0	0	-77.6715707798565	-178.886726783947	0	0	0	0	
2350000000	0	0	-71.6061945317657	61.6866244165806	0	0	0	0	
2375000000	0	0	-65.852799399332	118.937511837452	0	0	0	0	
2400000000	0	0	-63.8654739990176	7.69698770958442	0	0	0	0	
2425000000	0	0	-69.4516719132956	72.7575788093727	0	0	0	0	
2450000000	0	0	-75.1490567451418	99.0696947055983	0	0	0	0	
2475000000	0	0	-70.3472879429573	-34.4033430310795	0	0	0	0	
2500000000	0	0	-72.1353666228855	-173.693382826191	0	0	0	0	
2525000000	0	0	-70.6601995423097	-70.3732117531986	0	0	0	0	
2550000000	0	0	-70.4296917005581	-127.438372552639	0	0	0	0	
2575000000	0	0	-71.8764272371448	-119.106866558093	0	0	0	0	
2600000000	0	0	-70.9468760325281	131.515398417926	0	0	0	0	
2625000000	0	0	-66.3262974096878	-150.690650383683	0	0	0	0	
2650000000	0	0	-70.248343251439	-44.6640863110617	0	0	0	0	
2675000000	0	0	-69.6105822332629	85.5699257386163	0	0	0	0	
2700000000	0	0	-75.8827489296758	-166.631795346572	0	0	0	0	
2725000000	0	0	-71.644065975409	-2.22357269379251	0	0	0	0	
2750000000	0	0	-78.3887753670649	-153.189811894192	0	0	0	0	
2775000000	0	0	-70.1379578576768	61.9895832561168	0	0	0	0	
2800000000	0	0	-81.7252401236676	73.1405938046451	0	0	0	0	
2825000000	0	0	-76.9298976073651	-178.439524790583	0	0	0	0	
2850000000	0	0	-67.5981534469673	67.8546776587811	0	0	0	0	
2875000000	0	0	-64.2369092875008	34.0388155765202	0	0	0	0	
2900000000	0	0	-71.72685932763	-47.116355299428	0	0	0	0	
2925000000	0	0	-67.8723385236067	7.27963954455295	0	0	0	0	
2950000000	0	0	-65.2407020571847	82.4489998957104	0	0	0	0	
2975000000	0	0	-79.6580208697998	-71.4640823035894	0	0	0	0	
3000000000	0	0	-69.0198080193142	53.2156234717217	0	0	0	0	
3025000000	0	0	-78.6177770921193	-171.663894382803	0	0	0	0	
3050000000	0	0	-71.5577721893702	56.5817647793223	0	0	0	0	
3075000000	0	0	-69.7461836183093	29.4476927650493	0	0	0	0	
3100000000	0	0	-69.6934828367112	-57.5461781837969	0	0	0	0	
3125000000	0	0	-68.1732641325	54.83687501195	0	0	0	0	
3150000000	0	0	-67.5238486523737	-63.7089332560648	0	0	0	0	
3175000000	0	0	-71.3352687947186	-101.38788486101	0	0	0	0	
3200000000	0	0	-65.8806592108816	-31.690541057078	0	0	0	0	
3225000000	0	0	-73.8593905130575	142.55836041987	0	0	0	0	
3250000000	0	0	-70.8776139620163	-161.104146815857	0	0	0	0	
3275000000	0	0	-75.3090759443157	-94.5573888357523	0	0	0	0	
3300000000	0	0	-75.0559479010104	-75.1250938117153	0	0	0	0	
3325000000	0	0	-67.0703326056095	-174.325174914425	0	0	0	0	
3350000000	0	0	-68.5445429272048	-119.082535453822	0	0	0	0	
3375000000	0	0	-71.4203993151728	-141.641055966121	0	0	0	0	
3400000000	0	0	-71.6731374364043	-119.926455627233	0	0	0	0	
3425000000	0	0	-70.627497327092	-90.5452591466546	0	0	0	0	
3450000000	0	0	-70.1825937273016	174.966505065633	0	0	0	0	
3475000000	0	0	-66.4438900297216	122.773679098764	0	0	0	0	
3500000000	0	0	-71.7949512811377	3.24260219783749	0	0	0	0	
3525000000	0	0	-70.6258107683152	89.2999803786059	0	0	0	0	
3550000000	0	0	-68.3251332202782	41.6092429509611	0	0	0	0	
3575000000	0	0	-66.7669336076239	85.4316093465617	0	0	0	0	
3600000000	0	0	-79.6376785514373	-161.61399811578	0	0	0	0	
3625000000	0	0	-71.6108257467365	35.3159415442272	0	0	0	0	
3650000000	0	0	-71.7951000427625	104.907075282504	0	0	0	0	
3675000000	0	0	-66.2285265477447	14.2443201742288	0	0	0	0	
3700000000	0	0	-71.3931169718601	14.8318063458218	0	0	0	0	
3725000000	0	0	-71.1685616001869	12.6224230765207	0	0	0	0	
3750000000	0	0	-71.4692020641927	-125.455799580233	0	0	0	0	
3775000000	0	0	-67.4807607820199	29.2131079956951	0	0	0	0	
3800000000	0	0	-63.7155142176643	10.7958266265084	0	0	0	0	
3825000000	0	0	-62.4999213252896	-41.6614231116453	0	0	0	0	
3850000000	0	0	-61.2328606683159	-5.58277837212771	0	0	0	0	
3875000000	0	0	-71.9982282131746	-110.199993817705	0	0	0	0	
3900000000	0	0	-70.9813299226559	-95.8805990286935	0	0	0	0	
3925000000	0	0	-74.422848179046	-159.190053411411	0	0	0	0	
3950000000	0	0	-74.6684076652907	-122.690615570123	0	0	0	0	
3975000000	0	0	-69.1763069320849	-106.408455182128	0	0	0	0	
4000000000	0	0	-63.2603045887491	-86.4236120084002	0	0	0	0	
4025000000	0	0	-61.7842094435272	-97.3773179412091	0	0	0	0	
4050000000	0	0	-64.062806359579	-142.377916916342	0	0	0	0	
4075000000	0	0	-60.6322594598121	-165.775338045894	0	0	0	0	
4100000000	0	0	-59.5782856157059	173.620667649939	0	0	0	0	
4125000000	0	0	-59.7076485799046	-172.435538540252	0	0	0	0	
4150000000	0	0	-61.2591688576221	133.543112060208	0	0	0	0	
4175000000	0	0	-59.8732356823068	-165.603402592007	0	0	0	0	
4200000000	0	0	-64.770261394431	161.625367001691	0	0	0	0	
4225000000	0	0	-60.7938471652483	125.704292189853	0	0	0	0	
4250000000	0	0	-59.3777487436234	129.945609546328	0	0	0	0	
4275000000	0	0	-61.1425833033825	101.866311192097	0	0	0	0	
4300000000	0	0	-57.8766177902017	91.9749927563483	0	0	0	0	
4325000000	0	0	-55.9793601365551	78.3060897816896	0	0	0	0	
4350000000	0	0	-57.4101658136603	52.4013675229137	0	0	0	0	
4375000000	0	0	-58.1353043920069	60.2328559991148	0	0	0	0	
4400000000	0	0	-57.0141010956426	66.6414222782646	0	0	0	0	
4425000000	0	0	-58.4346249219662	13.9124285236876	0	0	0	0	
4450000000	0	0	-57.3379707904032	16.1512887498347	0	0	0	0	
4475000000	0	0	-55.0785457484854	9.01101031059286	0	0	0	0	
4500000000	0	0	-56.2673985087955	-7.79645396010525	0	0	0	0	
4525000000	0	0	-53.9064850289832	-7.34644965573872	0	0	0	0	
4550000000	0	0	-51.9611547864285	-36.1043475712366	0	0	0	0	
4575000000	0	0	-55.2695094429686	-65.4130652907462	0	0	0	0	
4600000000	0	0	-54.4430187522399	-81.6211493172469	0	0	0	0	
4625000000	0	0	-52.5463299565856	-66.3110144649711	0	0	0	0	
4650000000	0	0	-51.2417934632439	-100.865348072984	0	0	0	0	
4675000000	0	0	-54.8279869896295	-115.138867667682	0	0	0	0	
4700000000	0	0	-51.2173351541945	-125.229783266467	0	0	0	0	
4725000000	0	0	-50.4891956038555	-136.942657104193	0	0	0	0	
4750000000	0	0	-49.6784238879217	-150.893362279122	0	0	0	0	
4775000000	0	0	-48.5098026246274	-173.586923706548	0	0	0	0	
4800000000	0	0	-49.9749629921335	-168.006065914319	0	0	0	0	
4825000000	0	0	-49.0370482390042	172.154950865438	0	0	0	0	
4850000000	0	0	-46.2919363722359	159.974568455801	0	0	0	0	
4875000000	0	0	-45.8541750386926	133.065296290677	0	0	0	0	
4900000000	0	0	-45.4067360829869	117.619538011498	0	0	0	0	
4925000000	0	0	-45.475492624228	101.193420314317	0	0	0	0	
4950000000	0	0	-43.0014180572504	94.4124170873587	0	0	0	0	
4975000000	0	0	-43.3527369786672	67.0523878103514	0	0	0	0	
5000000000	0	0	-42.2976315119823	44.8586269845959	0	0	0	0	
5025000000	0	0	-42.0448990520601	29.6824825997984	0	0	0	0	
5050000000	0	0	-41.6671795648356	22.0984725312662	0	0	0	0	
5075000000	0	0	-40.2641275778007	-1.79505730477258	0	0	0	0	
5100000000	0	0	-38.3651805474665	-20.6795462932143	0	0	0	0	
5125000000	0	0	-38.9630905557148	-47.6571829443484	0	0	0	0	
5150000000	0	0	-38.2395374362834	-65.5890503373266	0	0	0	0	
5175000000	0	0	-38.4209950363267	-88.2059558337389	0	0	0	0	
5200000000	0	0	-37.7337446832851	-108.041390216369	0	0	0	0	
5225000000	0	0	-37.6358233735076	-130.287682124173	0	0	0	0	
5250000000	0	0	-37.8668981059842	-151.645426179584	0	0	0	0	
5275000000	0	0	-38.1931256023113	-168.882844839769	0	0	0	0	
5300000000	0	0	-37.7307002534953	170.133876755622	0	0	0	0	
5325000000	0	0	-38.3287151622025	143.932812617588	0	0	0	0	
5350000000	0	0	-39.1880216415869	126.102279298052	0	0	0	0	
5375000000	0	0	-39.2958869012282	106.920461416156	0	0	0	0	
5400000000	0	0	-40.0429486404747	88.0154544166713	0	0	0	0	
5425000000	0	0	-40.754193939818	66.2597432522574	0	0	0	0	
5450000000	0	0	-41.9249512923108	51.2866790294654	0	0	0	0	
5475000000	0	0	-43.0950304563235	31.9561798059158	0	0	0	0	
5500000000	0	0	-42.4814638551363	17.5835556527808	0	0	0	0	
5525000000	0	0	-44.1344863400068	3.24140948602457	0	0	0	0	
5550000000	0	0	-44.7362510672497	-13.262221678278	0	0	0	0	
5575000000	0	0	-45.1167023773242	-33.6195714264738	0	0	0	0	
5600000000	0	0	-44.8635739085454	-41.9128916261263	0	0	0	0	
5625000000	0	0	-45.8851588089282	-61.7514820984336	0	0	0	0	
5650000000	0	0	-45.1363604941165	-71.7891812463873	0	0	0	0	
5675000000	0	0	-46.866650517828	-94.9951320859393	0	0	0	0	
5700000000	0	0	-45.8695204908054	-111.936519116954	0	0	0	0	
5725000000	0	0	-47.9956127972522	-126.733851733545	0	0	0	0	
5750000000	0	0	-49.0733113668315	-136.85287825732	0	0	0	0	
5775000000	0	0	-49.6610481428386	-151.999027519537	0	0	0	0	
5800000000	0	0	-48.8291791999499	-167.723418618639	0	0	0	0	
5825000000	0	0	-48.9827455021935	177.904540078494	0	0	0	0	
5850000000	0	0	-49.9674072394946	162.736650514145	0	0	0	0	
5875000000	0	0	-51.3500574130452	141.97067025687	0	0	0	0	
5900000000	0	0	-49.4747508374345	142.137042751678	0	0	0	0	
5925000000	0	0	-51.0526120482123	127.428985199031	0	0	0	0	
5950000000	0	0	-52.75250464385	105.502266604573	0	0	0	0	
5975000000	0	0	-53.8064685366688	83.2361762668075	0	0	0	0	
6000000000	0	0	-53.7115219332889	87.4047826081333	0	0	0	0	
