!Keysight Technologies N9926A: A.08.19
!Date: Sunday, 01 March 2026 14:19:01
!Timezone: (GMT-06:00) Central Time (US & Canada)
!Model: N9926A
!Serial: MY53102721
!GPS Latitude: 
!GPS Longitude: 
!GPS TimeStamp: 0001-01-01 00:00:00Z
!GPS Seconds Since Last Read: 0
!CHECKSUM:2009731329
!Correction: S11()S21(ON U)S12()S22()
!S2P File: Measurements:S11,S21,S12,S22:
# Hz S DB R 50
1000000000	0	0	-71.0636493198067	-152.634089743677	0	0	0	0	
1025000000	0	0	-68.071482517065	-139.125735062729	0	0	0	0	
1050000000	0	0	-71.0121751200105	57.7298220682474	0	0	0	0	
1075000000	0	0	-61.872729462489	-161.356274492997	0	0	0	0	
1100000000	0	0	-65.4169249183516	-100.875235679095	0	0	0	0	
1125000000	0	0	-68.1000188571829	34.4038426382997	0	0	0	0	
1150000000	0	0	-66.1049365743835	20.1665881329765	0	0	0	0	
1175000000	0	0	-89.4518577803484	58.6708634858748	0	0	0	0	
1200000000	0	0	-71.3367745854149	-26.5573994012085	0	0	0	0	
1225000000	0	0	-64.2888042656232	-143.909104701796	0	0	0	0	
1250000000	0	0	-57.5633665887871	-18.3890466400068	0	0	0	0	
1275000000	0	0	-62.620548066662	-49.3757080716593	0	0	0	0	
1300000000	0	0	-65.9502787409633	99.4834670525736	0	0	0	0	
1325000000	0	0	-60.7484370416226	-81.7798696136933	0	0	0	0	
1350000000	0	0	-56.209313849858	-94.2692872448346	0	0	0	0	
1375000000	0	0	-51.2079631146565	-116.408465697126	0	0	0	0	
1400000000	0	0	-55.3137021785991	16.5294287512653	0	0	0	0	
1425000000	0	0	-53.8306229948561	-138.592883714065	0	0	0	0	
1450000000	0	0	-52.1531721800538	120.432259003927	0	0	0	0	
1475000000	0	0	-48.4581451717494	-80.4728058403924	0	0	0	0	
1500000000	0	0	-56.4597488548873	-132.214630169202	0	0	0	0	
1525000000	0	0	-51.6486881878392	148.59093696779	0	0	0	0	
1550000000	0	0	-68.4324366967539	-128.906817940274	0	0	0	0	
1575000000	0	0	-50.6752371017255	-70.3985827557929	0	0	0	0	
1600000000	0	0	-69.1079178713104	174.16303186956	0	0	0	0	
1625000000	0	0	-59.8254534230153	142.875535004757	0	0	0	0	
1650000000	0	0	-67.3030406036296	-121.692664609403	0	0	0	0	
1675000000	0	0	-55.8834588139027	94.9723962606837	0	0	0	0	
1700000000	0	0	-57.1113381914734	-47.2350170385017	0	0	0	0	
1725000000	0	0	-57.7400628143805	21.4420939961994	0	0	0	0	
1750000000	0	0	-67.8204643104183	-9.0037621121336	0	0	0	0	
1775000000	0	0	-73.2920904614603	-98.1458088639843	0	0	0	0	
1800000000	0	0	-73.7418775984102	140.653120218704	0	0	0	0	
1825000000	0	0	-69.033891537887	-128.407008387973	0	0	0	0	
1850000000	0	0	-71.2163933518313	7.17833419603194	0	0	0	0	
1875000000	0	0	-61.3935700673389	-26.7249235089444	0	0	0	0	
1900000000	0	0	-68.5134375079538	-74.5464123325067	0	0	0	0	
1925000000	0	0	-73.277272028518	92.3417894275586	0	0	0	0	
1950000000	0	0	-66.013315952004	-137.890597375646	0	0	0	0	
1975000000	0	0	-69.7143597855758	82.9315498505346	0	0	0	0	
2000000000	0	0	-71.3818108171131	132.448269121082	0	0	0	0	
2025000000	0	0	-74.4571712638476	120.100864957623	0	0	0	0	
2050000000	0	0	-62.124733147201	179.930069856702	0	0	0	0	
2075000000	0	0	-71.7180050711637	-119.743114919211	0	0	0	0	
2100000000	0	0	-69.6242017719825	98.1135411138102	0	0	0	0	
2125000000	0	0	-82.3594394765995	-50.4536402589774	0	0	0	0	
2150000000	0	0	-69.0040113337647	86.5302632146891	0	0	0	0	
2175000000	0	0	-66.7770754130032	-54.7037116059149	0	0	0	0	
2200000000	0	0	-75.3615871575327	75.2111202534136	0	0	0	0	
2225000000	0	0	-68.3954958020588	82.4786517457618	0	0	0	0	
2250000000	0	0	-67.4323126790134	0.855595383105355	0	0	0	0	
2275000000	0	0	-66.9048966977668	-60.0950847376861	0	0	0	0	
2300000000	0	0	-62.4599902998429	12.1697699870403	0	0	0	0	
2325000000	0	0	-66.8142346608532	-140.598426449276	0	0	0	0	
2350000000	0	0	-68.1787126797827	-68.5120485117758	0	0	0	0	
2375000000	0	0	-76.7269309944755	-125.374456265455	0	0	0	0	
2400000000	0	0	-68.2234825555161	-122.241611634857	0	0	0	0	
2425000000	0	0	-74.2834484909261	69.0135832405466	0	0	0	0	
2450000000	0	0	-63.0361938579179	-142.679785505538	0	0	0	0	
2475000000	0	0	-65.1076675241731	103.654174267432	0	0	0	0	
2500000000	0	0	-65.8178115804715	-59.6706111060561	0	0	0	0	
2525000000	0	0	-67.0272021603761	-68.0426832309894	0	0	0	0	
2550000000	0	0	-65.8172597672411	112.075270917164	0	0	0	0	
2575000000	0	0	-77.4138847827506	87.7389236144605	0	0	0	0	
2600000000	0	0	-71.7034788323263	-173.5140521467	0	0	0	0	
2625000000	0	0	-65.8634631134274	158.685920679379	0	0	0	0	
2650000000	0	0	-73.1916925304101	-22.3712127140276	0	0	0	0	
2675000000	0	0	-72.3351650976092	-58.8733057304684	0	0	0	0	
2700000000	0	0	-67.4479955253863	-107.391374890414	0	0	0	0	
2725000000	0	0	-78.2508487686488	-50.088268202116	0	0	0	0	
2750000000	0	0	-68.7522922812624	130.870075565967	0	0	0	0	
2775000000	0	0	-70.8340136550726	-73.0264497763506	0	0	0	0	
2800000000	0	0	-71.8705322513372	66.2059069021908	0	0	0	0	
2825000000	0	0	-68.5980319660221	89.3317302892492	0	0	0	0	
2850000000	0	0	-66.8349351824978	-32.8844555700245	0	0	0	0	
2875000000	0	0	-67.8788252574918	-153.524756811099	0	0	0	0	
2900000000	0	0	-65.1489007501019	-14.2428152481078	0	0	0	0	
2925000000	0	0	-69.0346934301933	16.0324972278184	0	0	0	0	
2950000000	0	0	-67.6325378119003	-83.7668055809412	0	0	0	0	
2975000000	0	0	-65.7493390709288	152.407724807839	0	0	0	0	
3000000000	0	0	-74.9983445813597	107.349286674231	0	0	0	0	
3025000000	0	0	-78.161757627002	60.747462675046	0	0	0	0	
3050000000	0	0	-70.0076278956496	-121.210198467944	0	0	0	0	
3075000000	0	0	-80.6883527275727	15.4841477356734	0	0	0	0	
3100000000	0	0	-64.4542708654923	-88.9133553044424	0	0	0	0	
3125000000	0	0	-69.4595340603175	-169.522142733958	0	0	0	0	
3150000000	0	0	-67.9472495870231	-26.5359821779806	0	0	0	0	
3175000000	0	0	-74.5243531593763	8.1568365357001	0	0	0	0	
3200000000	0	0	-75.3127339122045	-9.13944486010719	0	0	0	0	
3225000000	0	0	-72.2247678825524	-18.1205769774042	0	0	0	0	
3250000000	0	0	-71.8160517455896	-52.2431454115315	0	0	0	0	
3275000000	0	0	-65.2732815174312	-69.7029349221736	0	0	0	0	
3300000000	0	0	-70.9336041043238	135.240039726185	0	0	0	0	
3325000000	0	0	-72.04122483617	69.8063233797457	0	0	0	0	
3350000000	0	0	-67.749639585662	-14.4267297414874	0	0	0	0	
3375000000	0	0	-68.4984489098356	153.16617598209	0	0	0	0	
3400000000	0	0	-69.541930343738	95.6394600194018	0	0	0	0	
3425000000	0	0	-66.7214119776966	105.038005402218	0	0	0	0	
3450000000	0	0	-66.6161661380969	154.025305555671	0	0	0	0	
3475000000	0	0	-67.0977323807372	109.784226927283	0	0	0	0	
3500000000	0	0	-67.3859945337376	77.194732238948	0	0	0	0	
3525000000	0	0	-84.4173512486886	-97.9229819967853	0	0	0	0	
3550000000	0	0	-72.640144971839	-4.24778811459864	0	0	0	0	
3575000000	0	0	-69.133314154604	-25.8949637941308	0	0	0	0	
3600000000	0	0	-75.236857126448	61.2404705477671	0	0	0	0	
3625000000	0	0	-78.8821747230095	84.6613771043572	0	0	0	0	
3650000000	0	0	-69.6557545583622	65.7209182203567	0	0	0	0	
3675000000	0	0	-76.4230945685456	-29.1239419349417	0	0	0	0	
3700000000	0	0	-68.3611307725928	-130.026126916004	0	0	0	0	
3725000000	0	0	-66.9270177852313	-14.489164283425	0	0	0	0	
3750000000	0	0	-75.3195925146823	-63.8123274888642	0	0	0	0	
3775000000	0	0	-76.7242445229224	-117.667215536606	0	0	0	0	
3800000000	0	0	-64.3637338120382	-124.135532775642	0	0	0	0	
3825000000	0	0	-62.8787460620917	-87.7257024393725	0	0	0	0	
3850000000	0	0	-65.8921007201183	-124.679104213609	0	0	0	0	
3875000000	0	0	-70.524154706689	-93.937850525871	0	0	0	0	
3900000000	0	0	-64.4717831660342	-154.216843795281	0	0	0	0	
3925000000	0	0	-68.8673292482162	-140.45782184235	0	0	0	0	
3950000000	0	0	-67.6870036534395	-167.726804906381	0	0	0	0	
3975000000	0	0	-70.2207544960648	152.080442179328	0	0	0	0	
4000000000	0	0	-64.0468453595724	171.237229453554	0	0	0	0	
4025000000	0	0	-74.1332657032909	55.5190411509203	0	0	0	0	
4050000000	0	0	-58.5374411247432	142.766324360565	0	0	0	0	
4075000000	0	0	-62.6304705011637	112.941071424471	0	0	0	0	
4100000000	0	0	-66.6167742385737	89.6764390240328	0	0	0	0	
4125000000	0	0	-66.1070724223582	84.2877974480639	0	0	0	0	
4150000000	0	0	-65.3485810587959	67.5696391579402	0	0	0	0	
4175000000	0	0	-63.8369816668602	102.38358659783	0	0	0	0	
4200000000	0	0	-65.0473547190091	45.0106325706855	0	0	0	0	
4225000000	0	0	-61.1612596584811	37.360454442603	0	0	0	0	
4250000000	0	0	-60.2887863655489	37.0410110807576	0	0	0	0	
4275000000	0	0	-61.3607365007908	6.93607894245022	0	0	0	0	
4300000000	0	0	-62.6819366029378	32.8630506199453	0	0	0	0	
4325000000	0	0	-66.9187560669681	-22.4832127252993	0	0	0	0	
4350000000	0	0	-68.2254389255785	-21.7406872150414	0	0	0	0	
4375000000	0	0	-60.344225272198	-47.2443508525252	0	0	0	0	
4400000000	0	0	-60.4200347996428	-54.2988552924118	0	0	0	0	
4425000000	0	0	-59.6957259634584	-40.2420119795455	0	0	0	0	
4450000000	0	0	-58.026395239363	-69.6265512896073	0	0	0	0	
4475000000	0	0	-56.9093847540567	-95.2878454948749	0	0	0	0	
4500000000	0	0	-58.301383565226	-97.50638700359	0	0	0	0	
4525000000	0	0	-59.7473898321833	-95.0363617455679	0	0	0	0	
4550000000	0	0	-56.4704890298699	-100.894646314469	0	0	0	0	
4575000000	0	0	-54.8553619965362	-131.404292763648	0	0	0	0	
4600000000	0	0	-53.6080287555345	-160.704312637099	0	0	0	0	
4625000000	0	0	-54.5465189692816	-158.979403728402	0	0	0	0	
4650000000	0	0	-53.9443335339797	-175.123251209084	0	0	0	0	
4675000000	0	0	-55.5118624804158	167.992223714626	0	0	0	0	
4700000000	0	0	-52.3024048878725	163.566529125152	0	0	0	0	
4725000000	0	0	-50.693351117346	146.871807796715	0	0	0	0	
4750000000	0	0	-51.8830734013396	120.2862517634	0	0	0	0	
4775000000	0	0	-50.7638063727534	106.057538340135	0	0	0	0	
4800000000	0	0	-52.0552514257675	106.446842722893	0	0	0	0	
4825000000	0	0	-48.5430761022453	71.9723348812889	0	0	0	0	
4850000000	0	0	-48.8003718858836	61.8143818287627	0	0	0	0	
4875000000	0	0	-47.3268262495693	49.9387824683021	0	0	0	0	
4900000000	0	0	-48.0111235560686	33.5232703458511	0	0	0	0	
4925000000	0	0	-46.1938831331832	14.3617924730842	0	0	0	0	
4950000000	0	0	-44.2197186415427	1.02832978682741	0	0	0	0	
4975000000	0	0	-45.4910566442241	-22.8316789516971	0	0	0	0	
5000000000	0	0	-44.5955669917869	-41.9129652345402	0	0	0	0	
5025000000	0	0	-43.873113097172	-49.4497305452786	0	0	0	0	
5050000000	0	0	-43.0140897806572	-66.055756691956	0	0	0	0	
5075000000	0	0	-41.700660957476	-93.0981241558511	0	0	0	0	
5100000000	0	0	-40.5196060900414	-112.524647358213	0	0	0	0	
5125000000	0	0	-40.0774389473511	-130.29060755688	0	0	0	0	
5150000000	0	0	-39.2210648975018	-151.771028273681	0	0	0	0	
5175000000	0	0	-39.0977992374017	-179.969680656594	0	0	0	0	
5200000000	0	0	-39.0820816032522	160.8335359593	0	0	0	0	
5225000000	0	0	-39.1636718314882	141.889940373718	0	0	0	0	
5250000000	0	0	-38.8132233616868	116.001404380131	0	0	0	0	
5275000000	0	0	-39.103853843957	92.0361935320578	0	0	0	0	
5300000000	0	0	-39.5019977409205	71.0957456553296	0	0	0	0	
5325000000	0	0	-39.9611645797663	56.9578068772102	0	0	0	0	
5350000000	0	0	-40.6590302625297	36.1401451896694	0	0	0	0	
5375000000	0	0	-40.0997850440918	15.2707864052089	0	0	0	0	
5400000000	0	0	-41.1382721158302	-11.60170305401	0	0	0	0	
5425000000	0	0	-41.8611061808636	-29.7242612129524	0	0	0	0	
5450000000	0	0	-43.5929032528954	-48.2760416766238	0	0	0	0	
5475000000	0	0	-43.6462943545611	-61.4478537878823	0	0	0	0	
5500000000	0	0	-43.9499307735954	-79.4279794896117	0	0	0	0	
5525000000	0	0	-44.7414377185425	-92.6615711187932	0	0	0	0	
5550000000	0	0	-45.7452852682139	-115.258106670105	0	0	0	0	
5575000000	0	0	-45.1882601569452	-127.347316925187	0	0	0	0	
5600000000	0	0	-46.3785437866833	-145.420839346216	0	0	0	0	
5625000000	0	0	-46.1440568956163	-162.99348847427	0	0	0	0	
5650000000	0	0	-46.131697033959	176.795051417919	0	0	0	0	
5675000000	0	0	-49.2928924356968	159.166420375039	0	0	0	0	
5700000000	0	0	-48.3221100077742	152.405918383484	0	0	0	0	
5725000000	0	0	-49.775190522445	137.41591015878	0	0	0	0	
5750000000	0	0	-49.8221953814119	118.999800100784	0	0	0	0	
5775000000	0	0	-51.3438768077827	109.56283560964	0	0	0	0	
5800000000	0	0	-50.8794468495996	92.4287204453968	0	0	0	0	
5825000000	0	0	-51.1755375668646	89.3134916044954	0	0	0	0	
5850000000	0	0	-51.1676271135862	71.7908303860611	0	0	0	0	
5875000000	0	0	-51.9211008085649	48.8707299871958	0	0	0	0	
5900000000	0	0	-49.078921342363	45.5606681698405	0	0	0	0	
5925000000	0	0	-50.234886489828	19.6487775528683	0	0	0	0	
5950000000	0	0	-54.5850029972215	-10.2624088033779	0	0	0	0	
5975000000	0	0	-54.1246216921068	0.66156064101232	0	0	0	0	
6000000000	0	0	-51.8477832008546	-31.3977902465759	0	0	0	0	
