!Keysight Technologies N9926A: A.08.19
!Date: Sunday, 01 March 2026 13:31:48
!Timezone: (GMT-06:00) Central Time (US & Canada)
!Model: N9926A
!Serial: MY53102721
!GPS Latitude: 
!GPS Longitude: 
!GPS TimeStamp: 0001-01-01 00:00:00Z
!GPS Seconds Since Last Read: 0
!CHECKSUM:0235531655
!Correction: S11()S21(ON U)S12()S22()
!S2P File: Measurements:S11,S21,S12,S22:
# Hz S DB R 50
1000000000	0	0	-106.586990326746	88.7162079624975	0	0	0	0	
1025000000	0	0	-78.4593544150678	92.1671010505486	0	0	0	0	
1050000000	0	0	-63.3344000415446	167.053759409547	0	0	0	0	
1075000000	0	0	-71.2294805044922	74.4362731830483	0	0	0	0	
1100000000	0	0	-66.3781598800761	5.43795810024478	0	0	0	0	
1125000000	0	0	-65.0532299267718	-114.762042872494	0	0	0	0	
1150000000	0	0	-60.0511776300608	-162.405740331198	0	0	0	0	
1175000000	0	0	-60.5948462078096	1.18848333198155	0	0	0	0	
1200000000	0	0	-59.2151084685677	-48.830800173391	0	0	0	0	
1225000000	0	0	-67.493252518428	19.4505030043887	0	0	0	0	
1250000000	0	0	-58.4181121153081	43.0342029333135	0	0	0	0	
1275000000	0	0	-63.3821718963066	-5.17747216006719	0	0	0	0	
1300000000	0	0	-62.4872816353461	56.2685317941084	0	0	0	0	
1325000000	0	0	-55.9808771884975	88.2361625278645	0	0	0	0	
1350000000	0	0	-51.1249795466983	15.1115267574284	0	0	0	0	
1375000000	0	0	-65.1481949083796	15.117406658174	0	0	0	0	
1400000000	0	0	-55.8091205156023	25.2860264623064	0	0	0	0	
1425000000	0	0	-55.197445306397	151.263833309765	0	0	0	0	
1450000000	0	0	-53.335740775465	92.9355534654302	0	0	0	0	
1475000000	0	0	-58.4513588929785	-137.983508662418	0	0	0	0	
1500000000	0	0	-57.5661039377633	-104.30869453653	0	0	0	0	
1525000000	0	0	-55.7982644203127	-147.181858116226	0	0	0	0	
1550000000	0	0	-59.9709174941148	72.545743827001	0	0	0	0	
1575000000	0	0	-58.9151581882647	78.5361187386801	0	0	0	0	
1600000000	0	0	-60.3607560770756	-87.4483473840182	0	0	0	0	
1625000000	0	0	-66.9374015198872	18.5738139446426	0	0	0	0	
1650000000	0	0	-58.8427468460256	-49.3315838013537	0	0	0	0	
1675000000	0	0	-54.4864977463098	-80.4105321142651	0	0	0	0	
1700000000	0	0	-58.4264875346301	-34.3829970582011	0	0	0	0	
1725000000	0	0	-60.8719613813657	83.7442729816768	0	0	0	0	
1750000000	0	0	-64.6272854789044	95.6396954051952	0	0	0	0	
1775000000	0	0	-61.5249618947289	-17.8743905166964	0	0	0	0	
1800000000	0	0	-64.5504982574785	72.0582348551272	0	0	0	0	
1825000000	0	0	-63.4526621935104	-100.653552567859	0	0	0	0	
1850000000	0	0	-67.8761896195474	-112.231288454776	0	0	0	0	
1875000000	0	0	-63.9596169483271	66.1286120119965	0	0	0	0	
1900000000	0	0	-63.6249870895643	117.326920786414	0	0	0	0	
1925000000	0	0	-68.2553505763477	-22.8643517370403	0	0	0	0	
1950000000	0	0	-68.6911419158576	90.7783417241229	0	0	0	0	
1975000000	0	0	-67.1574175659053	8.5772745453016	0	0	0	0	
2000000000	0	0	-65.3036841053725	-96.6044630219302	0	0	0	0	
2025000000	0	0	-69.8287945269778	-70.352697443928	0	0	0	0	
2050000000	0	0	-68.7600078733835	-89.260879713507	0	0	0	0	
2075000000	0	0	-70.5581843411854	60.5562256312333	0	0	0	0	
2100000000	0	0	-65.4140001522859	147.307986008755	0	0	0	0	
2125000000	0	0	-72.877730529026	-23.0974581405735	0	0	0	0	
2150000000	0	0	-76.7504928051982	-16.5267964732941	0	0	0	0	
2175000000	0	0	-95.1801963496061	-176.512138337364	0	0	0	0	
2200000000	0	0	-69.6778893317136	129.432887064138	0	0	0	0	
2225000000	0	0	-70.8745178953087	-23.4725223363458	0	0	0	0	
2250000000	0	0	-63.0901802108922	71.2815866615218	0	0	0	0	
2275000000	0	0	-71.3553166208252	-62.1345469262251	0	0	0	0	
2300000000	0	0	-71.5204557468125	-138.144647119897	0	0	0	0	
2325000000	0	0	-70.2455083224502	6.85757292834104	0	0	0	0	
2350000000	0	0	-64.695676539035	-56.6415775359698	0	0	0	0	
2375000000	0	0	-67.8033194506014	-9.22093429625337	0	0	0	0	
2400000000	0	0	-73.9464683720804	-127.743072817718	0	0	0	0	
2425000000	0	0	-74.6829216554932	118.085777841808	0	0	0	0	
2450000000	0	0	-64.5724750694238	-49.6339167532609	0	0	0	0	
2475000000	0	0	-67.6751613019396	-130.232034921761	0	0	0	0	
2500000000	0	0	-67.9106929059304	-143.111031464444	0	0	0	0	
2525000000	0	0	-66.2475447742292	-77.076694563211	0	0	0	0	
2550000000	0	0	-70.8118570195202	162.48965136033	0	0	0	0	
2575000000	0	0	-79.174861773528	83.1824968867531	0	0	0	0	
2600000000	0	0	-75.2134397270128	165.020813338195	0	0	0	0	
2625000000	0	0	-77.5586690247599	-57.4326599706968	0	0	0	0	
2650000000	0	0	-68.0695734927148	19.9161909676085	0	0	0	0	
2675000000	0	0	-73.6037944347569	29.1793599650904	0	0	0	0	
2700000000	0	0	-66.5879295652432	107.719631747008	0	0	0	0	
2725000000	0	0	-66.5499136019358	39.8128331537322	0	0	0	0	
2750000000	0	0	-71.1993848037164	-31.4495067452344	0	0	0	0	
2775000000	0	0	-66.8899745728079	-0.850931072814707	0	0	0	0	
2800000000	0	0	-68.117256859703	125.46630147893	0	0	0	0	
2825000000	0	0	-64.1177624966682	72.5383287357756	0	0	0	0	
2850000000	0	0	-73.2299464828432	37.3010804264542	0	0	0	0	
2875000000	0	0	-74.6876837111556	66.1157749458182	0	0	0	0	
2900000000	0	0	-69.5805811234079	-17.5122848510114	0	0	0	0	
2925000000	0	0	-72.8903090182442	-50.5531282159326	0	0	0	0	
2950000000	0	0	-69.2585190148694	-17.3379719403092	0	0	0	0	
2975000000	0	0	-69.2139744831699	104.399831424333	0	0	0	0	
3000000000	0	0	-72.1541932985478	-30.1334109961882	0	0	0	0	
3025000000	0	0	-65.4815066215147	-98.4287779117066	0	0	0	0	
3050000000	0	0	-69.6539140451663	137.049596858099	0	0	0	0	
3075000000	0	0	-62.510228748042	173.431619572124	0	0	0	0	
3100000000	0	0	-63.9488147095728	-162.895935820574	0	0	0	0	
3125000000	0	0	-69.2386457959357	-178.958638647926	0	0	0	0	
3150000000	0	0	-70.1740070558486	-67.7779208643104	0	0	0	0	
3175000000	0	0	-63.8830265431166	163.963665132648	0	0	0	0	
3200000000	0	0	-65.4000273882057	119.879111662258	0	0	0	0	
3225000000	0	0	-66.2364432870823	110.801683955161	0	0	0	0	
3250000000	0	0	-62.3188067312398	112.814071080436	0	0	0	0	
3275000000	0	0	-74.5767130257078	174.818489624586	0	0	0	0	
3300000000	0	0	-67.4512184088875	67.935641094472	0	0	0	0	
3325000000	0	0	-65.7309033883759	55.2910450737398	0	0	0	0	
3350000000	0	0	-71.3463660746028	38.2612946622516	0	0	0	0	
3375000000	0	0	-63.502807425061	33.3770870652445	0	0	0	0	
3400000000	0	0	-65.2166129119612	2.25424799229237	0	0	0	0	
3425000000	0	0	-64.5733525777438	-20.5331154045412	0	0	0	0	
3450000000	0	0	-67.3512415972728	-6.8191713573235	0	0	0	0	
3475000000	0	0	-65.1603039548901	-69.3490204120513	0	0	0	0	
3500000000	0	0	-79.3293804481151	164.013030221255	0	0	0	0	
3525000000	0	0	-62.702408008017	-101.978169297408	0	0	0	0	
3550000000	0	0	-62.6536682949796	-55.3544581179843	0	0	0	0	
3575000000	0	0	-80.2496856760098	-79.4521140605411	0	0	0	0	
3600000000	0	0	-65.2440828311651	-158.448452476361	0	0	0	0	
3625000000	0	0	-63.1536245301084	-119.905781516549	0	0	0	0	
3650000000	0	0	-61.7960958855559	-136.477243042759	0	0	0	0	
3675000000	0	0	-62.2405861724779	175.26979805446	0	0	0	0	
3700000000	0	0	-60.0820375352054	173.731446668752	0	0	0	0	
3725000000	0	0	-61.0982081092878	124.224571849672	0	0	0	0	
3750000000	0	0	-66.4322094925719	163.834734417288	0	0	0	0	
3775000000	0	0	-64.1207787795723	120.490745331037	0	0	0	0	
3800000000	0	0	-61.1689930603128	99.5905667387892	0	0	0	0	
3825000000	0	0	-63.0263633683408	114.016487704509	0	0	0	0	
3850000000	0	0	-65.316895157302	51.6671729896321	0	0	0	0	
3875000000	0	0	-63.8475621553637	86.6529178930222	0	0	0	0	
3900000000	0	0	-59.6042044486047	67.0827540804298	0	0	0	0	
3925000000	0	0	-62.3698874964426	25.7786858589092	0	0	0	0	
3950000000	0	0	-62.8653816458662	29.2502636537328	0	0	0	0	
3975000000	0	0	-62.0253306127055	14.1336675645266	0	0	0	0	
4000000000	0	0	-64.7520819249038	-22.7034450979274	0	0	0	0	
4025000000	0	0	-59.6850788301094	-7.19860907460691	0	0	0	0	
4050000000	0	0	-58.0461316387836	-49.9341356503081	0	0	0	0	
4075000000	0	0	-62.5314126162695	-31.0371356118344	0	0	0	0	
4100000000	0	0	-60.7614625196399	-100.446789944487	0	0	0	0	
4125000000	0	0	-56.3477724177125	-72.2524709863829	0	0	0	0	
4150000000	0	0	-59.8631377584088	-92.6617272125985	0	0	0	0	
4175000000	0	0	-61.0124335911834	-131.646078042569	0	0	0	0	
4200000000	0	0	-61.2867827080634	-137.483228772147	0	0	0	0	
4225000000	0	0	-59.5705017288621	-137.672628041784	0	0	0	0	
4250000000	0	0	-59.1777324071908	-168.288814766364	0	0	0	0	
4275000000	0	0	-65.7032326739323	169.71383838455	0	0	0	0	
4300000000	0	0	-57.8192493121176	152.905738285585	0	0	0	0	
4325000000	0	0	-55.0100769385409	141.260873839835	0	0	0	0	
4350000000	0	0	-59.7441774539068	99.2083421347428	0	0	0	0	
4375000000	0	0	-57.1524831041892	105.239651701796	0	0	0	0	
4400000000	0	0	-57.2127155039829	82.4175621158946	0	0	0	0	
4425000000	0	0	-58.3689554644159	89.5041859046043	0	0	0	0	
4450000000	0	0	-53.409797978578	56.06044301664	0	0	0	0	
4475000000	0	0	-53.1020341511325	21.9002904000837	0	0	0	0	
4500000000	0	0	-54.6147464628941	-15.8886651037433	0	0	0	0	
4525000000	0	0	-57.6754199578534	-4.82691185667997	0	0	0	0	
4550000000	0	0	-54.7686038850533	-31.4134869118792	0	0	0	0	
4575000000	0	0	-55.2642703536531	-63.9334450079953	0	0	0	0	
4600000000	0	0	-54.2138536615847	-79.9635445687789	0	0	0	0	
4625000000	0	0	-51.0534384842629	-92.6926696513914	0	0	0	0	
4650000000	0	0	-50.59848170341	-127.189093660819	0	0	0	0	
4675000000	0	0	-53.1889598026327	-140.095368434895	0	0	0	0	
4700000000	0	0	-49.2214624451154	-147.483771890602	0	0	0	0	
4725000000	0	0	-49.8990338537938	-163.564169264882	0	0	0	0	
4750000000	0	0	-49.724824507112	155.618574321574	0	0	0	0	
4775000000	0	0	-47.965488797202	147.361666410506	0	0	0	0	
4800000000	0	0	-48.3174533649917	134.201494560772	0	0	0	0	
4825000000	0	0	-47.036974380231	112.757461362132	0	0	0	0	
4850000000	0	0	-45.0281965930442	95.2487476496624	0	0	0	0	
4875000000	0	0	-44.1033632436753	68.4277960921338	0	0	0	0	
4900000000	0	0	-44.0859166070422	46.3605029937947	0	0	0	0	
4925000000	0	0	-42.8748687086093	27.0230631255681	0	0	0	0	
4950000000	0	0	-40.122491741388	9.87968802361171	0	0	0	0	
4975000000	0	0	-40.8531834567693	-17.4637533553821	0	0	0	0	
5000000000	0	0	-39.7968966977589	-47.4853302766254	0	0	0	0	
5025000000	0	0	-39.6049287771321	-63.7702876149158	0	0	0	0	
5050000000	0	0	-39.2495596848126	-78.1860773706591	0	0	0	0	
5075000000	0	0	-37.0378380458202	-100.59882108969	0	0	0	0	
5100000000	0	0	-35.928428363466	-126.50839897568	0	0	0	0	
5125000000	0	0	-35.4272225264053	-148.963272143021	0	0	0	0	
5150000000	0	0	-34.9468030758319	-174.096893103865	0	0	0	0	
5175000000	0	0	-34.4489031191084	159.514111633902	0	0	0	0	
5200000000	0	0	-33.8770605745482	137.046899013164	0	0	0	0	
5225000000	0	0	-33.209319455999	111.318813489577	0	0	0	0	
5250000000	0	0	-33.25275724477	84.3084968163194	0	0	0	0	
5275000000	0	0	-33.4891003591104	60.0617774329205	0	0	0	0	
5300000000	0	0	-33.4457980388105	35.1056692680219	0	0	0	0	
5325000000	0	0	-33.8947523803079	13.0326762454269	0	0	0	0	
5350000000	0	0	-34.8494197893642	-12.49994634559	0	0	0	0	
5375000000	0	0	-35.1165468577842	-32.1576812649788	0	0	0	0	
5400000000	0	0	-34.7487551056813	-50.7529950912253	0	0	0	0	
5425000000	0	0	-35.0959002298915	-77.9442122631225	0	0	0	0	
5450000000	0	0	-36.3251676470872	-102.349355755508	0	0	0	0	
5475000000	0	0	-37.4074002579744	-113.382482606964	0	0	0	0	
5500000000	0	0	-37.0548165407574	-135.812865889366	0	0	0	0	
5525000000	0	0	-37.8223005199353	-156.066607901158	0	0	0	0	
5550000000	0	0	-38.0878568627789	-175.217666085494	0	0	0	0	
5575000000	0	0	-38.7665210892767	169.115146838218	0	0	0	0	
5600000000	0	0	-38.7857879939326	147.512833519924	0	0	0	0	
5625000000	0	0	-39.5961382035634	131.178365344293	0	0	0	0	
5650000000	0	0	-37.812910811749	112.34699187479	0	0	0	0	
5675000000	0	0	-40.5848685749868	84.3645092159168	0	0	0	0	
5700000000	0	0	-40.4951808836745	66.1124520399908	0	0	0	0	
5725000000	0	0	-41.4668708711014	50.2596707326422	0	0	0	0	
5750000000	0	0	-42.5467279821541	34.8434968162583	0	0	0	0	
5775000000	0	0	-42.7212472929424	21.9510251906214	0	0	0	0	
5800000000	0	0	-42.9202324196375	0.800229394942109	0	0	0	0	
5825000000	0	0	-43.7053486080509	-10.7362654860311	0	0	0	0	
5850000000	0	0	-43.3345756509585	-33.3701227166656	0	0	0	0	
5875000000	0	0	-45.7286894348563	-48.6394461482559	0	0	0	0	
5900000000	0	0	-43.6541805545741	-55.9294623382134	0	0	0	0	
5925000000	0	0	-44.34780835511	-77.9044186895862	0	0	0	0	
5950000000	0	0	-45.8237175987976	-104.014112810733	0	0	0	0	
5975000000	0	0	-47.1262868003114	-108.202569498205	0	0	0	0	
6000000000	0	0	-46.8523114870315	-116.985964538421	0	0	0	0	
