!Keysight Technologies N9926A: A.08.19
!Date: Sunday, 01 March 2026 13:48:12
!Timezone: (GMT-06:00) Central Time (US & Canada)
!Model: N9926A
!Serial: MY53102721
!GPS Latitude: 
!GPS Longitude: 
!GPS TimeStamp: 0001-01-01 00:00:00Z
!GPS Seconds Since Last Read: 0
!CHECKSUM:0248733787
!Correction: S11()S21(ON U)S12()S22()
!S2P File: Measurements:S11,S21,S12,S22:
# Hz S DB R 50
1000000000	0	0	-74.2815722826427	-117.008995300536	0	0	0	0	
1025000000	0	0	-68.3728285891032	63.4373838699734	0	0	0	0	
1050000000	0	0	-73.3325015069356	-166.046349196697	0	0	0	0	
1075000000	0	0	-68.3796522859935	-126.428216304492	0	0	0	0	
1100000000	0	0	-69.3542687826663	97.1883969001797	0	0	0	0	
1125000000	0	0	-65.7815519699101	-70.6210826815503	0	0	0	0	
1150000000	0	0	-63.6480208217174	-22.8958698206803	0	0	0	0	
1175000000	0	0	-63.6647854581229	13.7410931049529	0	0	0	0	
1200000000	0	0	-57.3897783851833	61.1499809889475	0	0	0	0	
1225000000	0	0	-60.9563910138835	13.5559007208514	0	0	0	0	
1250000000	0	0	-57.7888434909213	-11.1296760682282	0	0	0	0	
1275000000	0	0	-57.9397402057548	150.141415007059	0	0	0	0	
1300000000	0	0	-59.308001481149	37.1006094365029	0	0	0	0	
1325000000	0	0	-60.5937095321031	11.8575060721285	0	0	0	0	
1350000000	0	0	-57.9742325433827	174.627676380812	0	0	0	0	
1375000000	0	0	-57.7901408648091	47.0941392486935	0	0	0	0	
1400000000	0	0	-54.7004976423083	111.664351749764	0	0	0	0	
1425000000	0	0	-52.001649728697	-117.77361365124	0	0	0	0	
1450000000	0	0	-53.1964360358864	144.165748801241	0	0	0	0	
1475000000	0	0	-46.6014957591658	-101.713830221682	0	0	0	0	
1500000000	0	0	-55.7188036487124	142.204285570342	0	0	0	0	
1525000000	0	0	-70.2645471415426	77.4963368491009	0	0	0	0	
1550000000	0	0	-60.1285795641103	88.9470083352499	0	0	0	0	
1575000000	0	0	-65.0934366650942	-108.123660667996	0	0	0	0	
1600000000	0	0	-61.9164802960894	-162.963375739111	0	0	0	0	
1625000000	0	0	-68.4912071133015	-45.5408374075268	0	0	0	0	
1650000000	0	0	-61.9312586499926	129.846250447393	0	0	0	0	
1675000000	0	0	-60.5950663807145	124.983827090995	0	0	0	0	
1700000000	0	0	-87.0489012665916	133.815339834579	0	0	0	0	
1725000000	0	0	-63.6824978227633	-109.785485875734	0	0	0	0	
1750000000	0	0	-56.3076744449336	-87.6457411815678	0	0	0	0	
1775000000	0	0	-67.8791038704382	54.2521224910219	0	0	0	0	
1800000000	0	0	-57.7543076299142	142.291378359893	0	0	0	0	
1825000000	0	0	-62.978741506579	69.8883700957247	0	0	0	0	
1850000000	0	0	-78.6374763920077	-62.1310363112064	0	0	0	0	
1875000000	0	0	-64.6878738848406	-83.4611088220047	0	0	0	0	
1900000000	0	0	-61.8268727058801	-173.050661663948	0	0	0	0	
1925000000	0	0	-67.0074878656699	99.9308472001165	0	0	0	0	
1950000000	0	0	-63.8361650756035	-97.7177581176776	0	0	0	0	
1975000000	0	0	-68.6521904251048	59.2902652692709	0	0	0	0	
2000000000	0	0	-72.2054165756967	69.1321191994794	0	0	0	0	
2025000000	0	0	-66.78625877625	-140.236994069939	0	0	0	0	
2050000000	0	0	-65.8281184226296	-34.7083457706305	0	0	0	0	
2075000000	0	0	-63.4337137645405	-107.128208745894	0	0	0	0	
2100000000	0	0	-70.8776705623092	-111.018555075932	0	0	0	0	
2125000000	0	0	-75.6163556377272	-36.5177498230624	0	0	0	0	
2150000000	0	0	-66.0719131874289	-62.9455415798823	0	0	0	0	
2175000000	0	0	-67.1372354282046	-107.886546848606	0	0	0	0	
2200000000	0	0	-62.9213521979262	-59.3176945231126	0	0	0	0	
2225000000	0	0	-80.3964479463209	127.665451648803	0	0	0	0	
2250000000	0	0	-65.3359297623184	109.221172921049	0	0	0	0	
2275000000	0	0	-90.1043344003423	15.0284151739155	0	0	0	0	
2300000000	0	0	-75.3956499695447	-143.339159364858	0	0	0	0	
2325000000	0	0	-77.564963920272	-126.086202709978	0	0	0	0	
2350000000	0	0	-69.5697915126807	30.9724045220144	0	0	0	0	
2375000000	0	0	-70.7443441501077	136.793938333007	0	0	0	0	
2400000000	0	0	-63.3631535672211	107.720597723656	0	0	0	0	
2425000000	0	0	-64.9755746570259	151.310917034828	0	0	0	0	
2450000000	0	0	-72.5892654713065	35.68473861791	0	0	0	0	
2475000000	0	0	-73.1592072788186	-107.433743729101	0	0	0	0	
2500000000	0	0	-69.3480357937331	-101.550081185911	0	0	0	0	
2525000000	0	0	-67.7167126315031	-152.751570171783	0	0	0	0	
2550000000	0	0	-77.2706368356853	-164.802250438537	0	0	0	0	
2575000000	0	0	-76.7427558020096	30.879583030547	0	0	0	0	
2600000000	0	0	-70.4402495292582	-54.5951475686864	0	0	0	0	
2625000000	0	0	-71.6991253714433	-110.09484642599	0	0	0	0	
2650000000	0	0	-68.2978556595701	-9.16374077886608	0	0	0	0	
2675000000	0	0	-66.5030616773816	-128.375453930966	0	0	0	0	
2700000000	0	0	-80.0043695331193	69.7611413764154	0	0	0	0	
2725000000	0	0	-69.9280117167716	-117.595113117984	0	0	0	0	
2750000000	0	0	-66.8139649255808	-179.630513211044	0	0	0	0	
2775000000	0	0	-68.693400621438	-158.148991658499	0	0	0	0	
2800000000	0	0	-84.0711786988997	-104.32791482448	0	0	0	0	
2825000000	0	0	-71.5895952739251	9.50928108565124	0	0	0	0	
2850000000	0	0	-86.233304811859	56.112715734788	0	0	0	0	
2875000000	0	0	-73.0712253208831	-133.923521926649	0	0	0	0	
2900000000	0	0	-72.5840474347469	-97.645573024222	0	0	0	0	
2925000000	0	0	-64.579762690929	-128.285662427807	0	0	0	0	
2950000000	0	0	-65.0679601978148	105.183000055369	0	0	0	0	
2975000000	0	0	-72.4609211888326	140.760300817588	0	0	0	0	
3000000000	0	0	-85.007483061328	-72.1550207066537	0	0	0	0	
3025000000	0	0	-68.3698751190692	56.1311340258295	0	0	0	0	
3050000000	0	0	-67.90123601858	110.106460936036	0	0	0	0	
3075000000	0	0	-66.9227372160173	-6.59211842457594	0	0	0	0	
3100000000	0	0	-68.8809274755114	25.2864075415368	0	0	0	0	
3125000000	0	0	-72.2928032861223	-37.0185863936697	0	0	0	0	
3150000000	0	0	-68.0346018865215	-89.8925696612227	0	0	0	0	
3175000000	0	0	-60.8063615642879	-42.7285950238029	0	0	0	0	
3200000000	0	0	-66.7773144697854	-41.8955784930551	0	0	0	0	
3225000000	0	0	-64.3923353498982	-78.1484321850883	0	0	0	0	
3250000000	0	0	-71.7930881921151	68.7877230902506	0	0	0	0	
3275000000	0	0	-77.2573157778595	14.2649384898411	0	0	0	0	
3300000000	0	0	-68.4516793880512	-97.4931918541447	0	0	0	0	
3325000000	0	0	-76.3019221878634	75.2542775509829	0	0	0	0	
3350000000	0	0	-71.6380631324707	-132.434434006623	0	0	0	0	
3375000000	0	0	-65.7673787262045	169.657039554531	0	0	0	0	
3400000000	0	0	-64.2518453327307	-172.748129468756	0	0	0	0	
3425000000	0	0	-68.2547135614604	120.140493354712	0	0	0	0	
3450000000	0	0	-63.9036604655157	162.390102169011	0	0	0	0	
3475000000	0	0	-59.7703753089097	90.0568899078428	0	0	0	0	
3500000000	0	0	-70.2851234437402	109.948559555847	0	0	0	0	
3525000000	0	0	-63.2908193222252	124.052408720688	0	0	0	0	
3550000000	0	0	-64.6251337739321	74.3533135322177	0	0	0	0	
3575000000	0	0	-62.6718186605101	67.6447259291517	0	0	0	0	
3600000000	0	0	-64.9489370474135	61.5342475041646	0	0	0	0	
3625000000	0	0	-63.5577884240073	19.0512577634872	0	0	0	0	
3650000000	0	0	-64.8485136161842	4.89359469467668	0	0	0	0	
3675000000	0	0	-62.4513977791693	6.39606420626282	0	0	0	0	
3700000000	0	0	-63.2983399509471	-18.9735633719476	0	0	0	0	
3725000000	0	0	-66.3618966416615	-43.8566147065491	0	0	0	0	
3750000000	0	0	-64.1403684251679	-57.9336778599879	0	0	0	0	
3775000000	0	0	-67.7990732765166	-79.0275634864458	0	0	0	0	
3800000000	0	0	-61.1843756053596	-91.8649726238709	0	0	0	0	
3825000000	0	0	-56.7732822288298	-122.875924119011	0	0	0	0	
3850000000	0	0	-60.322941928668	-87.6507429061665	0	0	0	0	
3875000000	0	0	-59.7862658395299	-153.969997737313	0	0	0	0	
3900000000	0	0	-64.3156113317009	-117.978090259647	0	0	0	0	
3925000000	0	0	-59.0654526051275	-172.810086634709	0	0	0	0	
3950000000	0	0	-56.8977096335624	162.323449908242	0	0	0	0	
3975000000	0	0	-59.318138457479	141.668425820008	0	0	0	0	
4000000000	0	0	-63.1133604847882	135.418433401962	0	0	0	0	
4025000000	0	0	-58.6760665025706	162.392438280187	0	0	0	0	
4050000000	0	0	-58.3029848167134	111.304058115049	0	0	0	0	
4075000000	0	0	-58.4042761975498	84.1254932891313	0	0	0	0	
4100000000	0	0	-55.6062187925512	67.7004019256482	0	0	0	0	
4125000000	0	0	-58.085797104599	65.5973505827836	0	0	0	0	
4150000000	0	0	-59.222949745782	60.2917519344653	0	0	0	0	
4175000000	0	0	-55.2019445481155	31.2440742117113	0	0	0	0	
4200000000	0	0	-53.5297189189756	-8.49313069486582	0	0	0	0	
4225000000	0	0	-57.5899077088135	6.07984629776206	0	0	0	0	
4250000000	0	0	-53.4227978186533	-25.9287156735056	0	0	0	0	
4275000000	0	0	-54.974608348018	-43.357383377334	0	0	0	0	
4300000000	0	0	-52.0088312267363	-55.7487400862832	0	0	0	0	
4325000000	0	0	-50.9948612241358	-68.1864633883359	0	0	0	0	
4350000000	0	0	-51.2769349999634	-99.4571395670644	0	0	0	0	
4375000000	0	0	-50.4987092607226	-112.148669279629	0	0	0	0	
4400000000	0	0	-51.2401280704887	-125.594964475374	0	0	0	0	
4425000000	0	0	-51.1145772882746	-134.37376606187	0	0	0	0	
4450000000	0	0	-48.2317208536551	-155.71546200527	0	0	0	0	
4475000000	0	0	-47.548885229389	-174.968452393199	0	0	0	0	
4500000000	0	0	-49.399140410202	163.736685341318	0	0	0	0	
4525000000	0	0	-47.9263197738206	150.528669661056	0	0	0	0	
4550000000	0	0	-45.6116368350895	140.84001449815	0	0	0	0	
4575000000	0	0	-46.5143531136325	114.545696188085	0	0	0	0	
4600000000	0	0	-46.0326261950118	97.3972969667279	0	0	0	0	
4625000000	0	0	-45.3601147870695	86.1678167236515	0	0	0	0	
4650000000	0	0	-44.3888075434041	63.0943454563109	0	0	0	0	
4675000000	0	0	-45.0258269316305	40.1510431817894	0	0	0	0	
4700000000	0	0	-43.8380277704089	28.8197887315123	0	0	0	0	
4725000000	0	0	-43.0674179596262	16.9895075813512	0	0	0	0	
4750000000	0	0	-42.8764354020758	-11.191779631633	0	0	0	0	
4775000000	0	0	-41.8586967400834	-26.3469067691102	0	0	0	0	
4800000000	0	0	-42.4850779397768	-37.6827986739113	0	0	0	0	
4825000000	0	0	-40.5053246732009	-58.7820278282033	0	0	0	0	
4850000000	0	0	-39.11987957218	-77.1455487577933	0	0	0	0	
4875000000	0	0	-38.4209151998767	-101.800144864809	0	0	0	0	
4900000000	0	0	-38.2083994785792	-118.434613241525	0	0	0	0	
4925000000	0	0	-37.7591940961866	-138.89592880812	0	0	0	0	
4950000000	0	0	-35.0308191255556	-156.918762664928	0	0	0	0	
4975000000	0	0	-35.9420336785371	177.000813961783	0	0	0	0	
5000000000	0	0	-35.1433417331581	148.527044140148	0	0	0	0	
5025000000	0	0	-34.9201430012949	131.462621145198	0	0	0	0	
5050000000	0	0	-34.2871977544302	119.23124641484	0	0	0	0	
5075000000	0	0	-32.8547857511077	93.1996791719279	0	0	0	0	
5100000000	0	0	-31.6466357360165	67.5073950399374	0	0	0	0	
5125000000	0	0	-31.8470631263487	46.1473288986074	0	0	0	0	
5150000000	0	0	-31.1599670649041	20.3775139702272	0	0	0	0	
5175000000	0	0	-30.9173897551632	-6.43107226750074	0	0	0	0	
5200000000	0	0	-30.5644573191421	-29.2038123123588	0	0	0	0	
5225000000	0	0	-30.4780773709953	-56.0573472285891	0	0	0	0	
5250000000	0	0	-30.6101780019502	-82.2170040364944	0	0	0	0	
5275000000	0	0	-31.0121630292271	-107.270303415841	0	0	0	0	
5300000000	0	0	-31.2427274494752	-131.811462588288	0	0	0	0	
5325000000	0	0	-31.7429592333076	-155.364452262169	0	0	0	0	
5350000000	0	0	-32.7591176165636	-177.45943730598	0	0	0	0	
5375000000	0	0	-32.9965248352183	160.897382279169	0	0	0	0	
5400000000	0	0	-33.0674293373879	141.997956498055	0	0	0	0	
5425000000	0	0	-33.0717065370344	113.97399406046	0	0	0	0	
5450000000	0	0	-34.5920991870486	87.8965947976412	0	0	0	0	
5475000000	0	0	-35.5209660293561	74.0573959674373	0	0	0	0	
5500000000	0	0	-35.6273184003128	52.5247304731021	0	0	0	0	
5525000000	0	0	-36.498774490365	34.2985369647425	0	0	0	0	
5550000000	0	0	-36.8364604983276	11.3348208931616	0	0	0	0	
5575000000	0	0	-37.570934571624	-8.35118238115602	0	0	0	0	
5600000000	0	0	-38.1192008741907	-22.9738409448183	0	0	0	0	
5625000000	0	0	-38.2476154295164	-46.3445739226485	0	0	0	0	
5650000000	0	0	-37.821442214548	-63.9115260047719	0	0	0	0	
5675000000	0	0	-39.7426232744733	-90.1790789039889	0	0	0	0	
5700000000	0	0	-39.5230192090577	-110.336934085342	0	0	0	0	
5725000000	0	0	-40.728060174205	-121.882245894347	0	0	0	0	
5750000000	0	0	-41.4015876784421	-145.167571538937	0	0	0	0	
5775000000	0	0	-42.1941172348118	-157.572108422827	0	0	0	0	
5800000000	0	0	-42.8277571627073	179.853196526924	0	0	0	0	
5825000000	0	0	-42.8445188177052	164.31351732906	0	0	0	0	
5850000000	0	0	-43.0559107077607	140.401408477694	0	0	0	0	
5875000000	0	0	-46.4461235695634	129.003435811586	0	0	0	0	
5900000000	0	0	-44.8801983704188	115.361300785825	0	0	0	0	
5925000000	0	0	-45.0035957059543	94.2109143932388	0	0	0	0	
5950000000	0	0	-46.612494060645	71.1189374370401	0	0	0	0	
5975000000	0	0	-48.9625552932047	68.8568933268283	0	0	0	0	
6000000000	0	0	-46.0491548147539	56.3622060485003	0	0	0	0	
