!Keysight Technologies N9926A: A.08.19
!Date: Sunday, 01 March 2026 13:33:32
!Timezone: (GMT-06:00) Central Time (US & Canada)
!Model: N9926A
!Serial: MY53102721
!GPS Latitude: 
!GPS Longitude: 
!GPS TimeStamp: 0001-01-01 00:00:00Z
!GPS Seconds Since Last Read: 0
!CHECKSUM:1704124798
!Correction: S11()S21(ON U)S12()S22()
!S2P File: Measurements:S11,S21,S12,S22:
# Hz S DB R 50
1000000000	0	0	-73.579863335102	37.842688030597	0	0	0	0	
1025000000	0	0	-68.3956764211686	-27.3069979627624	0	0	0	0	
1050000000	0	0	-64.8549898734267	-98.2416782098233	0	0	0	0	
1075000000	0	0	-62.3570061850214	-31.5430612016479	0	0	0	0	
1100000000	0	0	-68.8518508963376	-69.4478370054605	0	0	0	0	
1125000000	0	0	-62.670713128928	-14.1307779687716	0	0	0	0	
1150000000	0	0	-59.1027299867222	35.7244228760612	0	0	0	0	
1175000000	0	0	-78.5033218992245	108.148918788473	0	0	0	0	
1200000000	0	0	-59.8811946066208	127.148031765138	0	0	0	0	
1225000000	0	0	-67.5385753391861	136.442128997818	0	0	0	0	
1250000000	0	0	-58.5515762887423	55.4686702398524	0	0	0	0	
1275000000	0	0	-60.0652654217413	-16.415450834499	0	0	0	0	
1300000000	0	0	-58.8311773703045	-59.7702399355443	0	0	0	0	
1325000000	0	0	-53.2528499261008	-172.783817416581	0	0	0	0	
1350000000	0	0	-55.0324959276539	115.387787542982	0	0	0	0	
1375000000	0	0	-55.7042788993803	132.705625963825	0	0	0	0	
1400000000	0	0	-56.6199842650384	63.5729012254984	0	0	0	0	
1425000000	0	0	-56.3608118205688	-38.1863073370161	0	0	0	0	
1450000000	0	0	-52.0282180085258	-40.5866897594663	0	0	0	0	
1475000000	0	0	-48.3890634218915	111.258108570954	0	0	0	0	
1500000000	0	0	-50.1361456208966	100.303709718568	0	0	0	0	
1525000000	0	0	-59.5118509162555	-91.2476027023646	0	0	0	0	
1550000000	0	0	-54.0662683649594	105.48940309832	0	0	0	0	
1575000000	0	0	-52.5383183206906	139.507593839889	0	0	0	0	
1600000000	0	0	-65.0860656827778	33.5476706981107	0	0	0	0	
1625000000	0	0	-56.9310646559252	-55.3198662795954	0	0	0	0	
1650000000	0	0	-57.6888185522312	-119.638834409809	0	0	0	0	
1675000000	0	0	-63.4480470068861	-109.696938633423	0	0	0	0	
1700000000	0	0	-62.4009615621642	-63.2913012318967	0	0	0	0	
1725000000	0	0	-61.9119771671185	100.203223079279	0	0	0	0	
1750000000	0	0	-60.7832799413433	143.807239448546	0	0	0	0	
1775000000	0	0	-64.2673196465658	-34.7777415840682	0	0	0	0	
1800000000	0	0	-55.7310635309583	-36.5617954725873	0	0	0	0	
1825000000	0	0	-58.4349046520656	-45.0315996714967	0	0	0	0	
1850000000	0	0	-63.5306202588444	-55.370218341313	0	0	0	0	
1875000000	0	0	-59.5649872880808	-49.4953110884006	0	0	0	0	
1900000000	0	0	-66.272630471009	71.1231885437836	0	0	0	0	
1925000000	0	0	-65.4392039634423	-97.3974362275992	0	0	0	0	
1950000000	0	0	-72.1695963579841	63.4197853984854	0	0	0	0	
1975000000	0	0	-72.9557664156609	8.67572973344312	0	0	0	0	
2000000000	0	0	-61.0712764363208	70.4682885328784	0	0	0	0	
2025000000	0	0	-64.0019895810725	-79.7144371943922	0	0	0	0	
2050000000	0	0	-72.1830204430436	49.9727688140934	0	0	0	0	
2075000000	0	0	-75.5749572017591	-93.8218473597979	0	0	0	0	
2100000000	0	0	-67.0331912640468	-86.8846209081396	0	0	0	0	
2125000000	0	0	-61.8246892524439	-87.8773823642603	0	0	0	0	
2150000000	0	0	-68.2422610921032	-14.6493707127788	0	0	0	0	
2175000000	0	0	-69.2092144763883	-14.436211511811	0	0	0	0	
2200000000	0	0	-63.9889881157337	158.358075296934	0	0	0	0	
2225000000	0	0	-78.0266312697016	63.1552855056613	0	0	0	0	
2250000000	0	0	-73.7999467630791	-149.089870574316	0	0	0	0	
2275000000	0	0	-65.0316221431912	-51.4353599159476	0	0	0	0	
2300000000	0	0	-60.7644510992262	-142.067147916214	0	0	0	0	
2325000000	0	0	-67.7345752827437	-138.926281174792	0	0	0	0	
2350000000	0	0	-70.198373694813	-54.4777281325099	0	0	0	0	
2375000000	0	0	-71.2519668582924	103.038323229203	0	0	0	0	
2400000000	0	0	-70.8691860866333	95.9851607794769	0	0	0	0	
2425000000	0	0	-64.735400900768	-34.2147189467272	0	0	0	0	
2450000000	0	0	-67.3103075290871	-61.0766285317004	0	0	0	0	
2475000000	0	0	-69.3099868767041	39.0087395747473	0	0	0	0	
2500000000	0	0	-65.8037892081562	111.3436128541	0	0	0	0	
2525000000	0	0	-72.2162636169313	95.4005855208686	0	0	0	0	
2550000000	0	0	-71.971759122449	158.74700011326	0	0	0	0	
2575000000	0	0	-75.5838931647589	-127.561418587112	0	0	0	0	
2600000000	0	0	-72.1749645261793	-9.07052355164862	0	0	0	0	
2625000000	0	0	-68.471222791589	152.077261132993	0	0	0	0	
2650000000	0	0	-71.745103244551	162.620265477536	0	0	0	0	
2675000000	0	0	-70.8435144490469	-179.896281869374	0	0	0	0	
2700000000	0	0	-77.1681562723354	-140.997217958018	0	0	0	0	
2725000000	0	0	-70.6391314742143	-28.4412161355203	0	0	0	0	
2750000000	0	0	-85.3319701845621	-135.501052890401	0	0	0	0	
2775000000	0	0	-73.4937109158082	-110.225464479115	0	0	0	0	
2800000000	0	0	-70.5301151088338	124.958006181331	0	0	0	0	
2825000000	0	0	-70.2440465262975	-9.17377877980006	0	0	0	0	
2850000000	0	0	-66.8316402018723	-91.7949857848277	0	0	0	0	
2875000000	0	0	-63.5477895247615	-42.5898686550309	0	0	0	0	
2900000000	0	0	-72.2010361003457	-59.991181134024	0	0	0	0	
2925000000	0	0	-67.9528049427227	-19.7104248796507	0	0	0	0	
2950000000	0	0	-65.9885795766331	-90.2913735600541	0	0	0	0	
2975000000	0	0	-70.9850574743364	-10.7078169964012	0	0	0	0	
3000000000	0	0	-75.6882032066178	110.052190352889	0	0	0	0	
3025000000	0	0	-70.9050415337672	81.7746883375914	0	0	0	0	
3050000000	0	0	-69.8118021635102	-154.791280564066	0	0	0	0	
3075000000	0	0	-72.7916591487318	-98.087898955881	0	0	0	0	
3100000000	0	0	-67.8700990283224	-150.159590237992	0	0	0	0	
3125000000	0	0	-67.312169241241	169.767195884578	0	0	0	0	
3150000000	0	0	-71.9860507964339	106.394361897056	0	0	0	0	
3175000000	0	0	-70.7430140126692	89.6903472422045	0	0	0	0	
3200000000	0	0	-71.6047260826401	60.5970417252721	0	0	0	0	
3225000000	0	0	-83.1758798385964	7.18641616580771	0	0	0	0	
3250000000	0	0	-68.889555214089	-15.5652292950217	0	0	0	0	
3275000000	0	0	-61.8557022003354	-46.8836721408284	0	0	0	0	
3300000000	0	0	-69.4575593449099	1.17171054441081	0	0	0	0	
3325000000	0	0	-69.4635410839522	-75.8833413307717	0	0	0	0	
3350000000	0	0	-78.0313386492152	-16.309130884519	0	0	0	0	
3375000000	0	0	-70.327098172389	-134.241497412746	0	0	0	0	
3400000000	0	0	-64.4731031727749	-116.521635805513	0	0	0	0	
3425000000	0	0	-76.2170599819612	-112.390178067984	0	0	0	0	
3450000000	0	0	-74.2289326373623	-146.078341291765	0	0	0	0	
3475000000	0	0	-70.7601259966164	-15.1401354350404	0	0	0	0	
3500000000	0	0	-68.5507343064381	-127.952617994018	0	0	0	0	
3525000000	0	0	-64.5358588942901	171.413307263108	0	0	0	0	
3550000000	0	0	-69.3953449185684	104.224866373189	0	0	0	0	
3575000000	0	0	-75.0633242954318	16.1360447001154	0	0	0	0	
3600000000	0	0	-71.4421984682651	-168.01007311511	0	0	0	0	
3625000000	0	0	-68.2864925570651	38.5684947358689	0	0	0	0	
3650000000	0	0	-69.13475126431	69.8062112446934	0	0	0	0	
3675000000	0	0	-63.799802207797	51.8989324307024	0	0	0	0	
3700000000	0	0	-63.6257621396219	77.4845566446212	0	0	0	0	
3725000000	0	0	-71.1733007200059	100.034511730433	0	0	0	0	
3750000000	0	0	-68.3946216933079	-43.2493203377404	0	0	0	0	
3775000000	0	0	-67.1745156712282	-103.092599829766	0	0	0	0	
3800000000	0	0	-67.2742587675802	-58.755144114174	0	0	0	0	
3825000000	0	0	-64.8913211046753	-116.68725138328	0	0	0	0	
3850000000	0	0	-63.8939172414303	-119.884027646825	0	0	0	0	
3875000000	0	0	-64.2788894442863	-159.315317719648	0	0	0	0	
3900000000	0	0	-65.9581036424934	-155.672759639935	0	0	0	0	
3925000000	0	0	-68.1784754602148	144.793952079432	0	0	0	0	
3950000000	0	0	-62.026096748012	119.43217592855	0	0	0	0	
3975000000	0	0	-61.579513856211	100.703019444623	0	0	0	0	
4000000000	0	0	-67.4332723760131	91.8154246490088	0	0	0	0	
4025000000	0	0	-62.9867508446645	81.0484005460114	0	0	0	0	
4050000000	0	0	-61.2128989676436	35.3504101735099	0	0	0	0	
4075000000	0	0	-58.9811495993966	17.5140620189686	0	0	0	0	
4100000000	0	0	-61.8840567612988	-41.5793762891616	0	0	0	0	
4125000000	0	0	-57.4851443162707	-16.2929910505152	0	0	0	0	
4150000000	0	0	-63.1056844503846	-63.0020777464923	0	0	0	0	
4175000000	0	0	-61.9068618060972	-25.38685805017	0	0	0	0	
4200000000	0	0	-57.0795441995905	-91.7053615968947	0	0	0	0	
4225000000	0	0	-55.4754372971684	-109.595427757522	0	0	0	0	
4250000000	0	0	-56.3524664853065	-128.512369741339	0	0	0	0	
4275000000	0	0	-55.9231324515958	-155.837494502714	0	0	0	0	
4300000000	0	0	-52.9918960158403	-179.70887164056	0	0	0	0	
4325000000	0	0	-53.606629343217	167.313911037767	0	0	0	0	
4350000000	0	0	-56.6313621698956	126.105258963289	0	0	0	0	
4375000000	0	0	-55.6228455334349	96.7636813037142	0	0	0	0	
4400000000	0	0	-56.5257116033119	74.1842484685802	0	0	0	0	
4425000000	0	0	-56.4990597315086	64.4912057499521	0	0	0	0	
4450000000	0	0	-51.7847686629038	42.5740697601782	0	0	0	0	
4475000000	0	0	-50.6945919103769	18.6523087006406	0	0	0	0	
4500000000	0	0	-51.2132883828891	-1.10312646330995	0	0	0	0	
4525000000	0	0	-50.5085108835814	-27.4078227476191	0	0	0	0	
4550000000	0	0	-48.6002947418174	-46.4969566030938	0	0	0	0	
4575000000	0	0	-49.3955500379253	-79.2529575509783	0	0	0	0	
4600000000	0	0	-49.2624648047972	-101.415039415956	0	0	0	0	
4625000000	0	0	-48.4839495108793	-116.19612355359	0	0	0	0	
4650000000	0	0	-48.9417082838358	-132.120717060186	0	0	0	0	
4675000000	0	0	-48.9280510167296	-166.68547643531	0	0	0	0	
4700000000	0	0	-46.1867841439215	177.179754722336	0	0	0	0	
4725000000	0	0	-46.0882634692018	147.390756441242	0	0	0	0	
4750000000	0	0	-45.1075807963932	115.753129813997	0	0	0	0	
4775000000	0	0	-44.596542798268	90.7958619763314	0	0	0	0	
4800000000	0	0	-45.4167080577995	78.9109248581932	0	0	0	0	
4825000000	0	0	-43.531574920877	43.6570391233855	0	0	0	0	
4850000000	0	0	-42.5965698683181	23.6822631380993	0	0	0	0	
4875000000	0	0	-41.3709214461311	-5.51601242422277	0	0	0	0	
4900000000	0	0	-41.2801935590628	-31.4653498567593	0	0	0	0	
4925000000	0	0	-41.1903248949999	-53.8275285266424	0	0	0	0	
4950000000	0	0	-38.5749402073367	-78.0293398895887	0	0	0	0	
4975000000	0	0	-38.5395245264452	-110.519012149773	0	0	0	0	
5000000000	0	0	-38.1478701791214	-146.718087093346	0	0	0	0	
5025000000	0	0	-37.7476961459794	-170.025221344892	0	0	0	0	
5050000000	0	0	-37.741103971992	169.784000388911	0	0	0	0	
5075000000	0	0	-36.1829960436154	138.762225213402	0	0	0	0	
5100000000	0	0	-35.3520741694096	106.46257021532	0	0	0	0	
5125000000	0	0	-35.234115384708	79.9954543695684	0	0	0	0	
5150000000	0	0	-34.7358349547009	49.5733021897404	0	0	0	0	
5175000000	0	0	-34.4626884406183	16.6037067872947	0	0	0	0	
5200000000	0	0	-34.1036349205615	-12.0267590930303	0	0	0	0	
5225000000	0	0	-33.9594059109142	-42.1089377228627	0	0	0	0	
5250000000	0	0	-33.9759305527363	-73.849718615615	0	0	0	0	
5275000000	0	0	-33.9855141796654	-103.041153874089	0	0	0	0	
5300000000	0	0	-33.8438286772018	-137.226338058448	0	0	0	0	
5325000000	0	0	-34.3039603242304	-165.972719639824	0	0	0	0	
5350000000	0	0	-35.6303235587882	163.17209023694	0	0	0	0	
5375000000	0	0	-35.6485245393346	132.665963491483	0	0	0	0	
5400000000	0	0	-36.4377770521724	106.345196202162	0	0	0	0	
5425000000	0	0	-36.9042722688714	74.7387402027375	0	0	0	0	
5450000000	0	0	-38.1867658244781	45.9151936613776	0	0	0	0	
5475000000	0	0	-39.1594422159778	27.605962307165	0	0	0	0	
5500000000	0	0	-39.2116703278882	2.39254578919697	0	0	0	0	
5525000000	0	0	-40.0888052352788	-26.6495195997841	0	0	0	0	
5550000000	0	0	-40.4271942515622	-51.0438591812836	0	0	0	0	
5575000000	0	0	-41.0353440292721	-75.9009772470366	0	0	0	0	
5600000000	0	0	-41.2995476637966	-98.6819910869625	0	0	0	0	
5625000000	0	0	-41.9512118466809	-127.919348648435	0	0	0	0	
5650000000	0	0	-41.2696478124091	-151.414585480607	0	0	0	0	
5675000000	0	0	-43.4384287117711	177.255751683452	0	0	0	0	
5700000000	0	0	-43.6393483593984	153.04709982387	0	0	0	0	
5725000000	0	0	-45.5566039723784	136.409153406244	0	0	0	0	
5750000000	0	0	-45.1095575055394	113.865767113818	0	0	0	0	
5775000000	0	0	-44.9718462153175	87.7424741419293	0	0	0	0	
5800000000	0	0	-45.2514955119025	69.8649820387257	0	0	0	0	
5825000000	0	0	-44.8506725852532	42.3073146776912	0	0	0	0	
5850000000	0	0	-45.0468127849477	10.7763210261066	0	0	0	0	
5875000000	0	0	-46.8487122272277	-9.09723192459111	0	0	0	0	
5900000000	0	0	-45.4694610369943	-28.9175786761696	0	0	0	0	
5925000000	0	0	-46.5441518256766	-54.4886236159107	0	0	0	0	
5950000000	0	0	-48.3037829982405	-89.0624170547414	0	0	0	0	
5975000000	0	0	-51.5750572638612	-105.913163142159	0	0	0	0	
6000000000	0	0	-48.8883503136012	-118.440018977165	0	0	0	0	
