!Keysight Technologies N9926A: A.08.19
!Date: Sunday, 01 March 2026 13:34:31
!Timezone: (GMT-06:00) Central Time (US & Canada)
!Model: N9926A
!Serial: MY53102721
!GPS Latitude: 
!GPS Longitude: 
!GPS TimeStamp: 0001-01-01 00:00:00Z
!GPS Seconds Since Last Read: 0
!CHECKSUM:0115557165
!Correction: S11()S21(ON U)S12()S22()
!S2P File: Measurements:S11,S21,S12,S22:
# Hz S DB R 50
1000000000	0	0	-78.5063367598889	-66.7587998556467	0	0	0	0	
1025000000	0	0	-71.0445216420192	-76.1641274422485	0	0	0	0	
1050000000	0	0	-64.8140835545868	-28.0588077140133	0	0	0	0	
1075000000	0	0	-64.9300414295601	97.1510680577938	0	0	0	0	
1100000000	0	0	-62.7632249655271	-99.9851620940115	0	0	0	0	
1125000000	0	0	-63.2285269422574	-145.924984790708	0	0	0	0	
1150000000	0	0	-65.8588551990635	79.7015974384232	0	0	0	0	
1175000000	0	0	-63.2619675136026	-137.377185542283	0	0	0	0	
1200000000	0	0	-57.6560865745624	102.471918284625	0	0	0	0	
1225000000	0	0	-64.2644355858467	-27.7561706236569	0	0	0	0	
1250000000	0	0	-62.9994621063878	-157.585224862008	0	0	0	0	
1275000000	0	0	-56.8653178337949	-87.7590965196639	0	0	0	0	
1300000000	0	0	-69.4441566162822	104.856424402734	0	0	0	0	
1325000000	0	0	-66.6997404613895	170.621689914063	0	0	0	0	
1350000000	0	0	-55.3148193244973	61.9172685869873	0	0	0	0	
1375000000	0	0	-51.2275103459572	54.4080390178998	0	0	0	0	
1400000000	0	0	-52.693971681827	-126.321337446244	0	0	0	0	
1425000000	0	0	-52.7587437128872	58.3200824219851	0	0	0	0	
1450000000	0	0	-51.7261214028172	112.149186269083	0	0	0	0	
1475000000	0	0	-53.1373112392415	170.502306241746	0	0	0	0	
1500000000	0	0	-50.4467724643959	96.5193901031936	0	0	0	0	
1525000000	0	0	-59.5591637790184	-112.399062576668	0	0	0	0	
1550000000	0	0	-71.8910731470097	140.476288543745	0	0	0	0	
1575000000	0	0	-59.0586890439814	70.8885730778902	0	0	0	0	
1600000000	0	0	-53.7312073846546	43.2691055133135	0	0	0	0	
1625000000	0	0	-71.2869945627708	-148.532748718809	0	0	0	0	
1650000000	0	0	-65.3061720795803	85.6980176477177	0	0	0	0	
1675000000	0	0	-64.8461202485807	-152.92463585155	0	0	0	0	
1700000000	0	0	-55.2059930287718	54.1764419408663	0	0	0	0	
1725000000	0	0	-64.1433843555058	-39.5665045502797	0	0	0	0	
1750000000	0	0	-56.7616900294129	141.664378058994	0	0	0	0	
1775000000	0	0	-56.8991559782966	67.8378143743422	0	0	0	0	
1800000000	0	0	-64.9266165905174	-105.516677361744	0	0	0	0	
1825000000	0	0	-68.2178271918923	-126.145288269235	0	0	0	0	
1850000000	0	0	-69.5012440016345	-96.6350272386469	0	0	0	0	
1875000000	0	0	-71.4977951750555	66.0670500943712	0	0	0	0	
1900000000	0	0	-68.3264308789155	147.345552096231	0	0	0	0	
1925000000	0	0	-81.080808744554	-49.0097550920372	0	0	0	0	
1950000000	0	0	-70.2307140467233	179.284925295602	0	0	0	0	
1975000000	0	0	-73.399482859005	132.339157663027	0	0	0	0	
2000000000	0	0	-61.0041232004797	105.859469288818	0	0	0	0	
2025000000	0	0	-62.9957437014946	130.285623069736	0	0	0	0	
2050000000	0	0	-62.4478641079283	-167.797909050239	0	0	0	0	
2075000000	0	0	-64.2027278729041	89.6494265189328	0	0	0	0	
2100000000	0	0	-61.0334145359205	-19.2987195158367	0	0	0	0	
2125000000	0	0	-70.1807862579622	86.8859268238485	0	0	0	0	
2150000000	0	0	-66.1442507329583	-151.23113348073	0	0	0	0	
2175000000	0	0	-78.887684228274	3.12476644224127	0	0	0	0	
2200000000	0	0	-66.1710478488728	141.522768394543	0	0	0	0	
2225000000	0	0	-70.2013941987883	3.15582633967173	0	0	0	0	
2250000000	0	0	-77.638591174618	-21.2124184105273	0	0	0	0	
2275000000	0	0	-72.2625302506922	-53.1388000463713	0	0	0	0	
2300000000	0	0	-60.1864405217174	-129.317145843644	0	0	0	0	
2325000000	0	0	-65.7459305132269	-68.4307000243825	0	0	0	0	
2350000000	0	0	-66.1686081534433	159.071343858591	0	0	0	0	
2375000000	0	0	-74.6433188503431	-171.83656901505	0	0	0	0	
2400000000	0	0	-73.2111908070224	-23.8209829164645	0	0	0	0	
2425000000	0	0	-79.1020607667119	-106.4292650932	0	0	0	0	
2450000000	0	0	-62.9206471130205	91.1943047361297	0	0	0	0	
2475000000	0	0	-72.8470159713445	-125.092062125512	0	0	0	0	
2500000000	0	0	-79.5649668197914	78.3864025430226	0	0	0	0	
2525000000	0	0	-65.9806558741313	-87.7247925232947	0	0	0	0	
2550000000	0	0	-68.5439722837882	-15.9968721441509	0	0	0	0	
2575000000	0	0	-64.0122175824552	5.15876697902909	0	0	0	0	
2600000000	0	0	-79.8742775127775	158.263296971167	0	0	0	0	
2625000000	0	0	-72.4738650811457	-58.6085943844974	0	0	0	0	
2650000000	0	0	-67.0417763454922	106.429223259424	0	0	0	0	
2675000000	0	0	-68.8046318044392	139.259008901613	0	0	0	0	
2700000000	0	0	-93.5839916414498	-69.3006908120167	0	0	0	0	
2725000000	0	0	-65.4497755874687	-160.491015373066	0	0	0	0	
2750000000	0	0	-76.1448543389402	34.7422493416343	0	0	0	0	
2775000000	0	0	-65.05412541919	131.80921454929	0	0	0	0	
2800000000	0	0	-72.8652646994629	154.232820560563	0	0	0	0	
2825000000	0	0	-71.7823433120333	151.075090923041	0	0	0	0	
2850000000	0	0	-73.8579671499848	-170.927303872761	0	0	0	0	
2875000000	0	0	-71.2294047009035	-27.9968050004569	0	0	0	0	
2900000000	0	0	-80.9008208428599	132.893381220857	0	0	0	0	
2925000000	0	0	-74.8024437058018	75.812837578649	0	0	0	0	
2950000000	0	0	-67.8274690396087	99.7891065997065	0	0	0	0	
2975000000	0	0	-61.0296046518272	16.5311811437907	0	0	0	0	
3000000000	0	0	-68.7607461446073	-41.8724975510869	0	0	0	0	
3025000000	0	0	-74.2056180827164	-113.324675749375	0	0	0	0	
3050000000	0	0	-70.3522542633919	-113.580385674296	0	0	0	0	
3075000000	0	0	-64.6158536278105	-71.1645829934377	0	0	0	0	
3100000000	0	0	-69.6581939623015	150.007253544094	0	0	0	0	
3125000000	0	0	-72.2735033214806	148.621386784573	0	0	0	0	
3150000000	0	0	-62.9008991085984	110.856574066647	0	0	0	0	
3175000000	0	0	-63.8005136960126	87.2963486549251	0	0	0	0	
3200000000	0	0	-67.5799261736266	23.3281416045043	0	0	0	0	
3225000000	0	0	-80.810863777555	-158.343395995092	0	0	0	0	
3250000000	0	0	-71.2637567155265	-153.055895732698	0	0	0	0	
3275000000	0	0	-67.5938680539978	-83.0403399717113	0	0	0	0	
3300000000	0	0	-67.5436295350043	-23.7742171030982	0	0	0	0	
3325000000	0	0	-77.304237749234	-64.9247927592479	0	0	0	0	
3350000000	0	0	-67.8517553224536	-16.2424904075689	0	0	0	0	
3375000000	0	0	-62.9307312433069	-83.397988654962	0	0	0	0	
3400000000	0	0	-68.9321591620312	-138.009812524607	0	0	0	0	
3425000000	0	0	-76.4953229956472	163.851910688747	0	0	0	0	
3450000000	0	0	-65.4352910800141	-177.056384543623	0	0	0	0	
3475000000	0	0	-66.5061618636955	74.2941025414708	0	0	0	0	
3500000000	0	0	-77.1673958751655	66.9413716401479	0	0	0	0	
3525000000	0	0	-64.1748043835339	5.53933343025983	0	0	0	0	
3550000000	0	0	-70.1222318943042	24.0223680365963	0	0	0	0	
3575000000	0	0	-63.0591625714152	110.041301516043	0	0	0	0	
3600000000	0	0	-66.7305577932922	36.5201927281734	0	0	0	0	
3625000000	0	0	-64.5129052133709	-38.4705665225675	0	0	0	0	
3650000000	0	0	-62.5455394292331	-37.8339736972521	0	0	0	0	
3675000000	0	0	-67.5312921219591	-160.367629196631	0	0	0	0	
3700000000	0	0	-65.3817168863547	-88.321934072596	0	0	0	0	
3725000000	0	0	-65.3378221615851	-110.701153186172	0	0	0	0	
3750000000	0	0	-72.7935424416469	-148.100223336987	0	0	0	0	
3775000000	0	0	-70.595282459029	-170.935591033962	0	0	0	0	
3800000000	0	0	-68.7142620209029	166.778685525037	0	0	0	0	
3825000000	0	0	-71.5657292255568	127.585798046746	0	0	0	0	
3850000000	0	0	-59.9009461379	118.175141348883	0	0	0	0	
3875000000	0	0	-66.9085705951779	74.2972041754517	0	0	0	0	
3900000000	0	0	-61.5259797270562	76.6851401709423	0	0	0	0	
3925000000	0	0	-59.6757811385532	33.9902154354866	0	0	0	0	
3950000000	0	0	-62.8483220021934	9.4933886648201	0	0	0	0	
3975000000	0	0	-64.1514215505112	-41.5775218812706	0	0	0	0	
4000000000	0	0	-61.2892278216793	-12.4721133505952	0	0	0	0	
4025000000	0	0	-64.430954914263	-19.9128802377723	0	0	0	0	
4050000000	0	0	-62.5089365559667	-103.98369625003	0	0	0	0	
4075000000	0	0	-58.2512425947977	-112.163030270582	0	0	0	0	
4100000000	0	0	-60.6485837939409	-166.687518633797	0	0	0	0	
4125000000	0	0	-66.8061835355323	-171.390712114659	0	0	0	0	
4150000000	0	0	-59.8754788854418	170.480498458277	0	0	0	0	
4175000000	0	0	-60.1831961977459	166.561715095162	0	0	0	0	
4200000000	0	0	-57.4879047110553	129.176989055956	0	0	0	0	
4225000000	0	0	-59.8259679118844	98.9534272411649	0	0	0	0	
4250000000	0	0	-58.6532039021847	60.2640422984015	0	0	0	0	
4275000000	0	0	-57.0008274969628	34.6606532021545	0	0	0	0	
4300000000	0	0	-59.670328363594	50.8366864370034	0	0	0	0	
4325000000	0	0	-56.8574763570505	-17.9033674005983	0	0	0	0	
4350000000	0	0	-53.1649907479426	-46.4622992069625	0	0	0	0	
4375000000	0	0	-54.369102776609	-56.9269930977329	0	0	0	0	
4400000000	0	0	-54.1613925265165	-66.1531762433043	0	0	0	0	
4425000000	0	0	-53.86119708881	-100.432538289157	0	0	0	0	
4450000000	0	0	-53.9616929439575	-116.966059244814	0	0	0	0	
4475000000	0	0	-51.447936475846	-153.067943275338	0	0	0	0	
4500000000	0	0	-53.548184147091	158.584596376875	0	0	0	0	
4525000000	0	0	-51.9622187214799	154.579487730379	0	0	0	0	
4550000000	0	0	-50.7439189918764	138.026066907223	0	0	0	0	
4575000000	0	0	-50.8559859091192	98.0993610692571	0	0	0	0	
4600000000	0	0	-51.1787652182208	68.7110865952653	0	0	0	0	
4625000000	0	0	-49.5045135766669	50.3392380686441	0	0	0	0	
4650000000	0	0	-49.1266629851874	23.0703593024595	0	0	0	0	
4675000000	0	0	-48.1726754611517	-12.0346806484509	0	0	0	0	
4700000000	0	0	-46.0948454780872	-30.5872337499374	0	0	0	0	
4725000000	0	0	-46.6810774535117	-54.549023743769	0	0	0	0	
4750000000	0	0	-45.0734179189567	-95.4451303454549	0	0	0	0	
4775000000	0	0	-45.1476307051939	-125.302783533223	0	0	0	0	
4800000000	0	0	-45.6898633531257	-144.080430380917	0	0	0	0	
4825000000	0	0	-44.7379679942699	-173.319529136773	0	0	0	0	
4850000000	0	0	-42.9794741501699	166.863736827123	0	0	0	0	
4875000000	0	0	-42.1168445726145	127.671130566685	0	0	0	0	
4900000000	0	0	-42.2534425360227	102.582154720716	0	0	0	0	
4925000000	0	0	-41.2296573587082	73.8378546995366	0	0	0	0	
4950000000	0	0	-38.4429275249794	46.0462319029863	0	0	0	0	
4975000000	0	0	-38.9746693090784	11.5430503285092	0	0	0	0	
5000000000	0	0	-38.5112911887256	-28.0253526703315	0	0	0	0	
5025000000	0	0	-38.2756560982909	-54.076392484099	0	0	0	0	
5050000000	0	0	-37.8420850278254	-77.6568632624993	0	0	0	0	
5075000000	0	0	-36.7346233938534	-114.06232445781	0	0	0	0	
5100000000	0	0	-35.8418940220897	-147.149639439221	0	0	0	0	
5125000000	0	0	-35.9646811246769	-177.717233376969	0	0	0	0	
5150000000	0	0	-35.6522478185811	148.520875206492	0	0	0	0	
5175000000	0	0	-35.5170041452233	113.81016203691	0	0	0	0	
5200000000	0	0	-35.0752073350642	84.0912062458955	0	0	0	0	
5225000000	0	0	-34.6865051594688	51.8964783113813	0	0	0	0	
5250000000	0	0	-34.7453869226501	17.2346095934473	0	0	0	0	
5275000000	0	0	-34.766430317031	-16.7140549592282	0	0	0	0	
5300000000	0	0	-34.6675118771292	-53.3610619481936	0	0	0	0	
5325000000	0	0	-35.1397222885313	-85.9483779286068	0	0	0	0	
5350000000	0	0	-36.1060836496973	-122.276161772689	0	0	0	0	
5375000000	0	0	-36.6118305013306	-152.495589420501	0	0	0	0	
5400000000	0	0	-37.3922934427206	178.27444091104	0	0	0	0	
5425000000	0	0	-37.7160495782457	143.380110576278	0	0	0	0	
5450000000	0	0	-39.2819792769962	109.856590161608	0	0	0	0	
5475000000	0	0	-40.1233667208467	89.0568297347056	0	0	0	0	
5500000000	0	0	-40.3072578827003	58.9315030388285	0	0	0	0	
5525000000	0	0	-40.8802118722802	33.3754697200972	0	0	0	0	
5550000000	0	0	-40.5894311369904	0.876567728078895	0	0	0	0	
5575000000	0	0	-41.5246321683504	-23.4681596766736	0	0	0	0	
5600000000	0	0	-42.3613514999923	-55.6675296661533	0	0	0	0	
5625000000	0	0	-42.5836845558396	-87.2791384988671	0	0	0	0	
5650000000	0	0	-42.1594875553238	-114.33431702604	0	0	0	0	
5675000000	0	0	-45.039960857067	-148.329537207861	0	0	0	0	
5700000000	0	0	-44.1311636570318	-175.897895661396	0	0	0	0	
5725000000	0	0	-45.6949097344696	169.784122582512	0	0	0	0	
5750000000	0	0	-46.7384057721244	137.349803945105	0	0	0	0	
5775000000	0	0	-47.4810552191332	118.533808068022	0	0	0	0	
5800000000	0	0	-46.5712712792726	89.2320752645707	0	0	0	0	
5825000000	0	0	-46.4192536205023	72.640680860966	0	0	0	0	
5850000000	0	0	-47.1496553301657	29.5081723428158	0	0	0	0	
5875000000	0	0	-48.1348611709588	4.85251481131461	0	0	0	0	
5900000000	0	0	-47.5686134798923	-23.0946159111135	0	0	0	0	
5925000000	0	0	-47.665305081132	-46.3941645949753	0	0	0	0	
5950000000	0	0	-49.7478337568686	-89.7560206402079	0	0	0	0	
5975000000	0	0	-51.719474486556	-102.600411746773	0	0	0	0	
6000000000	0	0	-51.4712459369354	-119.720822276963	0	0	0	0	
