!Keysight Technologies N9926A: A.08.19
!Date: Sunday, 01 March 2026 13:35:43
!Timezone: (GMT-06:00) Central Time (US & Canada)
!Model: N9926A
!Serial: MY53102721
!GPS Latitude: 
!GPS Longitude: 
!GPS TimeStamp: 0001-01-01 00:00:00Z
!GPS Seconds Since Last Read: 0
!CHECKSUM:0083149449
!Correction: S11()S21(ON U)S12()S22()
!S2P File: Measurements:S11,S21,S12,S22:
# Hz S DB R 50
1000000000	0	0	-68.109376379103	-176.263499686102	0	0	0	0	
1025000000	0	0	-74.3743015052267	26.6904395707655	0	0	0	0	
1050000000	0	0	-71.1963604317333	117.315201602976	0	0	0	0	
1075000000	0	0	-69.265513491341	55.7770688809021	0	0	0	0	
1100000000	0	0	-71.9932727518997	-88.6976861238944	0	0	0	0	
1125000000	0	0	-68.9824667141874	-145.602150708826	0	0	0	0	
1150000000	0	0	-59.7404160955951	-21.8286315902514	0	0	0	0	
1175000000	0	0	-56.6264631904718	-4.20155752692322	0	0	0	0	
1200000000	0	0	-58.224870639062	124.740656700037	0	0	0	0	
1225000000	0	0	-62.8994278393565	-91.0569197166511	0	0	0	0	
1250000000	0	0	-54.0809204625137	-26.1460279682783	0	0	0	0	
1275000000	0	0	-59.2744472231527	149.964265033315	0	0	0	0	
1300000000	0	0	-51.4255310643556	8.78886820892678	0	0	0	0	
1325000000	0	0	-63.5844580270767	-58.4736763057631	0	0	0	0	
1350000000	0	0	-56.6957412089643	151.989820642406	0	0	0	0	
1375000000	0	0	-67.4612100581119	-138.381726233774	0	0	0	0	
1400000000	0	0	-50.0585857090106	-35.5790035362133	0	0	0	0	
1425000000	0	0	-52.0900039153668	6.05851790147335	0	0	0	0	
1450000000	0	0	-53.3467295576043	-145.984948227423	0	0	0	0	
1475000000	0	0	-48.9993827533499	13.4457325498602	0	0	0	0	
1500000000	0	0	-64.8671775338094	119.618217024191	0	0	0	0	
1525000000	0	0	-55.4128730703704	78.0483922874998	0	0	0	0	
1550000000	0	0	-57.4099288628023	67.8836731211362	0	0	0	0	
1575000000	0	0	-66.0126183632133	72.1186544897484	0	0	0	0	
1600000000	0	0	-52.9307326112813	-87.0699499806705	0	0	0	0	
1625000000	0	0	-59.4401181241153	-50.7364416060828	0	0	0	0	
1650000000	0	0	-55.7413283040598	170.336755362065	0	0	0	0	
1675000000	0	0	-57.0278184934371	75.6454314586515	0	0	0	0	
1700000000	0	0	-58.0184311000885	-86.8645196836243	0	0	0	0	
1725000000	0	0	-58.4394724075074	-138.028600560638	0	0	0	0	
1750000000	0	0	-66.3971055062476	-81.1307923611263	0	0	0	0	
1775000000	0	0	-58.5132611326801	-24.7826801179668	0	0	0	0	
1800000000	0	0	-74.6355326988925	-147.059792493812	0	0	0	0	
1825000000	0	0	-84.5313254263113	-17.9025831277731	0	0	0	0	
1850000000	0	0	-63.2274030010061	92.393439285702	0	0	0	0	
1875000000	0	0	-62.8254740048496	-62.8226727294822	0	0	0	0	
1900000000	0	0	-81.6004025094652	62.0863439201137	0	0	0	0	
1925000000	0	0	-61.4500565495834	151.041216964618	0	0	0	0	
1950000000	0	0	-70.2361996098001	25.7457962505331	0	0	0	0	
1975000000	0	0	-61.6974553124661	-139.521369980668	0	0	0	0	
2000000000	0	0	-63.2833787902872	83.3720101291179	0	0	0	0	
2025000000	0	0	-72.8818673363098	171.805932512536	0	0	0	0	
2050000000	0	0	-68.3427402331648	129.117846359777	0	0	0	0	
2075000000	0	0	-66.3608304269386	-80.6681730360767	0	0	0	0	
2100000000	0	0	-67.4542017113717	-51.3551255019212	0	0	0	0	
2125000000	0	0	-62.6732654041928	-139.020248973909	0	0	0	0	
2150000000	0	0	-67.0765619143572	133.939184325028	0	0	0	0	
2175000000	0	0	-73.8413425315118	-16.2520250935709	0	0	0	0	
2200000000	0	0	-66.1006989079268	-109.951334017855	0	0	0	0	
2225000000	0	0	-61.753626328114	-16.6669423605064	0	0	0	0	
2250000000	0	0	-62.3035705714143	-112.336345040473	0	0	0	0	
2275000000	0	0	-71.6869492991336	-141.931566202422	0	0	0	0	
2300000000	0	0	-73.0688937872081	119.053318027215	0	0	0	0	
2325000000	0	0	-75.8823738443966	175.316536392517	0	0	0	0	
2350000000	0	0	-68.1803895896355	3.28641449505504	0	0	0	0	
2375000000	0	0	-72.8247056121352	27.5635175230664	0	0	0	0	
2400000000	0	0	-67.8568514214905	-103.116180276943	0	0	0	0	
2425000000	0	0	-63.4230420994817	-27.5384869658138	0	0	0	0	
2450000000	0	0	-69.1937433697586	-115.523735725826	0	0	0	0	
2475000000	0	0	-67.8425830305231	114.977522037556	0	0	0	0	
2500000000	0	0	-66.8281427812918	81.8122053495833	0	0	0	0	
2525000000	0	0	-61.521311963569	101.947604894329	0	0	0	0	
2550000000	0	0	-90.8651012179378	97.1414036055235	0	0	0	0	
2575000000	0	0	-75.0833945107713	-105.209545560834	0	0	0	0	
2600000000	0	0	-67.391539319009	-54.8019901183851	0	0	0	0	
2625000000	0	0	-66.2264305981052	11.4943712886199	0	0	0	0	
2650000000	0	0	-67.6567771664248	5.24207932920401	0	0	0	0	
2675000000	0	0	-74.8941983364784	151.046199289342	0	0	0	0	
2700000000	0	0	-69.6951588278139	-60.6158147835909	0	0	0	0	
2725000000	0	0	-73.1222580906014	92.4529233654147	0	0	0	0	
2750000000	0	0	-74.1154421359735	101.42582748968	0	0	0	0	
2775000000	0	0	-72.9760911332547	-93.6900110094681	0	0	0	0	
2800000000	0	0	-81.2439121936115	-16.2407178990568	0	0	0	0	
2825000000	0	0	-75.4877098911228	103.168642366458	0	0	0	0	
2850000000	0	0	-76.9862956353737	55.3986016589825	0	0	0	0	
2875000000	0	0	-84.0621529761096	117.099205244184	0	0	0	0	
2900000000	0	0	-71.35628661708	-97.8603510440099	0	0	0	0	
2925000000	0	0	-66.8877948870412	-35.6390068599253	0	0	0	0	
2950000000	0	0	-74.6988024489671	161.337861014979	0	0	0	0	
2975000000	0	0	-69.1167518789372	-147.988423372178	0	0	0	0	
3000000000	0	0	-65.8613844090921	-41.3012582777406	0	0	0	0	
3025000000	0	0	-74.8922070698112	-72.424954619307	0	0	0	0	
3050000000	0	0	-79.3853604581525	100.0466409741	0	0	0	0	
3075000000	0	0	-69.1958477994114	-148.562706506825	0	0	0	0	
3100000000	0	0	-69.7364912921416	147.166324271673	0	0	0	0	
3125000000	0	0	-70.3363736048002	119.52777416192	0	0	0	0	
3150000000	0	0	-67.3448626501513	-27.3509404675817	0	0	0	0	
3175000000	0	0	-76.6613747138653	-104.275177543796	0	0	0	0	
3200000000	0	0	-72.8305245389528	57.8919115595542	0	0	0	0	
3225000000	0	0	-67.1341876402545	-29.4666797244514	0	0	0	0	
3250000000	0	0	-71.0621548751981	-64.3650232000573	0	0	0	0	
3275000000	0	0	-72.7400167741241	-71.1046923017987	0	0	0	0	
3300000000	0	0	-66.9882165939579	-31.0139404564804	0	0	0	0	
3325000000	0	0	-67.4512924814882	-33.9509768080112	0	0	0	0	
3350000000	0	0	-64.8874769671937	129.915749100838	0	0	0	0	
3375000000	0	0	-76.5517503905055	-176.153505189407	0	0	0	0	
3400000000	0	0	-64.0562211288576	166.344448580615	0	0	0	0	
3425000000	0	0	-75.7773847066581	126.15157171104	0	0	0	0	
3450000000	0	0	-70.8428667414187	24.6984936556537	0	0	0	0	
3475000000	0	0	-64.3511549138834	37.0319353082205	0	0	0	0	
3500000000	0	0	-63.9616194215925	79.6184905171944	0	0	0	0	
3525000000	0	0	-67.8141315229669	22.4311357114032	0	0	0	0	
3550000000	0	0	-64.8103685143147	-36.3856923605548	0	0	0	0	
3575000000	0	0	-65.073579838933	-82.6137215178041	0	0	0	0	
3600000000	0	0	-70.850435502296	-44.8677042807268	0	0	0	0	
3625000000	0	0	-62.0708406171964	-55.3402811946335	0	0	0	0	
3650000000	0	0	-66.9573307058181	-150.143752974224	0	0	0	0	
3675000000	0	0	-66.9062477568239	-105.431757040114	0	0	0	0	
3700000000	0	0	-61.2295282349047	179.202917430201	0	0	0	0	
3725000000	0	0	-67.2411872945783	117.014771859519	0	0	0	0	
3750000000	0	0	-63.2406346789273	94.5027980730343	0	0	0	0	
3775000000	0	0	-78.4601846793985	133.054786990182	0	0	0	0	
3800000000	0	0	-64.341838657374	46.5421093214982	0	0	0	0	
3825000000	0	0	-61.7807885151709	13.4696812097924	0	0	0	0	
3850000000	0	0	-65.7713174431722	38.9195905331796	0	0	0	0	
3875000000	0	0	-71.773041344491	31.9958058705836	0	0	0	0	
3900000000	0	0	-69.7746083489418	-63.2104829086436	0	0	0	0	
3925000000	0	0	-60.7769080575469	-58.4222409882923	0	0	0	0	
3950000000	0	0	-60.0188274670166	-95.7349213371872	0	0	0	0	
3975000000	0	0	-64.9663784826689	-121.896019738115	0	0	0	0	
4000000000	0	0	-62.6824223228976	-159.366131212652	0	0	0	0	
4025000000	0	0	-57.6872071337433	173.91039650583	0	0	0	0	
4050000000	0	0	-64.9718491768753	141.742339329413	0	0	0	0	
4075000000	0	0	-62.1057644165888	124.240571197473	0	0	0	0	
4100000000	0	0	-58.4202693828199	91.1594868363368	0	0	0	0	
4125000000	0	0	-61.393510175081	54.1196913702274	0	0	0	0	
4150000000	0	0	-61.0511167811982	26.9588812269606	0	0	0	0	
4175000000	0	0	-60.1093201074964	16.7722628085443	0	0	0	0	
4200000000	0	0	-61.8546369775529	-28.1053416127007	0	0	0	0	
4225000000	0	0	-58.6822959893723	-44.6162230425625	0	0	0	0	
4250000000	0	0	-58.8345398645221	-65.5205279576173	0	0	0	0	
4275000000	0	0	-57.9063566855078	-108.973184408555	0	0	0	0	
4300000000	0	0	-59.1273543321926	-130.766178697018	0	0	0	0	
4325000000	0	0	-54.8240580620224	-157.174158968674	0	0	0	0	
4350000000	0	0	-54.7607648994067	168.060917193486	0	0	0	0	
4375000000	0	0	-56.4517221587265	121.988211305643	0	0	0	0	
4400000000	0	0	-57.8085185762016	120.681476037005	0	0	0	0	
4425000000	0	0	-63.7217518950323	101.179213811156	0	0	0	0	
4450000000	0	0	-56.3619141787901	65.1151562961095	0	0	0	0	
4475000000	0	0	-53.9960352052427	28.285421478512	0	0	0	0	
4500000000	0	0	-55.4289463448744	-8.03462576720967	0	0	0	0	
4525000000	0	0	-55.4929965621739	-23.1845047373029	0	0	0	0	
4550000000	0	0	-50.6319488574789	-47.2125911638232	0	0	0	0	
4575000000	0	0	-51.3631348883246	-89.1947358875275	0	0	0	0	
4600000000	0	0	-50.5863790394781	-114.547881479776	0	0	0	0	
4625000000	0	0	-49.2805745437184	-139.990243891195	0	0	0	0	
4650000000	0	0	-49.1132540156554	179.232843547748	0	0	0	0	
4675000000	0	0	-49.231741612617	151.903345384328	0	0	0	0	
4700000000	0	0	-48.1606324431383	124.462544022334	0	0	0	0	
4725000000	0	0	-46.7634795482324	95.1335385622766	0	0	0	0	
4750000000	0	0	-46.7884494672986	54.7190157594675	0	0	0	0	
4775000000	0	0	-46.7828472205217	25.907243173478	0	0	0	0	
4800000000	0	0	-45.9712065513638	-2.23375487672155	0	0	0	0	
4825000000	0	0	-44.8454109040109	-27.3173147940625	0	0	0	0	
4850000000	0	0	-43.1470367341127	-53.5142980333427	0	0	0	0	
4875000000	0	0	-42.6932976563422	-95.0371442716065	0	0	0	0	
4900000000	0	0	-42.2897066434727	-125.715638748401	0	0	0	0	
4925000000	0	0	-42.2721750699183	-158.239980554042	0	0	0	0	
4950000000	0	0	-39.8011776949758	170.670152498326	0	0	0	0	
4975000000	0	0	-39.6829670621328	130.558219019834	0	0	0	0	
5000000000	0	0	-39.0763910677096	91.3556757390245	0	0	0	0	
5025000000	0	0	-39.1579604857121	61.3462336746815	0	0	0	0	
5050000000	0	0	-38.8244008538084	33.4705636363277	0	0	0	0	
5075000000	0	0	-37.9398333424927	-3.79171474304528	0	0	0	0	
5100000000	0	0	-37.0199381627467	-39.2215145723864	0	0	0	0	
5125000000	0	0	-37.4210091418265	-72.5100271697254	0	0	0	0	
5150000000	0	0	-36.631855296791	-106.976942409772	0	0	0	0	
5175000000	0	0	-36.2647102795714	-145.73138151303	0	0	0	0	
5200000000	0	0	-35.9023283607537	-176.859606188338	0	0	0	0	
5225000000	0	0	-35.3811019962953	142.892583627815	0	0	0	0	
5250000000	0	0	-35.3699672829358	102.552908730753	0	0	0	0	
5275000000	0	0	-35.7066128342496	66.1639926057804	0	0	0	0	
5300000000	0	0	-36.1656029579435	29.2498000068963	0	0	0	0	
5325000000	0	0	-36.0710120266101	-5.07024401699783	0	0	0	0	
5350000000	0	0	-37.2211856023817	-41.8940031400661	0	0	0	0	
5375000000	0	0	-37.859283580072	-77.7365663762551	0	0	0	0	
5400000000	0	0	-38.0701515583659	-110.570603570262	0	0	0	0	
5425000000	0	0	-38.8057262551798	-145.567935843972	0	0	0	0	
5450000000	0	0	-40.1329610186042	176.916441036911	0	0	0	0	
5475000000	0	0	-41.0223277413054	152.568286213778	0	0	0	0	
5500000000	0	0	-40.9567937238786	118.531856352228	0	0	0	0	
5525000000	0	0	-42.2206716487721	89.4404795571355	0	0	0	0	
5550000000	0	0	-41.933638146408	56.8051178601159	0	0	0	0	
5575000000	0	0	-41.9669193798885	22.4704462871906	0	0	0	0	
5600000000	0	0	-42.6330271499655	-8.58680451006623	0	0	0	0	
5625000000	0	0	-43.3437347574034	-41.4549966292458	0	0	0	0	
5650000000	0	0	-42.8543007277739	-73.361723148763	0	0	0	0	
5675000000	0	0	-45.6419410241377	-105.036230881309	0	0	0	0	
5700000000	0	0	-45.8353098279564	-139.052995277271	0	0	0	0	
5725000000	0	0	-47.2465763808433	-165.441484191431	0	0	0	0	
5750000000	0	0	-47.6255374907492	165.333726610961	0	0	0	0	
5775000000	0	0	-47.7235126910278	149.909697873688	0	0	0	0	
5800000000	0	0	-48.1099608045981	106.959079593785	0	0	0	0	
5825000000	0	0	-48.0155178580951	90.7875583389641	0	0	0	0	
5850000000	0	0	-47.7702859241948	63.6377191999283	0	0	0	0	
5875000000	0	0	-48.5318575486419	27.9889579729116	0	0	0	0	
5900000000	0	0	-48.8242384290268	-11.5774977420094	0	0	0	0	
5925000000	0	0	-48.0096018645825	-38.9499720746554	0	0	0	0	
5950000000	0	0	-51.2125425987552	-84.8115320798631	0	0	0	0	
5975000000	0	0	-53.0215823216948	-101.910398889143	0	0	0	0	
6000000000	0	0	-53.5369282271887	-132.707436592822	0	0	0	0	
