# Hz S RI R 50
1000000 0.988597 -0.00140234
12998000 1.01869 -0.0594695
24996000 1.01329 -0.12949
36994000 0.999317 -0.196079
48992000 0.981253 -0.259743
60990000 0.960456 -0.319168
72988000 0.93461 -0.377897
84986000 0.90632 -0.433554
96984000 0.874753 -0.487241
108982000 0.840693 -0.539079
120980000 0.805052 -0.588111
132978000 0.767566 -0.634501
144976000 0.728494 -0.678804
156974000 0.687129 -0.721541
168972000 0.644612 -0.760861
180970000 0.601609 -0.797172
192968000 0.556711 -0.830596
204966000 0.510684 -0.861323
216964000 0.464494 -0.888101
228962000 0.417109 -0.911661
240960000 0.370653 -0.931131
252958000 0.324201 -0.947357
264956000 0.278034 -0.960674
276954000 0.232083 -0.971611
288952000 0.186587 -0.979135
300950000 0.141332 -0.984207
312948000 0.0971233 -0.986102
324946000 0.0551279 -0.986311
336944000 0.0145554 -0.985056
348942000 -0.0255496 -0.982542
360940000 -0.0657615 -0.97877
372938000 -0.103782 -0.975228
384936000 -0.140957 -0.971309
396934000 -0.177645 -0.966563
408932000 -0.214285 -0.961575
420930000 -0.248812 -0.956121
432928000 -0.285122 -0.948361
444926000 -0.318291 -0.939973
456924000 -0.350491 -0.931007
468922000 -0.382557 -0.921163
480920000 -0.412469 -0.909433
492918000 -0.441214 -0.896263
504916000 -0.468451 -0.881972
516914000 -0.496257 -0.86702
528912000 -0.520841 -0.850511
540910000 -0.545142 -0.834129
552908000 -0.567772 -0.816177
564906000 -0.588688 -0.799261
576904000 -0.609001 -0.782396
588902000 -0.629257 -0.765563
600900000 -0.648548 -0.74815
612898000 -0.665603 -0.731377
624896000 -0.683723 -0.713822
636894000 -0.701125 -0.697071
648892000 -0.718165 -0.681202
660890000 -0.734743 -0.66566
672888000 -0.751971 -0.649089
684886000 -0.768497 -0.632618
696884000 -0.78487 -0.614896
708882000 -0.800486 -0.598252
720880000 -0.816368 -0.580848
732878000 -0.830116 -0.560967
744876000 -0.843189 -0.543199
756874000 -0.855927 -0.523834
768872000 -0.867952 -0.503884
780870000 -0.87841 -0.48376
792868000 -0.887493 -0.463401
804866000 -0.895414 -0.443768
816864000 -0.904608 -0.424882
828862000 -0.911426 -0.406996
840860000 -0.917902 -0.389086
852858000 -0.922409 -0.37263
864856000 -0.929269 -0.354275
876854000 -0.934869 -0.337259
888852000 -0.942052 -0.321208
900850000 -0.948132 -0.304087
912848000 -0.953649 -0.287998
924846000 -0.959523 -0.272297
936844000 -0.965319 -0.256965
948842000 -0.971664 -0.242734
960840000 -0.977953 -0.228579
972838000 -0.984068 -0.214071
984836000 -0.989354 -0.197825
996834000 -0.993199 -0.182588
1008832000 -0.996345 -0.167624
1020830000 -0.999832 -0.151481
1032828000 -1.00275 -0.134908
1044826000 -1.00506 -0.118712
1056824000 -1.00697 -0.102397
1068822000 -1.00877 -0.0840148
1080820000 -1.00917 -0.0650067
1092818000 -1.00832 -0.0500491
1104816000 -1.00752 -0.0332163
1116814000 -1.00656 -0.0173456
1128812000 -1.00669 -0.00197223
1140810000 -1.00503 0.0134805
1152808000 -1.00522 0.0276266
1164806000 -1.00516 0.0414713
1176804000 -1.00773 0.0570699
1188802000 -1.00294 0.0722534
1200800000 -1.00229 0.0822556
1212798000 -1.00185 0.0948379
1224796000 -1.00067 0.107525
1236794000 -1.00089 0.118601
1248792000 -1.00022 0.130542
1260790000 -1.00046 0.142682
1272788000 -0.999116 0.153973
1284786000 -0.995705 0.163828
1296784000 -0.991917 0.17592
1308782000 -0.989504 0.188958
1320780000 -0.986851 0.202779
1332778000 -0.984321 0.216668
1344776000 -0.981434 0.231057
1356774000 -0.979257 0.246414
1368772000 -0.976082 0.259089
1380770000 -0.97299 0.274098
1392768000 -0.968814 0.28821
1404766000 -0.962842 0.304359
1416764000 -0.95917 0.320882
1428762000 -0.953394 0.334774
1440760000 -0.946779 0.348904
1452758000 -0.941972 0.361287
1464756000 -0.93767 0.373611
1476754000 -0.933465 0.386392
1488752000 -0.928851 0.396728
1500750000 -0.923261 0.406953
1512748000 -0.916347 0.415873
1524746000 -0.910671 0.425075
1536744000 -0.90417 0.433684
1548742000 -0.897252 0.443863
1560740000 -0.890757 0.452558
1572738000 -0.886221 0.46335
1584736000 -0.881593 0.474323
1596734000 -0.877678 0.485084
1608732000 -0.873155 0.496836
1620730000 -0.868863 0.506873
1632728000 -0.863651 0.518246
1644726000 -0.8583 0.53009
1656724000 -0.850923 0.5415
1668722000 -0.844143 0.552983
1680720000 -0.839237 0.563981
1692718000 -0.832714 0.573405
1704716000 -0.828077 0.582006
1716714000 -0.821421 0.590522
1728712000 -0.815366 0.59944
1740710000 -0.805303 0.610984
1752708000 -0.796323 0.620597
1764706000 -0.786762 0.628072
1776704000 -0.777199 0.635941
1788702000 -0.76744 0.642747
1800700000 -0.756065 0.651268
1812698000 -0.745436 0.657847
1824696000 -0.735688 0.667627
1836694000 -0.729221 0.674711
1848692000 -0.720064 0.685379
1860690000 -0.712204 0.694252
1872688000 -0.703893 0.702916
1884686000 -0.695476 0.712824
1896684000 -0.687915 0.722605
1908682000 -0.678787 0.733931
1920680000 -0.671861 0.745088
1932678000 -0.663187 0.755691
1944676000 -0.653793 0.764762
1956674000 -0.649136 0.772736
1968672000 -0.643606 0.78166
1980670000 -0.63579 0.789907
1992668000 -0.629775 0.793365
2004666000 -0.626891 0.796749
2016664000 -0.621013 0.801083
2028662000 -0.614292 0.802944
2040660000 -0.60771 0.806029
2052658000 -0.599806 0.80675
2064656000 -0.591402 0.807844
2076654000 -0.581692 0.810997
2088652000 -0.570876 0.812901
2100650000 -0.558881 0.816108
2112648000 -0.54508 0.819263
2124646000 -0.532665 0.82677
2136644000 -0.517874 0.833906
2148642000 -0.504146 0.843473
2160640000 -0.490504 0.852018
2172638000 -0.481465 0.8636
2184636000 -0.470443 0.874598
2196634000 -0.460866 0.885359
2208632000 -0.454372 0.897581
2220630000 -0.448572 0.904674
2232628000 -0.445849 0.911859
2244626000 -0.445255 0.915069
2256624000 -0.442655 0.91946
2268622000 -0.435754 0.922338
2280620000 -0.431637 0.923326
2292618000 -0.429989 0.926648
2304616000 -0.424392 0.925811
2316614000 -0.416782 0.925459
2328612000 -0.404637 0.925405
2340610000 -0.391714 0.925092
2352608000 -0.37659 0.924627
2364606000 -0.360595 0.924987
2376604000 -0.34426 0.925977
2388602000 -0.329541 0.926738
2400600000 -0.31063 0.930264
2412598000 -0.294496 0.935001
2424596000 -0.279032 0.940222
2436594000 -0.263411 0.945443
2448592000 -0.250575 0.950561
2460590000 -0.237082 0.957681
2472588000 -0.22645 0.965037
2484586000 -0.219159 0.971361
2496584000 -0.21044 0.979577
2508582000 -0.201184 0.984699
2520580000 -0.192227 0.99015
2532578000 -0.186142 0.993038
2544576000 -0.18154 0.998395
2556574000 -0.172233 0.996999
2568572000 -0.164295 1.0015
2580570000 -0.154309 1.00035
2592568000 -0.147072 0.998765
2604566000 -0.144722 0.994675
2616564000 -0.130762 0.99164
2628562000 -0.118778 0.990549
2640560000 -0.110992 0.984355
2652558000 -0.0975816 0.982448
2664556000 -0.0872099 0.980141
2676554000 -0.0757725 0.978726
2688552000 -0.0654612 0.9753
2700550000 -0.0520367 0.975877
2712548000 -0.0409668 0.97446
2724546000 -0.0264686 0.975075
2736544000 -0.0168825 0.979856
2748542000 -0.00443998 0.98212
2760540000 0.00582348 0.985157
2772538000 0.0168405 0.988677
2784536000 0.0273871 0.991478
2796534000 0.0360839 0.992809
2808532000 0.0448962 0.996247
2820530000 0.0527647 0.996856
2832528000 0.0620661 0.996902
2844526000 0.0708939 0.999586
2856524000 0.0779455 0.993996
2868522000 0.0856997 0.991265
2880520000 0.0936231 0.988167
2892518000 0.101077 0.983087
2904516000 0.109146 0.981745
2916514000 0.117162 0.977865
2928512000 0.123859 0.97447
2940510000 0.127045 0.973757
2952508000 0.138071 0.967681
2964506000 0.149444 0.964919
2976504000 0.160049 0.959732
2988502000 0.17228 0.962645
3000500000 0.183263 0.9589
3012498000 0.196043 0.962748
3024496000 0.199816 0.961852
3036494000 0.212913 0.960145
3048492000 0.22411 0.960205
3060490000 0.233693 0.959403
3072488000 0.2412 0.957593
3084486000 0.249953 0.95726
3096484000 0.257917 0.954234
3108482000 0.264537 0.95287
3120480000 0.274345 0.951062
3132478000 0.277423 0.946425
3144476000 0.287594 0.942249
3156474000 0.296752 0.941239
3168472000 0.303079 0.936917
3180470000 0.311349 0.932862
3192468000 0.319672 0.928993
3204466000 0.328913 0.9229
3216464000 0.338796 0.918098
3228462000 0.348607 0.913338
3240460000 0.3612 0.909975
3252458000 0.371539 0.90748
3264456000 0.381678 0.903966
3276454000 0.390544 0.901098
3288452000 0.402709 0.895552
3300450000 0.409235 0.89171
3312448000 0.422196 0.885532
3324446000 0.430649 0.87991
3336444000 0.441894 0.876212
3348442000 0.450187 0.870432
3360440000 0.459807 0.865877
3372438000 0.468098 0.85873
3384436000 0.478904 0.853465
3396434000 0.486599 0.843551
3408432000 0.495651 0.840218
3420430000 0.508109 0.835095
3432428000 0.515915 0.825122
3444426000 0.530185 0.818543
3456424000 0.540048 0.812631
3468422000 0.548744 0.805286
3480420000 0.559682 0.798742
3492418000 0.569713 0.793106
3504416000 0.57977 0.78584
3516414000 0.589164 0.778721
3528412000 0.595486 0.774379
3540410000 0.60592 0.769426
3552408000 0.611709 0.765971
3564406000 0.621225 0.760816
3576404000 0.62681 0.753723
3588402000 0.635087 0.749292
3600400000 0.64151 0.741972
3612398000 0.647655 0.733355
3624396000 0.654486 0.725634
3636394000 0.662064 0.718973
3648392000 0.670171 0.712056
3660390000 0.676432 0.704448
3672388000 0.683414 0.696305
3684386000 0.692083 0.687039
3696384000 0.699975 0.677418
3708382000 0.707336 0.66965
3720380000 0.715743 0.659863
3732378000 0.7242 0.649473
3744376000 0.729918 0.64225
3756374000 0.737349 0.632386
3768372000 0.744871 0.624434
3780370000 0.75245 0.61432
3792368000 0.757901 0.609651
3804366000 0.763877 0.601408
3816364000 0.768203 0.593434
3828362000 0.775235 0.588583
3840360000 0.777656 0.585438
3852358000 0.783213 0.577466
3864356000 0.787683 0.570585
3876354000 0.790651 0.565026
3888352000 0.794463 0.559071
3900350000 0.798345 0.553841
3912348000 0.801914 0.548391
3924346000 0.80718 0.542923
3936344000 0.809347 0.537448
3948342000 0.811145 0.531311
3960340000 0.810475 0.526317
3972338000 0.815404 0.520186
3984336000 0.820805 0.509481
3996334000 0.825715 0.501087
4008332000 0.830491 0.4938
4020330000 0.836708 0.484017
4032328000 0.843393 0.476179
4044326000 0.847125 0.465262
4056324000 0.852234 0.454361
4068322000 0.85473 0.441699
4080320000 0.858732 0.427182
4092318000 0.86434 0.411901
4104316000 0.870299 0.393506
4116314000 0.875208 0.371835
4128312000 0.881071 0.356767
4140310000 0.889873 0.335645
4152308000 0.894283 0.318927
4164306000 0.901097 0.301667
4176304000 0.90602 0.288707
4188302000 0.911905 0.278092
4200300000 0.917053 0.27059
4212298000 0.914576 0.266956
4224296000 0.914892 0.266619
4236294000 0.917126 0.260804
4248292000 0.918535 0.262705
4260290000 0.924417 0.254607
4272288000 0.923263 0.254378
4284286000 0.923273 0.247925
4296284000 0.9251 0.241057
4308282000 0.925039 0.229401
4320280000 0.92703 0.213292
4332278000 0.926613 0.201484
4344276000 0.923944 0.189845
4356274000 0.92435 0.174343
4368272000 0.918916 0.160448
4380270000 0.919394 0.142193
4392268000 0.915656 0.12144
4404266000 0.914771 0.104353
4416264000 0.913253 0.0819485
4428262000 0.913894 0.0634194
4440260000 0.913436 0.0439384
4452258000 0.91865 0.0279501
4464256000 0.919467 0.0123157
4476254000 0.921424 -0.00362821
4488252000 0.923597 -0.0149202
4500250000 0.923479 -0.0242374
4512248000 0.923287 -0.0393467
4524246000 0.926162 -0.0480763
4536244000 0.92775 -0.0579704
4548242000 0.92312 -0.0688719
4560240000 0.925119 -0.0715896
4572238000 0.922094 -0.0801153
4584236000 0.921608 -0.0863053
4596234000 0.916055 -0.0956248
4608232000 0.906836 -0.103638
4620230000 0.899332 -0.119189
4632228000 0.889413 -0.133267
4644226000 0.883475 -0.151128
4656224000 0.871528 -0.167869
4668222000 0.863059 -0.184824
4680220000 0.851364 -0.204464
4692218000 0.847967 -0.225069
4704216000 0.834367 -0.243028
4716214000 0.823972 -0.261051
4728212000 0.811919 -0.276326
4740210000 0.801125 -0.294588
4752208000 0.787458 -0.3146
4764206000 0.779098 -0.330291
4776204000 0.767144 -0.345585
4788202000 0.760372 -0.360808
4800200000 0.747344 -0.376741
4812198000 0.74105 -0.391421
4824196000 0.732217 -0.404591
4836194000 0.718503 -0.413388
4848192000 0.706695 -0.427076
4860190000 0.690708 -0.433725
4872188000 0.678125 -0.443569
4884186000 0.656442 -0.454603
4896184000 0.634556 -0.460266
4908182000 0.616455 -0.472358
4920180000 0.588329 -0.476265
4932178000 0.564405 -0.490154
4944176000 0.534354 -0.49475
4956174000 0.507776 -0.503267
4968172000 0.471965 -0.504611
4980170000 0.438109 -0.50761
4992168000 0.405747 -0.507081
5004166000 0.370302 -0.510148
5016164000 0.333705 -0.510406
5028162000 0.299529 -0.508342
5040160000 0.263154 -0.502289
5052158000 0.228143 -0.496077
5064156000 0.19429 -0.482607
5076154000 0.163986 -0.469186
5088152000 0.131056 -0.455908
5100150000 0.101822 -0.432603
5112148000 0.0802638 -0.410538
5124146000 0.0534601 -0.384322
5136144000 0.0304559 -0.350813
5148142000 0.0128153 -0.319191
5160140000 -0.00174993 -0.278084
5172138000 -0.00570579 -0.240252
5184136000 -0.00931945 -0.196035
5196134000 -0.0127707 -0.147454
5208132000 -0.010389 -0.0969611
5220130000 -0.00953755 -0.0514886
5232128000 -0.00661695 -0.00247917
5244126000 -0.00297494 0.0444812
5256124000 0.00698064 0.0863145
5268122000 0.0146229 0.135689
5280120000 0.0349964 0.16538
5292118000 0.0561579 0.196919
5304116000 0.0879229 0.22174
5316114000 0.118597 0.240388
5328112000 0.155447 0.258185
5340110000 0.197229 0.272619
5352108000 0.226948 0.283531
5364106000 0.26837 0.296097
5376104000 0.29969 0.298353
5388102000 0.333516 0.303553
5400100000 0.366164 0.303139
5412098000 0.394646 0.303462
5424096000 0.424685 0.298314
5436094000 0.453458 0.29475
5448092000 0.478917 0.287973
5460090000 0.506998 0.28027
5472088000 0.531786 0.269375
5484086000 0.558564 0.259207
5496084000 0.584512 0.244085
5508082000 0.608977 0.231803
5520080000 0.630436 0.216876
5532078000 0.652765 0.204505
5544076000 0.672662 0.189178
5556074000 0.692138 0.174352
5568072000 0.706659 0.166347
5580070000 0.723054 0.153271
5592068000 0.73639 0.137185
5604066000 0.751627 0.125142
5616064000 0.757187 0.112784
5628062000 0.769636 0.0976835
5640060000 0.774259 0.0876172
5652058000 0.779842 0.0717652
5664056000 0.784353 0.0585787
5676054000 0.791056 0.0445596
5688052000 0.793111 0.0257298
5700050000 0.797247 0.0116464
5712048000 0.801206 -0.00460214
5724046000 0.805765 -0.0219512
5736044000 0.811555 -0.0381939
5748042000 0.814602 -0.053677
5760040000 0.816994 -0.0709384
5772038000 0.822175 -0.0857985
5784036000 0.82777 -0.101077
5796034000 0.831213 -0.117751
5808032000 0.836616 -0.129683
5820030000 0.840544 -0.149201
5832028000 0.847451 -0.162598
5844026000 0.849354 -0.176291
5856024000 0.854493 -0.191042
5868022000 0.852986 -0.213932
5880020000 0.846786 -0.222767
5892018000 0.855938 -0.237032
5904016000 0.852424 -0.258228
5916014000 0.853374 -0.273708
5928012000 0.842616 -0.290564
5940010000 0.838516 -0.308246
5952008000 0.832196 -0.315803
5964006000 0.824123 -0.32996
5976004000 0.818589 -0.347566
5988002000 0.81153 -0.362076
6000000000 0.801281 -0.374889
