# Hz S RI R 50
1000000 1.00313 -0.00179189
12998000 0.999635 -0.00169904
24996000 0.999605 -0.00258122
36994000 0.999291 -0.00325396
48992000 0.998831 -0.00504602
60990000 0.999147 -0.00715442
72988000 0.99879 -0.00923606
84986000 0.998493 -0.0117432
96984000 0.997833 -0.0148638
108982000 0.997774 -0.0180176
120980000 0.997191 -0.0215621
132978000 0.996669 -0.0256316
144976000 0.996222 -0.0302401
156974000 0.99473 -0.0354852
168972000 0.992028 -0.0368546
180970000 0.993271 -0.0402665
192968000 0.993636 -0.0437425
204966000 0.993551 -0.0471543
216964000 0.994198 -0.0507939
228962000 0.994535 -0.0541692
240960000 0.995601 -0.0575328
252958000 0.99588 -0.0604036
264956000 0.996296 -0.0633701
276954000 0.996512 -0.0660757
288952000 0.996429 -0.0680887
300950000 0.996254 -0.0702791
312948000 0.996523 -0.0723662
324946000 0.99634 -0.0748291
336944000 0.995774 -0.0769439
348942000 0.995448 -0.0792302
360940000 0.994931 -0.081791
372938000 0.994091 -0.0846023
384936000 0.992559 -0.0875395
396934000 0.991858 -0.0900656
408932000 0.990733 -0.093768
420930000 0.989814 -0.0973045
432928000 0.988132 -0.1014
444926000 0.985713 -0.105536
456924000 0.983642 -0.109237
468922000 0.980804 -0.113302
480920000 0.977234 -0.116166
492918000 0.973572 -0.117884
504916000 0.970891 -0.117027
516914000 0.971952 -0.117109
528912000 0.97227 -0.11629
540910000 0.975178 -0.117175
552908000 0.976969 -0.120392
564906000 0.978284 -0.122372
576904000 0.980434 -0.125336
588902000 0.981481 -0.128564
600900000 0.982118 -0.131294
612898000 0.981348 -0.134502
624896000 0.981418 -0.137279
636894000 0.981087 -0.140148
648892000 0.980854 -0.142652
660890000 0.978905 -0.145827
672888000 0.977333 -0.147516
684886000 0.976153 -0.148826
696884000 0.974925 -0.151333
708882000 0.973961 -0.152665
720880000 0.97306 -0.155419
732878000 0.971293 -0.158169
744876000 0.969362 -0.159282
756874000 0.967949 -0.161554
768872000 0.966972 -0.163525
780870000 0.966405 -0.165602
792868000 0.965205 -0.167642
804866000 0.96437 -0.169138
816864000 0.964146 -0.172091
828862000 0.963782 -0.174505
840860000 0.963993 -0.176537
852858000 0.965129 -0.179997
864856000 0.965056 -0.183842
876854000 0.96575 -0.188426
888852000 0.965573 -0.191994
900850000 0.96592 -0.196484
912848000 0.96289 -0.200184
924846000 0.962668 -0.202491
936844000 0.960263 -0.206448
948842000 0.958344 -0.209933
960840000 0.958403 -0.211492
972838000 0.957928 -0.214066
984836000 0.957771 -0.217148
996834000 0.955872 -0.220484
1008832000 0.95375 -0.222688
1020830000 0.952233 -0.224123
1032828000 0.951664 -0.22529
1044826000 0.950723 -0.226284
1056824000 0.949848 -0.22792
1068822000 0.949912 -0.229118
1080820000 0.949151 -0.231219
1092818000 0.948318 -0.232701
1104816000 0.947193 -0.234961
1116814000 0.945976 -0.235856
1128812000 0.945485 -0.236879
1140810000 0.944967 -0.238532
1152808000 0.944617 -0.240673
1164806000 0.9434 -0.242781
1176804000 0.940731 -0.246347
1188802000 0.938928 -0.249848
1200800000 0.936592 -0.255178
1212798000 0.935731 -0.257373
1224796000 0.935585 -0.260451
1236794000 0.933731 -0.265257
1248792000 0.931797 -0.27004
1260790000 0.928147 -0.274668
1272788000 0.924256 -0.277745
1284786000 0.922588 -0.279971
1296784000 0.921731 -0.283415
1308782000 0.919867 -0.286478
1320780000 0.917858 -0.288746
1332778000 0.917301 -0.291836
1344776000 0.917551 -0.29387
1356774000 0.916296 -0.294893
1368772000 0.916103 -0.295854
1380770000 0.915137 -0.296949
1392768000 0.914782 -0.297536
1404766000 0.914031 -0.299056
1416764000 0.91278 -0.300768
1428762000 0.910878 -0.301868
1440760000 0.909301 -0.303383
1452758000 0.906304 -0.304737
1464756000 0.904664 -0.305398
1476754000 0.903602 -0.307003
1488752000 0.900777 -0.307955
1500750000 0.903093 -0.307219
1512748000 0.898217 -0.313547
1524746000 0.894736 -0.319084
1536744000 0.892014 -0.320511
1548742000 0.890038 -0.324217
1560740000 0.887327 -0.32639
1572738000 0.884371 -0.328032
1584736000 0.883561 -0.329541
1596734000 0.883797 -0.331582
1608732000 0.884903 -0.334785
1620730000 0.88685 -0.338356
1632728000 0.886851 -0.341131
1644726000 0.887564 -0.3437
1656724000 0.886379 -0.345409
1668722000 0.887065 -0.346594
1680720000 0.886506 -0.349736
1692718000 0.886121 -0.352119
1704716000 0.885104 -0.354652
1716714000 0.883762 -0.356279
1728712000 0.881814 -0.357903
1740710000 0.880368 -0.358267
1752708000 0.879235 -0.359816
1764706000 0.878081 -0.362249
1776704000 0.874143 -0.366091
1788702000 0.870641 -0.36793
1800700000 0.867213 -0.369757
1812698000 0.863594 -0.371433
1824696000 0.860561 -0.373116
1836694000 0.857039 -0.378013
1848692000 0.85298 -0.380346
1860690000 0.849673 -0.386614
1872688000 0.845679 -0.391828
1884686000 0.841469 -0.397348
1896684000 0.838168 -0.402029
1908682000 0.833498 -0.40627
1920680000 0.828679 -0.412207
1932678000 0.824713 -0.415853
1944676000 0.819055 -0.419771
1956674000 0.81706 -0.423233
1968672000 0.813623 -0.425189
1980670000 0.811533 -0.426557
1992668000 0.808737 -0.427115
2004666000 0.806306 -0.425676
2016664000 0.803948 -0.423549
2028662000 0.803655 -0.420516
2040660000 0.802972 -0.418568
2052658000 0.803313 -0.416083
2064656000 0.804872 -0.415158
2076654000 0.804432 -0.413458
2088652000 0.803901 -0.41383
2100650000 0.801454 -0.413968
2112648000 0.799551 -0.412384
2124646000 0.798015 -0.411522
2136644000 0.797752 -0.414606
2148642000 0.797256 -0.417001
2160640000 0.794702 -0.419765
2172638000 0.792832 -0.42282
2184636000 0.792874 -0.42623
2196634000 0.790779 -0.431908
2208632000 0.789538 -0.436303
2220630000 0.79111 -0.442265
2232628000 0.789932 -0.445631
2244626000 0.788862 -0.451821
2256624000 0.789286 -0.455203
2268622000 0.789865 -0.45941
2280620000 0.789681 -0.46424
2292618000 0.789457 -0.470241
2304616000 0.788176 -0.47471
2316614000 0.784024 -0.478117
2328612000 0.779246 -0.4792
2340610000 0.775333 -0.480075
2352608000 0.77422 -0.480959
2364606000 0.769416 -0.48449
2376604000 0.765722 -0.483726
2388602000 0.764213 -0.482438
2400600000 0.762424 -0.483913
2412598000 0.759304 -0.485832
2424596000 0.756179 -0.488487
2436594000 0.750829 -0.491247
2448592000 0.748359 -0.494332
2460590000 0.745135 -0.499147
2472588000 0.740263 -0.504129
2484586000 0.734238 -0.508991
2496584000 0.729083 -0.50915
2508582000 0.727114 -0.517029
2520580000 0.721878 -0.522489
2532578000 0.717921 -0.523728
2544576000 0.713066 -0.530319
2556574000 0.707933 -0.536705
2568572000 0.703282 -0.540535
2580570000 0.699664 -0.543802
2592568000 0.694408 -0.549175
2604566000 0.689614 -0.551706
2616564000 0.686798 -0.555501
2628562000 0.682841 -0.558057
2640560000 0.678795 -0.562278
2652558000 0.670818 -0.56576
2664556000 0.664871 -0.567429
2676554000 0.660142 -0.566613
2688552000 0.654823 -0.567911
2700550000 0.65034 -0.567871
2712548000 0.643735 -0.569079
2724546000 0.638962 -0.567396
2736544000 0.634904 -0.567745
2748542000 0.6303 -0.570512
2760540000 0.622814 -0.571609
2772538000 0.616676 -0.572092
2784536000 0.609972 -0.573379
2796534000 0.603352 -0.574868
2808532000 0.597958 -0.575406
2820530000 0.591179 -0.576352
2832528000 0.584784 -0.577579
2844526000 0.578702 -0.579524
2856524000 0.573852 -0.580399
2868522000 0.570929 -0.583148
2880520000 0.564294 -0.586227
2892518000 0.557009 -0.589238
2904516000 0.549469 -0.590265
2916514000 0.541659 -0.59421
2928512000 0.532984 -0.593209
2940510000 0.524208 -0.593231
2952508000 0.518012 -0.590456
2964506000 0.511532 -0.587261
2976504000 0.506301 -0.58428
2988502000 0.504622 -0.580995
3000500000 0.501329 -0.57857
3012498000 0.498109 -0.577472
3024496000 0.497287 -0.576548
3036494000 0.494773 -0.576807
3048492000 0.493741 -0.576617
3060490000 0.489664 -0.578868
3072488000 0.486407 -0.576442
3084486000 0.482993 -0.577131
3096484000 0.481824 -0.576502
3108482000 0.480275 -0.57699
3120480000 0.480505 -0.578372
3132478000 0.480456 -0.581824
3144476000 0.47641 -0.584072
3156474000 0.472409 -0.588794
3168472000 0.46544 -0.591702
3180470000 0.459304 -0.593307
3192468000 0.453702 -0.594783
3204466000 0.443769 -0.600282
3216464000 0.434267 -0.600155
3228462000 0.424247 -0.600559
3240460000 0.414685 -0.601711
3252458000 0.403178 -0.601599
3264456000 0.393582 -0.597811
3276454000 0.38763 -0.595073
3288452000 0.380301 -0.593421
3300450000 0.375326 -0.591709
3312448000 0.366134 -0.591569
3324446000 0.362246 -0.585401
3336444000 0.361689 -0.586005
3348442000 0.357698 -0.58513
3360440000 0.355372 -0.584245
3372438000 0.354676 -0.584035
3384436000 0.353626 -0.585845
3396434000 0.349816 -0.588102
3408432000 0.341644 -0.58559
3420430000 0.337382 -0.579024
3432428000 0.336909 -0.574696
3444426000 0.335411 -0.571328
3456424000 0.332375 -0.571519
3468422000 0.325214 -0.565762
3480420000 0.319964 -0.562353
3492418000 0.314873 -0.558292
3504416000 0.306442 -0.559303
3516414000 0.300072 -0.554104
3528412000 0.292323 -0.553365
3540410000 0.28468 -0.55364
3552408000 0.273287 -0.550118
3564406000 0.267103 -0.546493
3576404000 0.263042 -0.543163
3588402000 0.257221 -0.545465
3600400000 0.254342 -0.543609
3612398000 0.248897 -0.548364
3624396000 0.242323 -0.550186
3636394000 0.23522 -0.552777
3648392000 0.228221 -0.554514
3660390000 0.225222 -0.555415
3672388000 0.221585 -0.553571
3684386000 0.219417 -0.555275
3696384000 0.214837 -0.553897
3708382000 0.215208 -0.554898
3720380000 0.20876 -0.55444
3732378000 0.20651 -0.553656
3744376000 0.199447 -0.550959
3756374000 0.19248 -0.544342
3768372000 0.187761 -0.536367
3780370000 0.183889 -0.534421
3792368000 0.17433 -0.529227
3804366000 0.166881 -0.523654
3816364000 0.159852 -0.515456
3828362000 0.151797 -0.510517
3840360000 0.14428 -0.503895
3852358000 0.134394 -0.504566
3864356000 0.12275 -0.498688
3876354000 0.110841 -0.489587
3888352000 0.104728 -0.488015
3900350000 0.0937142 -0.483005
3912348000 0.0854983 -0.481383
3924346000 0.0800349 -0.479611
3936344000 0.0727916 -0.479895
3948342000 0.0637235 -0.475773
3960340000 0.0616988 -0.472772
3972338000 0.0567909 -0.472812
3984336000 0.0523284 -0.470871
3996334000 0.0471361 -0.466112
4008332000 0.0460393 -0.458993
4020330000 0.0476043 -0.456737
4032328000 0.0466431 -0.452528
4044326000 0.0432656 -0.443589
4056324000 0.0490538 -0.434251
4068322000 0.0508716 -0.426739
4080320000 0.0560485 -0.417819
4092318000 0.0589248 -0.412754
4104316000 0.059091 -0.413201
4116314000 0.0524665 -0.404185
4128312000 0.0487544 -0.392833
4140310000 0.0513402 -0.389166
4152308000 0.0402593 -0.384684
4164306000 0.0308577 -0.377727
4176304000 0.0183638 -0.371065
4188302000 0.00094923 -0.357319
4200300000 -0.00323758 -0.33812
4212298000 -0.00371975 -0.3336
4224296000 -0.0102001 -0.329436
4236294000 -0.0136848 -0.323485
4248292000 -0.0218245 -0.323976
4260290000 -0.0330563 -0.317028
4272288000 -0.0334517 -0.304859
4284286000 -0.0293838 -0.300245
4296284000 -0.027687 -0.300101
4308282000 -0.0230415 -0.298452
4320280000 -0.0234785 -0.29864
4332278000 -0.0195307 -0.296986
4344276000 -0.0157784 -0.294701
4356274000 -0.0124432 -0.293603
4368272000 -0.00787839 -0.290079
4380270000 -0.00503912 -0.283028
4392268000 0.000832731 -0.27993
4404266000 0.00238033 -0.27652
4416264000 0.0028945 -0.270195
4428262000 0.0044481 -0.258681
4440260000 0.00257117 -0.247422
4452258000 0.00916078 -0.237475
4464256000 0.00635303 -0.22867
4476254000 0.00897727 -0.220441
4488252000 0.00730622 -0.218245
4500250000 -0.00126841 -0.212764
4512248000 -0.00378055 -0.198717
4524246000 -0.00565147 -0.196191
4536244000 -0.0136805 -0.189018
4548242000 -0.0155871 -0.185435
4560240000 -0.0253147 -0.180934
4572238000 -0.0247069 -0.176839
4584236000 -0.0260127 -0.176993
4596234000 -0.0267433 -0.177441
4608232000 -0.0246534 -0.176859
4620230000 -0.0208145 -0.186175
4632228000 -0.0241967 -0.194604
4644226000 -0.0277781 -0.199983
4656224000 -0.0323429 -0.20398
4668222000 -0.0368569 -0.203902
4680220000 -0.0385834 -0.196439
4692218000 -0.0341824 -0.188606
4704216000 -0.0241894 -0.184981
4716214000 -0.0216622 -0.180763
4728212000 -0.0185151 -0.176813
4740210000 -0.0169653 -0.168208
4752208000 -0.0111276 -0.160808
4764206000 -0.013021 -0.154183
4776204000 -0.0105396 -0.142426
4788202000 -0.00838182 -0.130587
4800200000 -0.0101395 -0.124114
4812198000 -0.0135016 -0.112405
4824196000 -0.0153559 -0.105451
4836194000 -0.0278119 -0.094496
4848192000 -0.0304532 -0.0802034
4860190000 -0.0315227 -0.0728396
4872188000 -0.0343688 -0.0712192
4884186000 -0.0447502 -0.066524
4896184000 -0.0507871 -0.0584902
4908182000 -0.0563313 -0.0541713
4920180000 -0.0557994 -0.0491265
4932178000 -0.0573966 -0.0517571
4944176000 -0.0596075 -0.0485563
4956174000 -0.0581216 -0.0495196
4968172000 -0.057985 -0.048379
4980170000 -0.0569006 -0.0425323
4992168000 -0.0469384 -0.0356995
5004166000 -0.0335379 -0.0351189
5016164000 -0.0271401 -0.0413857
5028162000 -0.0226242 -0.0381441
5040160000 -0.0126314 -0.0285106
5052158000 0.000861073 -0.0236175
5064156000 0.0067146 -0.0216114
5076154000 0.0194213 -0.0130358
5088152000 0.0275585 -0.00961376
5100150000 0.0295011 -0.00489679
5112148000 0.0303301 0.00213867
5124146000 0.0283586 0.01491
5136144000 0.0303848 0.0240404
5148142000 0.0254968 0.0378307
5160140000 0.0285447 0.0491548
5172138000 0.0233309 0.0594886
5184136000 0.0203251 0.0634257
5196134000 0.0141804 0.0731049
5208132000 0.00710337 0.0796528
5220130000 0.00908031 0.0866121
5232128000 0.00441859 0.0896304
5244126000 0.00630685 0.0889909
5256124000 0.00236017 0.0850899
5268122000 -0.00185662 0.084184
5280120000 0.00254588 0.0898761
5292118000 0.0124914 0.0851933
5304116000 0.0212726 0.0784802
5316114000 0.0284275 0.0717907
5328112000 0.033215 0.0665221
5340110000 0.0411726 0.0649555
5352108000 0.0484582 0.0600661
5364106000 0.0553928 0.0627825
5376104000 0.0639742 0.0723193
5388102000 0.0792653 0.0767894
5400100000 0.0914257 0.0827648
5412098000 0.105591 0.0850959
5424096000 0.111307 0.0902887
5436094000 0.11891 0.100396
5448092000 0.128602 0.11043
5460090000 0.13844 0.119434
5472088000 0.146512 0.121067
5484086000 0.141979 0.126189
5496084000 0.147127 0.130773
5508082000 0.142257 0.135845
5520080000 0.138481 0.141517
5532078000 0.137973 0.148266
5544076000 0.141454 0.148303
5556074000 0.138604 0.141485
5568072000 0.133451 0.139123
5580070000 0.132006 0.133758
5592068000 0.131364 0.13047
5604066000 0.132932 0.12294
5616064000 0.135907 0.114955
5628062000 0.13912 0.107277
5640060000 0.142455 0.0941407
5652058000 0.143004 0.0875832
5664056000 0.148219 0.0856259
5676054000 0.15522 0.0808587
5688052000 0.161291 0.0816193
5700050000 0.176533 0.0844867
5712048000 0.188793 0.0832036
5724046000 0.200073 0.0811739
5736044000 0.202645 0.0850355
5748042000 0.212722 0.0917
5760040000 0.218464 0.0932452
5772038000 0.216574 0.108387
5784036000 0.223502 0.116662
5796034000 0.223348 0.125932
5808032000 0.222599 0.136001
5820030000 0.224176 0.141917
5832028000 0.215427 0.150278
5844026000 0.209183 0.157961
5856024000 0.204623 0.165362
5868022000 0.198011 0.170751
5880020000 0.195926 0.170933
5892018000 0.187638 0.167842
5904016000 0.183055 0.16938
5916014000 0.181994 0.165497
5928012000 0.178069 0.156525
5940010000 0.174863 0.152134
5952008000 0.175656 0.14688
5964006000 0.176471 0.138642
5976004000 0.182676 0.13367
5988002000 0.192737 0.12946
6000000000 0.204945 0.120189
