# Hz S RI R 50
1000000 1.00225 -0.0152895
12998000 0.954284 -0.210894
24996000 0.891341 -0.383426
36994000 0.803092 -0.539244
48992000 0.687811 -0.680379
60990000 0.550079 -0.792612
72988000 0.395322 -0.877073
84986000 0.228338 -0.93048
96984000 0.0570075 -0.951772
108982000 -0.11297 -0.94157
120980000 -0.275835 -0.90267
132978000 -0.442693 -0.808481
144976000 -0.535049 -0.744875
156974000 -0.57411 -0.686438
168972000 -0.717663 -0.596363
180970000 -0.804906 -0.476178
192968000 -0.866289 -0.35213
204966000 -0.905208 -0.222527
216964000 -0.927707 -0.103995
228962000 -0.936958 0.023039
240960000 -0.926766 0.147841
252958000 -0.899525 0.26775
264956000 -0.857688 0.38037
276954000 -0.802646 0.484681
288952000 -0.735486 0.580441
300950000 -0.657956 0.665955
312948000 -0.572999 0.738601
324946000 -0.479792 0.801595
336944000 -0.381179 0.852304
348942000 -0.280081 0.889831
360940000 -0.177389 0.915715
372938000 -0.0742307 0.929829
384936000 0.0297483 0.933703
396934000 0.133191 0.927245
408932000 0.235604 0.909157
420930000 0.33684 0.879056
432928000 0.433831 0.838168
444926000 0.526341 0.784414
456924000 0.612832 0.719701
468922000 0.692176 0.643139
480920000 0.763058 0.556621
492918000 0.823203 0.460993
504916000 0.87224 0.356573
516914000 0.908018 0.245272
528912000 0.929152 0.128052
540910000 0.935161 0.00643161
552908000 0.924908 -0.118445
564906000 0.894804 -0.244378
576904000 0.845081 -0.368669
588902000 0.775786 -0.486878
600900000 0.683203 -0.59773
612898000 0.569172 -0.697174
624896000 0.431212 -0.773421
636894000 0.279203 -0.819267
648892000 0.125079 -0.839784
660890000 -0.0389889 -0.835325
672888000 -0.206606 -0.799695
684886000 -0.372313 -0.724074
696884000 -0.523186 -0.609207
708882000 -0.648406 -0.457265
720880000 -0.736339 -0.277259
732878000 -0.779842 -0.0716521
744876000 -0.769143 0.137202
756874000 -0.708444 0.336877
768872000 -0.601818 0.514875
780870000 -0.456905 0.656071
792868000 -0.288343 0.756856
804866000 -0.107714 0.81247
816864000 0.070913 0.82616
828862000 0.239723 0.802762
840860000 0.392744 0.749709
852858000 0.524874 0.672109
864856000 0.63754 0.577324
876854000 0.727937 0.469261
888852000 0.797114 0.351947
900850000 0.84626 0.231274
912848000 0.876688 0.107426
924846000 0.888657 -0.0167588
936844000 0.88223 -0.139023
948842000 0.860761 -0.256506
960840000 0.823325 -0.367288
972838000 0.773287 -0.470363
984836000 0.71083 -0.562834
996834000 0.638579 -0.646277
1008832000 0.558116 -0.718809
1020830000 0.472737 -0.779781
1032828000 0.381777 -0.828374
1044826000 0.287711 -0.866425
1056824000 0.192149 -0.894248
1068822000 0.0950864 -0.910947
1080820000 -0.00240907 -0.916863
1092818000 -0.0993135 -0.912777
1104816000 -0.194121 -0.897845
1116814000 -0.287746 -0.873628
1128812000 -0.379611 -0.839494
1140810000 -0.463874 -0.794636
1152808000 -0.547949 -0.742124
1164806000 -0.623885 -0.678514
1176804000 -0.69327 -0.606049
1188802000 -0.753206 -0.528807
1200800000 -0.804233 -0.444491
1212798000 -0.845536 -0.35826
1224796000 -0.87737 -0.268672
1236794000 -0.89936 -0.173543
1248792000 -0.909298 -0.0818732
1260790000 -0.909577 0.00853556
1272788000 -0.904565 0.0984477
1284786000 -0.886979 0.184911
1296784000 -0.862281 0.270705
1308782000 -0.828358 0.352891
1320780000 -0.786182 0.432432
1332778000 -0.736129 0.506051
1344776000 -0.678639 0.573779
1356774000 -0.612644 0.63741
1368772000 -0.537849 0.694338
1380770000 -0.456924 0.744914
1392768000 -0.368673 0.784301
1404766000 -0.276505 0.814038
1416764000 -0.179473 0.834283
1428762000 -0.0820058 0.844202
1440760000 0.0166598 0.8428
1452758000 0.114963 0.830609
1464756000 0.212252 0.807044
1476754000 0.304817 0.772543
1488752000 0.393687 0.725578
1500750000 0.475679 0.668307
1512748000 0.552279 0.5965
1524746000 0.619066 0.510903
1536744000 0.672271 0.410997
1548742000 0.708751 0.294458
1560740000 0.724014 0.16575
1572738000 0.709014 0.0260607
1584736000 0.657654 -0.120179
1596734000 0.55762 -0.260622
1608732000 0.408086 -0.37342
1620730000 0.21885 -0.432297
1632728000 0.0112165 -0.422599
1644726000 -0.177992 -0.329362
1656724000 -0.316362 -0.173291
1668722000 -0.380908 0.0191096
1680720000 -0.374569 0.207838
1692718000 -0.305928 0.372005
1704716000 -0.199608 0.494795
1716714000 -0.0721911 0.575721
1728712000 0.0581508 0.617908
1740710000 0.19069 0.631606
1752708000 0.306648 0.616577
1764706000 0.414987 0.584185
1776704000 0.505506 0.537401
1788702000 0.580781 0.478821
1800700000 0.644278 0.419411
1812698000 0.695947 0.356588
1824696000 0.738359 0.290696
1836694000 0.769597 0.222456
1848692000 0.790126 0.153769
1860690000 0.803218 0.0875549
1872688000 0.811086 0.0213234
1884686000 0.810297 -0.0461853
1896684000 0.80597 -0.112609
1908682000 0.789551 -0.180376
1920680000 0.763828 -0.241806
1932678000 0.739412 -0.303784
1944676000 0.706712 -0.366329
1956674000 0.661758 -0.423593
1968672000 0.616101 -0.478936
1980670000 0.566096 -0.524833
1992668000 0.510757 -0.569269
2004666000 0.458527 -0.604422
2016664000 0.399127 -0.638202
2028662000 0.339733 -0.661946
2040660000 0.27917 -0.678932
2052658000 0.218886 -0.685998
2064656000 0.158029 -0.691904
2076654000 0.0952027 -0.680829
2088652000 0.0384584 -0.661223
2100650000 -0.0114623 -0.620316
2112648000 -0.0247057 -0.56367
2124646000 0.019783 -0.557526
2136644000 0.00155476 -0.648478
2148642000 -0.112973 -0.676934
2160640000 -0.212968 -0.642039
2172638000 -0.288173 -0.582804
2184636000 -0.340728 -0.516866
2196634000 -0.384217 -0.443664
2208632000 -0.41603 -0.373341
2220630000 -0.438835 -0.290515
2232628000 -0.43284 -0.209141
2244626000 -0.423195 -0.144512
2256624000 -0.406095 -0.0750889
2268622000 -0.374594 -0.00610421
2280620000 -0.316714 0.0438283
2292618000 -0.271063 0.0661347
2304616000 -0.222744 0.0999709
2316614000 -0.16194 0.125203
2328612000 -0.101564 0.124533
2340610000 -0.0361844 0.114193
2352608000 0.015451 0.0794815
2364606000 0.0390953 0.0490311
2376604000 0.0850923 0.018306
2388602000 0.108928 -0.0337349
2400600000 0.119511 -0.0874597
2412598000 0.118005 -0.130492
2424596000 0.108372 -0.177035
2436594000 0.0859054 -0.212627
2448592000 0.0624744 -0.239404
2460590000 0.0295214 -0.261365
2472588000 -0.00826586 -0.277606
2484586000 -0.0485665 -0.27576
2496584000 -0.092231 -0.26691
2508582000 -0.125031 -0.245764
2520580000 -0.146357 -0.213641
2532578000 -0.1636 -0.187953
2544576000 -0.17026 -0.166659
2556574000 -0.181121 -0.140147
2568572000 -0.175314 -0.117612
2580570000 -0.169565 -0.106759
2592568000 -0.165713 -0.112231
2604566000 -0.175509 -0.11129
2616564000 -0.181109 -0.119138
2628562000 -0.207979 -0.119099
2640560000 -0.233075 -0.110537
2652558000 -0.264093 -0.100488
2664556000 -0.294096 -0.0635454
2676554000 -0.309115 -0.0308645
2688552000 -0.317849 0.0105146
2700550000 -0.318177 0.0511543
2712548000 -0.308478 0.104152
2724546000 -0.275184 0.151849
2736544000 -0.235799 0.189553
2748542000 -0.201609 0.21807
2760540000 -0.145479 0.243533
2772538000 -0.0902023 0.249511
2784536000 -0.0381749 0.250463
2796534000 0.0184264 0.239055
2808532000 0.0632006 0.213352
2820530000 0.0956251 0.187159
2832528000 0.13281 0.146232
2844526000 0.143746 0.108651
2856524000 0.154028 0.0727789
2868522000 0.149138 0.0325404
2880520000 0.128014 -0.00317611
2892518000 0.107199 -0.0181946
2904516000 0.0815534 -0.0401123
2916514000 0.0455802 -0.0372549
2928512000 0.0166272 -0.0345978
2940510000 -0.0164834 -0.0177067
2952508000 -0.0395068 0.0079655
2964506000 -0.0539762 0.0426508
2976504000 -0.0580573 0.0770504
2988502000 -0.0551724 0.117821
3000500000 -0.0367329 0.151296
3012498000 -0.00842845 0.189665
3024496000 0.0335787 0.216739
3036494000 0.0816964 0.230162
3048492000 0.133286 0.236682
3060490000 0.188624 0.228009
3072488000 0.236689 0.209415
3084486000 0.285608 0.188175
3096484000 0.330827 0.154501
3108482000 0.371413 0.118049
3120480000 0.406708 0.0731318
3132478000 0.431108 0.0225946
3144476000 0.449843 -0.024817
3156474000 0.462747 -0.0770022
3168472000 0.464451 -0.128358
3180470000 0.46239 -0.172689
3192468000 0.455711 -0.217072
3204466000 0.448549 -0.261423
3216464000 0.432158 -0.306115
3228462000 0.413374 -0.349054
3240460000 0.387701 -0.388989
3252458000 0.360492 -0.427223
3264456000 0.32732 -0.462337
3276454000 0.291467 -0.495977
3288452000 0.250557 -0.527801
3300450000 0.207027 -0.558085
3312448000 0.158267 -0.579926
3324446000 0.107932 -0.599422
3336444000 0.0520826 -0.612392
3348442000 0.00184329 -0.617124
3360440000 -0.0510812 -0.621101
3372438000 -0.103402 -0.617376
3384436000 -0.153048 -0.611352
3396434000 -0.203402 -0.596562
3408432000 -0.251247 -0.57806
3420430000 -0.293888 -0.55386
3432428000 -0.333453 -0.524594
3444426000 -0.372244 -0.490812
3456424000 -0.405238 -0.452235
3468422000 -0.424412 -0.417329
3480420000 -0.45774 -0.361785
3492418000 -0.475556 -0.311701
3504416000 -0.488781 -0.254623
3516414000 -0.493631 -0.195785
3528412000 -0.490731 -0.1319
3540410000 -0.476923 -0.0675658
3552408000 -0.452222 -0.00612667
3564406000 -0.419231 0.0491881
3576404000 -0.378601 0.0987325
3588402000 -0.328357 0.143101
3600400000 -0.270746 0.177122
3612398000 -0.208786 0.200975
3624396000 -0.14142 0.212281
3636394000 -0.0726072 0.206615
3648392000 -0.00670112 0.186401
3660390000 0.0559713 0.151224
3672388000 0.10885 0.100697
3684386000 0.150162 0.0366911
3696384000 0.174045 -0.0346799
3708382000 0.180148 -0.111827
3720380000 0.167742 -0.186917
3732378000 0.142671 -0.256488
3744376000 0.105474 -0.317881
3756374000 0.052995 -0.369203
3768372000 -0.00548219 -0.406264
3780370000 -0.0659583 -0.430403
3792368000 -0.130046 -0.440494
3804366000 -0.189414 -0.435834
3816364000 -0.245986 -0.422865
3828362000 -0.295768 -0.396694
3840360000 -0.340651 -0.365215
3852358000 -0.377639 -0.326013
3864356000 -0.409352 -0.282627
3876354000 -0.433501 -0.231258
3888352000 -0.448755 -0.175373
3900350000 -0.454362 -0.118302
3912348000 -0.451346 -0.0593335
3924346000 -0.437705 -0.00238632
3936344000 -0.414985 0.0541949
3948342000 -0.381247 0.106126
3960340000 -0.338442 0.147196
3972338000 -0.286451 0.183134
3984336000 -0.226041 0.204852
3996334000 -0.165772 0.213741
4008332000 -0.0967378 0.212531
4020330000 -0.0247913 0.19149
4032328000 0.0410395 0.147035
4044326000 0.0921785 0.0876959
4056324000 0.132665 0.0177534
4068322000 0.153302 -0.0641509
4080320000 0.158333 -0.151413
4092318000 0.139584 -0.237818
4104316000 0.102835 -0.318023
4116314000 0.05314 -0.384882
4128312000 -0.00454988 -0.447874
4140310000 -0.0757695 -0.496239
4152308000 -0.152024 -0.531047
4164306000 -0.230601 -0.549677
4176304000 -0.311197 -0.556057
4188302000 -0.392635 -0.541857
4200300000 -0.474858 -0.510624
4212298000 -0.551248 -0.463132
4224296000 -0.618498 -0.40259
4236294000 -0.674041 -0.334123
4248292000 -0.715931 -0.261069
4260290000 -0.749354 -0.186159
4272288000 -0.772273 -0.112735
4284286000 -0.788848 -0.0362408
4296284000 -0.794899 0.0380906
4308282000 -0.794446 0.107957
4320280000 -0.783805 0.179066
4332278000 -0.770859 0.245079
4344276000 -0.749521 0.31082
4356274000 -0.72304 0.374111
4368272000 -0.691327 0.428942
4380270000 -0.652775 0.48297
4392268000 -0.610754 0.531515
4404266000 -0.563625 0.576733
4416264000 -0.513762 0.616679
4428262000 -0.456941 0.653296
4440260000 -0.396194 0.681594
4452258000 -0.328859 0.703769
4464256000 -0.254553 0.717923
4476254000 -0.175047 0.723123
4488252000 -0.0927512 0.71682
4500250000 -0.00621559 0.698003
4512248000 0.0728677 0.666246
4524246000 0.14575 0.624192
4536244000 0.21114 0.577526
4548242000 0.275684 0.525305
4560240000 0.337082 0.458197
4572238000 0.383668 0.372487
4584236000 0.401767 0.274525
4596234000 0.386692 0.179789
4608232000 0.342054 0.107484
4620230000 0.278061 0.0704652
4632228000 0.224667 0.0706889
4644226000 0.195844 0.0922689
4656224000 0.194305 0.122187
4668222000 0.221716 0.139227
4680220000 0.263726 0.132035
4692218000 0.304134 0.0971098
4704216000 0.334096 0.0388223
4716214000 0.342682 -0.0342574
4728212000 0.328853 -0.113572
4740210000 0.294258 -0.1891
4752208000 0.243566 -0.2574
4764206000 0.179786 -0.313443
4776204000 0.105628 -0.354507
4788202000 0.0287817 -0.380413
4800200000 -0.0475684 -0.394694
4812198000 -0.119714 -0.390551
4824196000 -0.185599 -0.377663
4836194000 -0.24246 -0.354176
4848192000 -0.294341 -0.325649
4860190000 -0.337184 -0.286061
4872188000 -0.367263 -0.243257
4884186000 -0.392536 -0.198397
4896184000 -0.404458 -0.147723
4908182000 -0.407196 -0.0983482
4920180000 -0.400876 -0.0509613
4932178000 -0.390223 -0.00356215
4944176000 -0.370461 0.0389848
4956174000 -0.347417 0.0728306
4968172000 -0.319771 0.102922
4980170000 -0.293652 0.125303
4992168000 -0.264575 0.14395
5004166000 -0.240656 0.155243
5016164000 -0.217448 0.156083
5028162000 -0.200822 0.153898
5040160000 -0.19054 0.148037
5052158000 -0.183413 0.139255
5064156000 -0.185024 0.125324
5076154000 -0.189355 0.115467
5088152000 -0.20373 0.105638
5100150000 -0.212999 0.100173
5112148000 -0.230461 0.0931508
5124146000 -0.246942 0.091601
5136144000 -0.265069 0.0964277
5148142000 -0.275765 0.108177
5160140000 -0.284898 0.119364
5172138000 -0.289972 0.134236
5184136000 -0.289718 0.152033
5196134000 -0.282895 0.166939
5208132000 -0.270968 0.183576
5220130000 -0.250787 0.199069
5232128000 -0.223697 0.210583
5244126000 -0.199187 0.219444
5256124000 -0.169497 0.227459
5268122000 -0.133638 0.22894
5280120000 -0.11517 0.237187
5292118000 -0.0915948 0.235848
5304116000 -0.0752279 0.22997
5316114000 -0.0664517 0.223733
5328112000 -0.0584626 0.214519
5340110000 -0.0556252 0.198725
5352108000 -0.0607305 0.182607
5364106000 -0.0660251 0.169449
5376104000 -0.0776049 0.151211
5388102000 -0.0925349 0.138545
5400100000 -0.10708 0.122412
5412098000 -0.129326 0.113483
5424096000 -0.146991 0.107851
5436094000 -0.170966 0.102242
5448092000 -0.190795 0.102521
5460090000 -0.209867 0.100855
5472088000 -0.228588 0.101048
5484086000 -0.247287 0.106782
5496084000 -0.261329 0.114958
5508082000 -0.27365 0.123189
5520080000 -0.28677 0.138567
5532078000 -0.293139 0.156098
5544076000 -0.294724 0.174442
5556074000 -0.294203 0.195206
5568072000 -0.28921 0.2162
5580070000 -0.280466 0.238004
5592068000 -0.27034 0.261946
5604066000 -0.256842 0.285079
5616064000 -0.241021 0.309788
5628062000 -0.22233 0.334546
5640060000 -0.201859 0.354831
5652058000 -0.181163 0.376658
5664056000 -0.156579 0.397235
5676054000 -0.132488 0.409266
5688052000 -0.112567 0.423765
5700050000 -0.091749 0.430181
5712048000 -0.0710136 0.433715
5724046000 -0.0544049 0.433901
5736044000 -0.0392761 0.433374
5748042000 -0.0215426 0.427062
5760040000 -0.00664287 0.418036
5772038000 0.00665818 0.407186
5784036000 0.0194139 0.392517
5796034000 0.0307162 0.370219
5808032000 0.0364966 0.34858
5820030000 0.0447187 0.323875
5832028000 0.0442379 0.297036
5844026000 0.0438276 0.273543
5856024000 0.0406094 0.250556
5868022000 0.035702 0.229112
5880020000 0.0253617 0.215318
5892018000 0.0176633 0.201853
5904016000 0.00495807 0.195967
5916014000 -0.00594693 0.198249
5928012000 -0.0161296 0.205162
5940010000 -0.0271348 0.217935
5952008000 -0.0363701 0.243021
5964006000 -0.0374457 0.271731
5976004000 -0.0333719 0.300543
5988002000 -0.0268604 0.332597
6000000000 -0.00958173 0.370886
