# Hz S RI R 50
1000000 1.00763 -0.0155043 0.000434371 -0.00197384 -0.000149412 -0.00035663 0.994946 -0.021236
12998000 0.958185 -0.210585 3.34176e-05 0.000112379 5.49412e-05 4.07323e-05 0.962605 -0.199022
24996000 0.895112 -0.384882 -0.000181314 -6.30195e-05 -0.000161096 -4.28646e-05 0.902577 -0.37453
36994000 0.804789 -0.540484 -0.000912578 0.00367525 -0.000838946 0.00369559 0.814528 -0.529702
48992000 0.690449 -0.681974 0.000662886 0.00153919 0.000707201 0.00153263 0.7036 -0.671298
60990000 0.552216 -0.795214 0.0013693 0.00139537 0.00136291 0.00136 0.569811 -0.78544
72988000 0.395956 -0.879364 0.0024577 0.00116786 0.00248306 0.00114696 0.417483 -0.871009
84986000 0.229089 -0.932557 0.00332674 0.000863283 0.00332361 0.000842403 0.253975 -0.926729
96984000 0.0575219 -0.954169 0.0049558 0.000436654 0.00492905 0.000377104 0.0859921 -0.952171
108982000 -0.11276 -0.944749 0.00792134 -0.000980372 0.00789867 -0.00109242 -0.0823184 -0.947869
120980000 -0.28054 -0.902946 0.0154192 -0.00718483 0.0153591 -0.00729159 -0.251412 -0.911423
132978000 -0.454994 -0.80686 0.0375674 -0.04112 0.037074 -0.0414381 -0.430639 -0.817033
144976000 -0.482587 -0.792443 -0.0210366 0.01908 -0.0208834 0.0193397 -0.45633 -0.806429
156974000 -0.632443 -0.695713 -0.0108334 0.0108677 -0.0107815 0.0109431 -0.610355 -0.713811
168972000 -0.734924 -0.584659 -0.00640941 0.0103603 -0.00631145 0.0103684 -0.717852 -0.603834
180970000 -0.814215 -0.465361 -0.0041685 0.0113599 -0.00401823 0.0114077 -0.80313 -0.483337
192968000 -0.869704 -0.339847 -0.000165335 0.0140975 -5.94718e-05 0.0140792 -0.866572 -0.35361
204966000 -0.898495 -0.211606 0.0129683 0.015764 0.0131159 0.015651 -0.89957 -0.218592
216964000 -0.918352 -0.105011 0.0163991 -0.0042606 0.0163046 -0.00447559 -0.920275 -0.102931
228962000 -0.935665 0.0200087 0.00535865 -0.00659761 0.00529514 -0.00659001 -0.935767 0.0271734
240960000 -0.927401 0.145726 0.00208336 -0.00528133 0.00202716 -0.00528126 -0.925156 0.158067
252958000 -0.900634 0.266873 0.000817909 -0.00390086 0.000742126 -0.00387013 -0.895784 0.282541
264956000 -0.858866 0.379982 -3.92885e-05 -0.00307847 -7.30945e-05 -0.00312454 -0.85115 0.398706
276954000 -0.80379 0.484332 -0.00104355 -0.00277047 -0.00106869 -0.00272227 -0.790989 0.506643
288952000 -0.737106 0.579687 -0.00101413 -0.00234246 -0.00100854 -0.00233418 -0.719703 0.602354
300950000 -0.661318 0.664869 -0.00217677 -0.00207069 -0.00212767 -0.00205904 -0.639486 0.686926
312948000 -0.576806 0.738956 -0.00287709 -0.000782622 -0.00287312 -0.000781557 -0.547933 0.761096
324946000 -0.483172 0.801869 -0.00269719 0.000893087 -0.00264614 0.000882573 -0.452841 0.819523
336944000 -0.3863 0.852567 -0.00125005 0.00141613 -0.00122953 0.00138912 -0.351802 0.867179
348942000 -0.285504 0.891886 -0.000587476 0.00144831 -0.000680012 0.00147084 -0.246839 0.902195
360940000 -0.182327 0.919589 1.48693e-05 0.00131489 1.04782e-05 0.00129781 -0.140919 0.924996
372938000 -0.0774053 0.9349 0.0004303 0.00099358 0.000470951 0.000992466 -0.0326519 0.93592
384936000 0.0288388 0.938819 0.000468174 0.000367482 0.000507016 0.000392869 0.0773019 0.934238
396934000 0.13308 0.931553 0.00049866 9.68052e-05 0.00042708 0.00020252 0.186407 0.920323
408932000 0.236407 0.912664 0.000257908 -5.14595e-05 0.000190096 2.48122e-06 0.29388 0.894392
420930000 0.337534 0.881561 6.07266e-05 5.02925e-05 4.514e-05 2.41705e-05 0.398545 0.854684
432928000 0.435009 0.839592 -1.34129e-05 6.07725e-05 4.63374e-06 3.53407e-05 0.499061 0.802546
444926000 0.527843 0.785571 -9.74056e-05 -3.49813e-06 -8.32599e-05 -1.72493e-05 0.593114 0.738468
456924000 0.614679 0.720078 -0.000315331 -7.53926e-05 -0.000254305 -6.66352e-05 0.678997 0.66218
468922000 0.693608 0.643181 -0.000573226 4.09166e-06 -0.000524148 4.81265e-05 0.755801 0.574332
480920000 0.764011 0.556787 -0.000811501 0.000354707 -0.000777141 0.000407354 0.821856 0.475746
492918000 0.824726 0.461005 -0.000819248 0.000819596 -0.000774704 0.000826808 0.875715 0.367433
504916000 0.873664 0.356572 -0.000704903 0.00129885 -0.000736721 0.00130772 0.915146 0.252123
516914000 0.909275 0.244932 -0.000491378 0.00199601 -0.000478127 0.00200093 0.938256 0.129606
528912000 0.930363 0.126869 0.000139064 0.00268436 0.000172336 0.00268517 0.943596 0.00288933
540910000 0.936654 0.0056785 0.00159557 0.00363938 0.00161326 0.00362524 0.931468 -0.125077
552908000 0.925059 -0.118873 0.00420394 0.00312989 0.00420377 0.0031365 0.899506 -0.253481
564906000 0.894727 -0.243045 0.00618068 0.000578742 0.0061928 0.000507019 0.84621 -0.378655
576904000 0.847113 -0.365809 0.00575893 -0.00198125 0.00576732 -0.00206549 0.774328 -0.498786
588902000 0.780325 -0.485186 0.00563449 -0.00385335 0.00563597 -0.00383033 0.679435 -0.611592
600900000 0.68919 -0.597223 0.00420339 -0.0067141 0.00422017 -0.00673508 0.561413 -0.711106
612898000 0.574984 -0.696864 0.00273064 -0.00847954 0.00275756 -0.00847511 0.419209 -0.790057
624896000 0.440236 -0.777328 -0.000965169 -0.0113762 -0.000999202 -0.0113445 0.258313 -0.841435
636894000 0.287262 -0.8329 -0.00653896 -0.0118005 -0.00660284 -0.0117187 0.0825662 -0.857932
648892000 0.117751 -0.857061 -0.0128216 -0.00945081 -0.0128002 -0.00935431 -0.0931975 -0.83725
660890000 -0.052102 -0.843596 -0.0221549 -0.0028227 -0.0220517 -0.00263222 -0.261793 -0.778337
672888000 -0.225373 -0.800114 -0.0213967 0.0115256 -0.021242 0.0115459 -0.42259 -0.689426
684886000 -0.391056 -0.714461 -0.012136 0.0244491 -0.0119988 0.0243931 -0.559607 -0.560101
696884000 -0.534518 -0.586559 0.00708175 0.0273258 0.00705822 0.0271406 -0.663502 -0.403871
708882000 -0.642005 -0.432239 0.0225174 0.0161247 0.0224711 0.0160111 -0.736008 -0.23335
720880000 -0.71851 -0.26272 0.0223847 -0.00220602 0.0222517 -0.00234333 -0.777301 -0.0423931
732878000 -0.762126 -0.0729209 0.0116192 -0.0120768 0.0115097 -0.0120621 -0.768574 0.164068
744876000 -0.756145 0.127607 0.00311326 -0.0120722 0.00301889 -0.0119454 -0.70273 0.360527
756874000 -0.702921 0.324602 -0.00263217 -0.00714086 -0.00261226 -0.00702434 -0.592054 0.534068
768872000 -0.602038 0.503354 -0.0031334 -0.00390392 -0.00308906 -0.00387915 -0.445536 0.673016
780870000 -0.461581 0.649837 -0.00281604 -0.00154537 -0.00279102 -0.00151244 -0.274641 0.770931
792868000 -0.293152 0.752141 -0.0017145 -0.000482158 -0.00168873 -0.000438943 -0.0910591 0.826397
804866000 -0.113233 0.810166 -0.00110962 -0.000600953 -0.00115373 -0.000606998 0.0952946 0.836078
816864000 0.0666348 0.825676 -0.00104697 -0.000657921 -0.00104331 -0.000663343 0.270482 0.806564
828862000 0.236587 0.803704 -0.001185 -0.000251071 -0.00116013 -0.000312628 0.427273 0.744793
840860000 0.390891 0.751103 -0.00106436 -0.000274 -0.00100822 -0.000275381 0.562367 0.657218
852858000 0.523975 0.674624 -0.00103848 0.00014718 -0.00101029 0.000169892 0.67309 0.553678
864856000 0.637791 0.57957 -0.0006858 0.000295314 -0.00068273 0.00029047 0.759979 0.436619
876854000 0.729576 0.471606 -0.000557939 0.0004167 -0.000540236 0.000374525 0.824527 0.313529
888852000 0.798838 0.354128 -0.000391321 0.000342144 -0.000420496 0.000301251 0.867209 0.186342
900850000 0.848808 0.233085 -0.000393379 0.000220204 -0.00036553 0.000265729 0.889505 0.0629639
912848000 0.879365 0.108481 -0.000381752 0.000274019 -0.000305057 0.000275274 0.894442 -0.0631137
924846000 0.891219 -0.0159174 -0.000425364 0.000311007 -0.000354294 0.000280842 0.882506 -0.183453
936844000 0.885256 -0.139211 -0.000319808 0.000424462 -0.000334071 0.000411092 0.856019 -0.298014
948842000 0.862924 -0.256877 -0.000173498 0.000384735 -0.000111603 0.000387993 0.815492 -0.406463
960840000 0.825944 -0.367272 -0.000136261 0.000320872 -0.000178791 0.000293895 0.762545 -0.506993
972838000 0.773957 -0.471239 -0.000133127 0.000312178 -0.000193354 0.000303212 0.69833 -0.598314
984836000 0.712074 -0.563988 -0.000212048 0.000419401 -0.000222135 0.000344696 0.62389 -0.679985
996834000 0.639365 -0.646741 -0.000178855 0.00055192 -0.000221 0.000572307 0.541876 -0.750976
1008832000 0.559022 -0.719021 7.88875e-07 0.000678333 -1.48699e-05 0.000646524 0.452713 -0.809964
1020830000 0.473589 -0.780495 0.000256248 0.000768404 0.000271334 0.000729257 0.359377 -0.857772
1032828000 0.383236 -0.82944 0.000569752 0.000575265 0.000532267 0.000616357 0.262297 -0.893092
1044826000 0.288812 -0.867555 0.000711423 0.000396344 0.000725103 0.000448157 0.163685 -0.916599
1056824000 0.193229 -0.895722 0.000815038 0.000127648 0.000784926 0.000169917 0.0629878 -0.929503
1068822000 0.0964845 -0.913329 0.00086331 -9.57873e-05 0.000854847 -5.45063e-05 -0.0374112 -0.931198
1080820000 -0.000940977 -0.919908 0.000834418 -0.00040626 0.000841591 -0.000383369 -0.137514 -0.921444
1092818000 -0.0981012 -0.91601 0.000607784 -0.000675242 0.000545947 -0.000634982 -0.234383 -0.899493
1104816000 -0.193312 -0.901753 0.000289012 -0.000678091 0.000269766 -0.00067406 -0.326625 -0.869339
1116814000 -0.287132 -0.877935 0.000132142 -0.000715813 0.000122216 -0.000647985 -0.416118 -0.829007
1128812000 -0.378979 -0.844162 -3.19978e-05 -0.000644263 -5.22348e-05 -0.000507063 -0.502025 -0.778952
1140810000 -0.464882 -0.80075 1.76501e-05 -0.000389516 -0.000106407 -0.000418741 -0.581765 -0.719677
1152808000 -0.548136 -0.748164 1.9294e-05 -0.000507102 2.95029e-06 -0.000483262 -0.654757 -0.653458
1164806000 -0.625238 -0.683312 -0.000121779 -0.000619006 -0.00013294 -0.000584606 -0.720233 -0.577608
1176804000 -0.69422 -0.6113 -0.000392341 -0.000619631 -0.000370665 -0.000612057 -0.777979 -0.495962
1188802000 -0.75487 -0.53382 -0.000507018 -0.000435496 -0.000444755 -0.000414883 -0.825827 -0.408371
1200800000 -0.80538 -0.450226 -0.000556531 -0.000195035 -0.000501862 -0.000183814 -0.862915 -0.316163
1212798000 -0.847489 -0.362821 -0.000358182 3.61119e-06 -0.000323546 -4.20081e-05 -0.890017 -0.221951
1224796000 -0.879809 -0.272568 -0.000160202 -0.000285913 -0.000136047 -0.000299374 -0.906856 -0.124654
1236794000 -0.903002 -0.176355 -0.000392412 -0.000617086 -0.000404849 -0.000597119 -0.912387 -0.0271317
1248792000 -0.91271 -0.0850546 -0.000822652 -0.000548222 -0.000809396 -0.000523152 -0.906665 0.0699631
1260790000 -0.91526 0.00623639 -0.00128543 -0.000181299 -0.00128233 -0.000146113 -0.890566 0.164819
1272788000 -0.908929 0.0965121 -0.00131775 0.000490304 -0.00132457 0.000445243 -0.866104 0.260043
1284786000 -0.891458 0.183996 -0.00112311 0.00101416 -0.00115737 0.000962335 -0.830369 0.346471
1296784000 -0.867302 0.269032 -0.000820776 0.00136284 -0.000800784 0.00134891 -0.787466 0.42978
1308782000 -0.833578 0.35147 -0.000244235 0.00161682 -0.000211419 0.00159369 -0.733762 0.508248
1320780000 -0.791427 0.430457 0.00013007 0.00160661 0.000171754 0.00161066 -0.673424 0.581406
1332778000 -0.742293 0.504563 0.00082899 0.00146204 0.000751771 0.00150283 -0.604258 0.646129
1344776000 -0.684646 0.572814 0.00124465 0.00112449 0.00118297 0.00114121 -0.529344 0.703736
1356774000 -0.620156 0.637115 0.00136168 0.000677887 0.00136954 0.000745287 -0.448881 0.752124
1368772000 -0.545177 0.695256 0.00164302 0.000231105 0.0016385 0.000236991 -0.362584 0.79293
1380770000 -0.463851 0.744738 0.00167099 -0.000250634 0.00164362 -0.000204788 -0.27121 0.823611
1392768000 -0.37635 0.785841 0.00146386 -0.000629582 0.00143744 -0.000600818 -0.176426 0.843919
1404766000 -0.282988 0.81746 0.00137819 -0.00137673 0.00138862 -0.00130224 -0.0784494 0.853144
1416764000 -0.18592 0.838759 0.000778326 -0.00183913 0.00086355 -0.0018035 0.021423 0.851685
1428762000 -0.0860812 0.850035 -4.70942e-05 -0.00210087 -5.75369e-05 -0.00211032 0.122046 0.83695
1440760000 0.014908 0.848645 -0.000788961 -0.00191942 -0.000795907 -0.00193656 0.221506 0.808683
1452758000 0.115085 0.836116 -0.00142849 -0.00156631 -0.0014027 -0.00161743 0.317143 0.766327
1464756000 0.214146 0.810892 -0.00209735 -0.000928293 -0.00207977 -0.000996174 0.407143 0.708926
1476754000 0.308227 0.772255 -0.00276039 -0.00021476 -0.00269772 -0.000243628 0.491245 0.637924
1488752000 0.394952 0.72277 -0.00315184 0.00127893 -0.00313592 0.0012325 0.565799 0.553205
1500750000 0.47479 0.663986 -0.00237822 0.00300504 -0.00235274 0.00296678 0.630078 0.453937
1512748000 0.547201 0.592947 -0.000627836 0.00379598 -0.000656585 0.00376484 0.678712 0.338214
1524746000 0.611184 0.510103 0.000905779 0.00408826 0.000887527 0.00412641 0.708168 0.204137
1536744000 0.663835 0.415318 0.00266649 0.00370828 0.00260979 0.00373743 0.706383 0.0568933
1548742000 0.70122 0.303206 0.00408773 0.0026487 0.00412776 0.00268097 0.665367 -0.101895
1560740000 0.71837 0.179327 0.00521113 0.00078242 0.00520763 0.000802917 0.573222 -0.257028
1572738000 0.709342 0.0411942 0.005717 -0.0009382 0.00572558 -0.000896321 0.427356 -0.388576
1584736000 0.663457 -0.10536 0.0048094 -0.00305722 0.00482614 -0.00299213 0.229423 -0.468815
1596734000 0.568753 -0.248513 0.00397591 -0.005179 0.00398699 -0.00513074 -2.94977e-05 -0.471455
1608732000 0.42608 -0.365929 0.00182558 -0.00552323 0.00182333 -0.00543716 -0.217274 -0.378177
1620730000 0.238942 -0.438701 0.00038449 -0.00641687 0.0004161 -0.00633658 -0.380335 -0.207055
1632728000 0.0258428 -0.439454 -0.000149561 -0.00711051 -0.000129906 -0.00702835 -0.460634 0.00803304
1644726000 -0.178157 -0.3533 -0.00367123 -0.00965386 -0.00355908 -0.00965571 -0.44975 0.222406
1656724000 -0.329259 -0.194189 -0.0104576 -0.00557486 -0.0104001 -0.00568037 -0.374945 0.402312
1668722000 -0.403027 0.00474136 -0.00996767 -0.00118396 -0.00994173 -0.00127718 -0.261268 0.539208
1680720000 -0.405919 0.207521 -0.00904776 0.00166597 -0.00910594 0.00153519 -0.123145 0.626346
1692718000 -0.331865 0.384427 -0.00826192 0.00472932 -0.00842577 0.00460232 0.015659 0.672603
1704716000 -0.220625 0.516052 -0.00412507 0.0063739 -0.00429647 0.00625795 0.154635 0.68647
1716714000 -0.0818347 0.601887 -0.00482598 0.00773054 -0.00498507 0.00758163 0.278141 0.67108
1728712000 0.061272 0.642322 -0.00177811 0.0081661 -0.00194647 0.00815419 0.389427 0.635427
1740710000 0.195132 0.651515 -0.000450381 0.00799756 -0.000560168 0.00794421 0.485857 0.585459
1752708000 0.319184 0.633248 0.00177683 0.00719714 0.00163968 0.00728252 0.568918 0.522702
1764706000 0.42846 0.594754 0.00248369 0.00630352 0.00238483 0.00630714 0.635029 0.456314
1776704000 0.519332 0.543298 0.00470957 0.00896694 0.00454305 0.00905052 0.689183 0.383556
1788702000 0.595704 0.486224 0.00811816 0.00597567 0.00801456 0.00606415 0.734633 0.308586
1800700000 0.660524 0.421729 0.00973404 0.00158649 0.00961084 0.00169095 0.767981 0.23133
1812698000 0.711942 0.355003 0.00905667 0.000304185 0.00894789 0.000441549 0.790062 0.151648
1824696000 0.752645 0.286889 0.00801722 -0.0034499 0.00797752 -0.00323931 0.803758 0.0747994
1836694000 0.780572 0.219006 0.00619926 -0.00323781 0.00619956 -0.00311366 0.810989 -0.00152667
1848692000 0.802615 0.148132 0.00726531 -0.00354725 0.00725332 -0.00337356 0.809997 -0.0813941
1860690000 0.81684 0.0820938 0.0063072 -0.0073214 0.0063801 -0.00717767 0.799624 -0.156948
1872688000 0.821529 0.0116694 0.00369227 -0.00624025 0.0037509 -0.00616555 0.779873 -0.229765
1884686000 0.820705 -0.05438 0.00408171 -0.0080644 0.00413468 -0.00798619 0.755763 -0.29729
1896684000 0.814527 -0.121896 0.00238876 -0.00837274 0.00255219 -0.00824435 0.72364 -0.360458
1908682000 0.798092 -0.189599 0.0010139 -0.0102551 0.00114646 -0.0102595 0.684927 -0.422294
1920680000 0.774847 -0.256577 -0.0025569 -0.0115586 -0.00230745 -0.0115491 0.64292 -0.474979
1932678000 0.743392 -0.320505 -0.00654007 -0.00992037 -0.00631496 -0.0100069 0.597295 -0.525494
1944676000 0.705668 -0.382188 -0.00935184 -0.00676014 -0.00923907 -0.00684141 0.548263 -0.571368
1956674000 0.661007 -0.436752 -0.0101703 -0.00576461 -0.0100877 -0.00588088 0.49395 -0.614689
1968672000 0.616631 -0.492412 -0.0105782 -0.00187472 -0.0105573 -0.00198968 0.432962 -0.648486
1980670000 0.564165 -0.544536 -0.00997223 -0.00145344 -0.0100042 -0.00160353 0.371583 -0.677943
1992668000 0.507262 -0.588837 -0.0102716 0.00117258 -0.0103272 0.00101641 0.303912 -0.699583
2004666000 0.445039 -0.62606 -0.0112434 0.00245266 -0.0113171 0.00224191 0.237511 -0.713738
2016664000 0.385372 -0.653161 -0.0131651 0.00595585 -0.0132837 0.00579822 0.164049 -0.722531
2028662000 0.323294 -0.677913 -0.0117996 0.00879323 -0.0119811 0.00870337 0.0924043 -0.716267
2040660000 0.256276 -0.692181 -0.0108084 0.0139687 -0.011077 0.0138999 0.0215881 -0.701428
2052658000 0.194526 -0.698047 -0.00547967 0.0202666 -0.00584714 0.0203331 -0.046611 -0.666802
2064656000 0.128593 -0.694591 0.00448158 0.022624 0.00404125 0.022899 -0.103848 -0.609606
2076654000 0.067544 -0.68357 0.0123879 0.0150197 0.0122227 0.0153092 -0.10085 -0.529331
2088652000 0.00718507 -0.64892 0.0121897 0.00815232 0.0119939 0.00847596 -0.0232474 -0.52893
2100650000 -0.0349678 -0.60404 0.0112756 0.00609084 0.0110771 0.00635285 -0.0491236 -0.650365
2112648000 -0.0467067 -0.547741 0.0132721 0.00612667 0.013059 0.00633513 -0.178586 -0.676304
2124646000 0.00933514 -0.53567 0.0128638 -0.00012946 0.0127765 2.47973e-05 -0.281057 -0.635862
2136644000 -0.00779102 -0.635078 0.0113063 0.00206249 0.0111574 0.0021627 -0.355967 -0.576637
2148642000 -0.127737 -0.663403 0.0140582 0.00177789 0.0139988 0.00196875 -0.41411 -0.504573
2160640000 -0.227832 -0.624798 0.0177923 -0.00258458 0.0178214 -0.00234424 -0.446279 -0.428792
2172638000 -0.303074 -0.555004 0.0173956 -0.00801976 0.0175072 -0.0077506 -0.467478 -0.358633
2184636000 -0.352021 -0.480367 0.0181496 -0.0123044 0.0183476 -0.0120288 -0.484156 -0.282712
2196634000 -0.383909 -0.408753 0.0179082 -0.0194169 0.0180768 -0.01922 -0.477197 -0.208462
2208632000 -0.409282 -0.326627 0.00764823 -0.0296249 0.00785447 -0.0295644 -0.468157 -0.141506
2220630000 -0.414479 -0.257704 0.0018702 -0.0300513 0.00205949 -0.0300879 -0.443318 -0.071674
2232628000 -0.412735 -0.177215 -0.00952236 -0.0346702 -0.00924634 -0.0347163 -0.406096 -0.0141126
2244626000 -0.390155 -0.1107 -0.0261757 -0.0270363 -0.0259758 -0.0272071 -0.365651 0.0393199
2256624000 -0.36393 -0.0454434 -0.0330172 -0.019662 -0.0327117 -0.0199811 -0.309914 0.082356
2268622000 -0.322735 -0.00171059 -0.0422868 -0.00333962 -0.0422971 -0.00374441 -0.24619 0.113192
2280620000 -0.284676 0.0436614 -0.0361739 0.00653799 -0.0361383 0.00598917 -0.180684 0.12458
2292618000 -0.230704 0.0796865 -0.0349826 0.0214258 -0.0352462 0.0208928 -0.116995 0.119325
2304616000 -0.167509 0.0969826 -0.0239437 0.035848 -0.0243602 0.0354231 -0.0613032 0.111869
2316614000 -0.117468 0.0957205 -0.0115069 0.0317034 -0.0118752 0.0314845 -0.00374253 0.088429
2328612000 -0.0641424 0.0994538 -0.00240606 0.0405192 -0.00298692 0.0405083 0.0308522 0.0409282
2340610000 -0.00330784 0.0731211 0.0152855 0.0343837 0.014826 0.0346879 0.0686336 0.00848153
2352608000 0.0398856 0.0343261 0.0231004 0.0227182 0.0227675 0.0231158 0.0833447 -0.0437785
2364606000 0.0642476 -0.00315905 0.0247339 0.0170535 0.0244621 0.0174665 0.0904276 -0.0899306
2376604000 0.0869333 -0.0403634 0.0314087 0.00580617 0.0312112 0.00627815 0.0859829 -0.137868
2388602000 0.104195 -0.0921544 0.0244879 -0.00432974 0.0244864 -0.00388408 0.0685478 -0.186311
2400600000 0.0992598 -0.134891 0.0241734 -0.00640846 0.0241488 -0.00595144 0.0363148 -0.223511
2412598000 0.0878153 -0.176032 0.0191803 -0.0141823 0.0194412 -0.0138039 0.00768511 -0.256389
2424596000 0.0760038 -0.209868 0.0145187 -0.0185776 0.0148997 -0.0183861 -0.0416364 -0.278203
2436594000 0.050898 -0.245027 0.00610242 -0.0232407 0.00658165 -0.0231367 -0.0876089 -0.276701
2448592000 0.0164512 -0.263525 -0.00436311 -0.01844 -0.00399028 -0.0185836 -0.126931 -0.284736
2460590000 -0.0146118 -0.276657 -0.00568325 -0.0134724 -0.00531399 -0.0136026 -0.174421 -0.273121
2472588000 -0.0517126 -0.277119 -0.00742813 -0.0109625 -0.00728406 -0.0111567 -0.214307 -0.244384
2484586000 -0.0935771 -0.272176 -0.00940707 -0.0114111 -0.00916796 -0.0116498 -0.231209 -0.219131
2496584000 -0.124619 -0.257756 -0.00952651 -0.00142254 -0.00951378 -0.00162198 -0.252396 -0.188797
2508582000 -0.158426 -0.236268 -0.00547326 -0.00626014 -0.00538496 -0.00633969 -0.258753 -0.165021
