# Hz S RI R 50
1000000 1.00454 -0.0142747
12998000 0.954919 -0.210276
24996000 0.892252 -0.383343
36994000 0.803243 -0.539039
48992000 0.688041 -0.680719
60990000 0.550395 -0.792823
72988000 0.395533 -0.877428
84986000 0.228561 -0.930526
96984000 0.0578456 -0.951957
108982000 -0.112338 -0.942079
120980000 -0.275534 -0.903851
132978000 -0.442119 -0.812783
144976000 -0.535386 -0.746726
156974000 -0.570702 -0.686596
168972000 -0.717678 -0.596229
180970000 -0.805111 -0.476537
192968000 -0.866881 -0.352331
204966000 -0.906068 -0.222269
216964000 -0.927924 -0.103493
228962000 -0.937387 0.02318
240960000 -0.926723 0.148039
252958000 -0.899869 0.267785
264956000 -0.857746 0.380424
276954000 -0.802646 0.485008
288952000 -0.735464 0.580375
300950000 -0.658147 0.665894
312948000 -0.573455 0.738561
324946000 -0.479888 0.801609
336944000 -0.38183 0.852129
348942000 -0.281011 0.889579
360940000 -0.178107 0.915963
372938000 -0.0748265 0.930322
384936000 0.0295257 0.934249
396934000 0.133237 0.927772
408932000 0.235481 0.909853
420930000 0.336955 0.879348
432928000 0.434097 0.837859
444926000 0.526629 0.784535
456924000 0.613327 0.719776
468922000 0.692414 0.642919
480920000 0.763217 0.556695
492918000 0.823772 0.460806
504916000 0.872541 0.356399
516914000 0.908258 0.245251
528912000 0.929468 0.127736
540910000 0.935694 0.00666775
552908000 0.925671 -0.118681
564906000 0.895999 -0.244303
576904000 0.846214 -0.369432
588902000 0.776748 -0.488402
600900000 0.685607 -0.599749
612898000 0.570945 -0.699604
624896000 0.433032 -0.779512
636894000 0.275975 -0.829289
648892000 0.113282 -0.845937
660890000 -0.0555808 -0.834345
672888000 -0.220004 -0.788721
684886000 -0.378887 -0.709115
696884000 -0.524432 -0.593802
708882000 -0.640883 -0.441906
720880000 -0.725721 -0.267708
732878000 -0.768426 -0.0676941
744876000 -0.758726 0.136357
756874000 -0.700393 0.333412
768872000 -0.595279 0.509834
780870000 -0.453422 0.651957
792868000 -0.28613 0.751604
804866000 -0.107824 0.806873
816864000 0.0693838 0.822259
828862000 0.237679 0.800346
840860000 0.390714 0.748384
852858000 0.523103 0.671759
864856000 0.636212 0.577079
876854000 0.727288 0.46969
888852000 0.796312 0.352714
900850000 0.845764 0.232133
912848000 0.876512 0.108231
924846000 0.888546 -0.0162909
936844000 0.882943 -0.138311
948842000 0.861253 -0.256481
960840000 0.823265 -0.366866
972838000 0.772767 -0.470468
984836000 0.711031 -0.562845
996834000 0.638698 -0.645787
1008832000 0.558145 -0.718696
1020830000 0.472734 -0.779815
1032828000 0.382131 -0.828542
1044826000 0.287643 -0.866578
1056824000 0.192185 -0.894227
1068822000 0.0952899 -0.910865
1080820000 -0.00190468 -0.916779
1092818000 -0.098477 -0.913149
1104816000 -0.193719 -0.898461
1116814000 -0.286958 -0.874138
1128812000 -0.378085 -0.8402
1140810000 -0.463417 -0.79601
1152808000 -0.546526 -0.743365
1164806000 -0.623666 -0.679395
1176804000 -0.692983 -0.607294
1188802000 -0.752901 -0.529633
1200800000 -0.803454 -0.446437
1212798000 -0.845507 -0.359843
1224796000 -0.877716 -0.269805
1236794000 -0.899627 -0.173671
1248792000 -0.908949 -0.0826109
1260790000 -0.912221 0.0081181
1272788000 -0.904317 0.0980767
1284786000 -0.887372 0.184494
1296784000 -0.863151 0.269355
1308782000 -0.82906 0.351918
1320780000 -0.787132 0.430719
1332778000 -0.737321 0.504523
1344776000 -0.679474 0.572573
1356774000 -0.614332 0.636152
1368772000 -0.540341 0.694083
1380770000 -0.45816 0.744407
1392768000 -0.370037 0.783474
1404766000 -0.277388 0.814134
1416764000 -0.180594 0.833768
1428762000 -0.0831038 0.843746
1440760000 0.0153076 0.842598
1452758000 0.11347 0.830978
1464756000 0.209336 0.807269
1476754000 0.302505 0.773509
1488752000 0.391597 0.726581
1500750000 0.474171 0.669313
1512748000 0.550376 0.59833
1524746000 0.617711 0.513715
1536744000 0.671872 0.41466
1548742000 0.709633 0.298155
1560740000 0.725528 0.170101
1572738000 0.713037 0.0290943
1584736000 0.662975 -0.119422
1596734000 0.564284 -0.261012
1608732000 0.416601 -0.377718
1620730000 0.224132 -0.441993
1632728000 0.0123182 -0.435262
1644726000 -0.183076 -0.345502
1656724000 -0.333285 -0.185107
1668722000 -0.402186 0.0144688
1680720000 -0.397936 0.213294
1692718000 -0.325538 0.386209
1704716000 -0.212077 0.515517
1716714000 -0.0753262 0.598519
1728712000 0.0622983 0.639398
1740710000 0.198125 0.64829
1752708000 0.317588 0.630521
1764706000 0.426367 0.596153
1776704000 0.52133 0.544474
1788702000 0.595673 0.483458
1800700000 0.660388 0.421728
1812698000 0.713607 0.35576
1824696000 0.752427 0.286111
1836694000 0.782833 0.216101
1848692000 0.802315 0.146634
1860690000 0.814998 0.0779201
1872688000 0.819948 0.00864947
1884686000 0.816757 -0.0587185
1896684000 0.807913 -0.124032
1908682000 0.792357 -0.189766
1920680000 0.768773 -0.252324
1932678000 0.742413 -0.316845
1944676000 0.707013 -0.379738
1956674000 0.662324 -0.438277
1968672000 0.613568 -0.493564
1980670000 0.562483 -0.542632
1992668000 0.503613 -0.585504
2004666000 0.444715 -0.622875
2016664000 0.382536 -0.651059
2028662000 0.321006 -0.672881
2040660000 0.259727 -0.687353
2052658000 0.19775 -0.691703
2064656000 0.13282 -0.694731
2076654000 0.0707646 -0.674843
2088652000 0.0138762 -0.653845
2100650000 -0.0361581 -0.60425
2112648000 -0.0453216 -0.541809
2124646000 0.0133596 -0.535298
2136644000 -0.0070432 -0.635503
2148642000 -0.126164 -0.662638
2160640000 -0.227738 -0.621808
2172638000 -0.298299 -0.553505
2184636000 -0.348689 -0.488465
2196634000 -0.387361 -0.409539
2208632000 -0.413051 -0.335442
2220630000 -0.424608 -0.253497
2232628000 -0.413471 -0.174824
2244626000 -0.394012 -0.110183
2256624000 -0.370926 -0.0484323
2268622000 -0.328418 0.0139972
2280620000 -0.27233 0.053689
2292618000 -0.224003 0.0666088
2304616000 -0.17337 0.0953316
2316614000 -0.115336 0.10607
2328612000 -0.0608486 0.0991077
2340610000 -0.00191693 0.0802153
2352608000 0.0479005 0.0416888
2364606000 0.066233 -0.00208119
2376604000 0.0958814 -0.0356677
2388602000 0.110151 -0.0895156
2400600000 0.104678 -0.142501
2412598000 0.0957053 -0.176356
2424596000 0.0771719 -0.215794
2436594000 0.0491827 -0.247509
2448592000 0.0169315 -0.263485
2460590000 -0.0141539 -0.275162
2472588000 -0.0487787 -0.280985
2484586000 -0.0870844 -0.273263
2496584000 -0.131338 -0.25889
2508582000 -0.158525 -0.232668
2520580000 -0.178123 -0.196473
2532578000 -0.189059 -0.166607
2544576000 -0.192586 -0.142653
2556574000 -0.199301 -0.111801
2568572000 -0.185679 -0.0931033
2580570000 -0.181244 -0.0799841
2592568000 -0.173649 -0.0803559
2604566000 -0.175913 -0.0844065
2616564000 -0.18815 -0.0894804
2628562000 -0.210431 -0.0830823
2640560000 -0.226475 -0.0758169
2652558000 -0.250585 -0.0627309
2664556000 -0.270977 -0.0265324
2676554000 -0.274225 0.00162011
2688552000 -0.275032 0.0358796
2700550000 -0.271958 0.0653758
2712548000 -0.258017 0.107398
2724546000 -0.229009 0.143199
2736544000 -0.193743 0.174029
2748542000 -0.158403 0.195508
2760540000 -0.107517 0.209783
2772538000 -0.0601792 0.205687
2784536000 -0.0220309 0.200193
2796534000 0.0280339 0.18732
2808532000 0.0564958 0.15898
2820530000 0.078959 0.133955
2832528000 0.0991819 0.101813
2844526000 0.107382 0.0774958
2856524000 0.111374 0.050003
2868522000 0.105483 0.0200389
2880520000 0.0859625 -0.00598122
2892518000 0.0657653 -0.0121968
2904516000 0.0437335 -0.024297
2916514000 0.0116761 -0.0179936
2928512000 -0.01316 -0.00832372
2940510000 -0.0392315 0.0146735
2952508000 -0.0534999 0.0451525
2964506000 -0.0616128 0.0804378
2976504000 -0.054445 0.117115
2988502000 -0.0404592 0.152008
3000500000 -0.0173536 0.183451
3012498000 0.0193913 0.212553
3024496000 0.0622636 0.228935
3036494000 0.108565 0.237651
3048492000 0.160755 0.23992
3060490000 0.215428 0.225388
3072488000 0.261063 0.200234
3084486000 0.306098 0.175025
3096484000 0.34723 0.138887
3108482000 0.382799 0.0967015
3120480000 0.412262 0.0508773
3132478000 0.429541 0.00332464
3144476000 0.445573 -0.0417122
3156474000 0.456279 -0.0904662
3168472000 0.455643 -0.138783
3180470000 0.453302 -0.17972
3192468000 0.447556 -0.222856
3204466000 0.439421 -0.264684
3216464000 0.424409 -0.307954
3228462000 0.406869 -0.349439
3240460000 0.380925 -0.388711
3252458000 0.354936 -0.425333
3264456000 0.323643 -0.461053
3276454000 0.287301 -0.495132
3288452000 0.24746 -0.527025
3300450000 0.203203 -0.555464
3312448000 0.154153 -0.576775
3324446000 0.103354 -0.597128
3336444000 0.0491 -0.608048
3348442000 -0.00156759 -0.612739
3360440000 -0.0530712 -0.615937
3372438000 -0.105131 -0.612627
3384436000 -0.153635 -0.605175
3396434000 -0.20378 -0.59075
3408432000 -0.249883 -0.571812
3420430000 -0.2921 -0.548042
3432428000 -0.331581 -0.519587
3444426000 -0.369456 -0.486315
3456424000 -0.401501 -0.448347
3468422000 -0.420572 -0.414326
3480420000 -0.453425 -0.358686
3492418000 -0.470902 -0.309869
3504416000 -0.482302 -0.254181
3516414000 -0.487328 -0.193946
3528412000 -0.485568 -0.132711
3540410000 -0.470022 -0.0710084
3552408000 -0.446137 -0.0105028
3564406000 -0.414516 0.0451467
3576404000 -0.373576 0.0942565
3588402000 -0.323835 0.136736
3600400000 -0.266621 0.168755
3612398000 -0.208669 0.190993
3624396000 -0.143279 0.201942
3636394000 -0.0762307 0.19811
3648392000 -0.0127815 0.177954
3660390000 0.0467768 0.145612
3672388000 0.0989602 0.0978801
3684386000 0.139369 0.0365046
3696384000 0.163324 -0.0314784
3708382000 0.170969 -0.106366
3720380000 0.161096 -0.17878
3732378000 0.138942 -0.246359
3744376000 0.102792 -0.30872
3756374000 0.0544424 -0.361097
3768372000 -0.00225753 -0.397745
3780370000 -0.0605382 -0.422638
3792368000 -0.122859 -0.433954
3804366000 -0.18047 -0.432727
3816364000 -0.234724 -0.420052
3828362000 -0.284949 -0.399068
3840360000 -0.328989 -0.369602
3852358000 -0.367253 -0.334818
3864356000 -0.401482 -0.292229
3876354000 -0.42908 -0.241779
3888352000 -0.447151 -0.18813
3900350000 -0.456842 -0.130583
3912348000 -0.454821 -0.0694494
3924346000 -0.443592 -0.0124905
3936344000 -0.423983 0.0459654
3948342000 -0.391392 0.100572
3960340000 -0.349138 0.143071
3972338000 -0.301495 0.182478
3984336000 -0.240929 0.210828
3996334000 -0.176138 0.223808
4008332000 -0.104491 0.226692
4020330000 -0.0265569 0.20588
4032328000 0.0435051 0.160666
4044326000 0.0984168 0.0992262
4056324000 0.141082 0.0250583
4068322000 0.162157 -0.0597551
4080320000 0.166135 -0.148769
4092318000 0.14797 -0.235811
4104316000 0.112707 -0.318006
4116314000 0.063991 -0.388522
4128312000 0.0038401 -0.453506
4140310000 -0.0697889 -0.506076
4152308000 -0.150821 -0.541668
4164306000 -0.232506 -0.559885
4176304000 -0.314805 -0.562245
4188302000 -0.397478 -0.547425
4200300000 -0.476976 -0.515598
4212298000 -0.554304 -0.465562
4224296000 -0.620944 -0.403518
4236294000 -0.675397 -0.335693
4248292000 -0.71844 -0.261876
4260290000 -0.750662 -0.186089
4272288000 -0.773659 -0.113287
4284286000 -0.791368 -0.0380987
4296284000 -0.797466 0.0374096
4308282000 -0.794825 0.107575
4320280000 -0.785425 0.17843
4332278000 -0.772384 0.244586
4344276000 -0.750135 0.309648
4356274000 -0.725337 0.372162
4368272000 -0.694119 0.430758
4380270000 -0.655825 0.481078
4392268000 -0.61269 0.532467
4404266000 -0.564129 0.57811
4416264000 -0.51492 0.615514
4428262000 -0.461403 0.651157
4440260000 -0.397119 0.681562
4452258000 -0.329547 0.703329
4464256000 -0.254678 0.71764
4476254000 -0.174804 0.722829
4488252000 -0.0917495 0.716779
4500250000 -0.00827864 0.697187
4512248000 0.0731311 0.66479
4524246000 0.146435 0.622773
4536244000 0.211257 0.575116
4548242000 0.274406 0.523265
4560240000 0.335539 0.45681
4572238000 0.381453 0.370346
4584236000 0.398762 0.272632
4596234000 0.381308 0.178137
4608232000 0.334014 0.106958
4620230000 0.270372 0.0731425
4632228000 0.216439 0.0770734
4644226000 0.190524 0.102515
4656224000 0.192325 0.133184
4668222000 0.225722 0.148222
4680220000 0.26846 0.138871
4692218000 0.311397 0.102009
4704216000 0.341302 0.0397268
4716214000 0.348199 -0.0357769
4728212000 0.331635 -0.115396
4740210000 0.297193 -0.193621
4752208000 0.243325 -0.261868
4764206000 0.177717 -0.315634
4776204000 0.103302 -0.355946
4788202000 0.0261646 -0.378911
4800200000 -0.0503534 -0.388193
4812198000 -0.11712 -0.387155
4824196000 -0.183009 -0.374377
4836194000 -0.237173 -0.349397
4848192000 -0.287762 -0.320615
4860190000 -0.328112 -0.283855
4872188000 -0.35817 -0.242175
4884186000 -0.380315 -0.197606
4896184000 -0.390017 -0.153602
4908182000 -0.39661 -0.107392
4920180000 -0.391706 -0.0610516
4932178000 -0.381993 -0.0187168
4944176000 -0.368241 0.0205076
4956174000 -0.349629 0.0567431
4968172000 -0.32621 0.0847074
4980170000 -0.302641 0.109988
4992168000 -0.277976 0.128627
5004166000 -0.257853 0.14162
5016164000 -0.240638 0.149473
5028162000 -0.224597 0.154735
5040160000 -0.211979 0.151561
5052158000 -0.204607 0.146412
5064156000 -0.203128 0.137955
5076154000 -0.206098 0.133945
5088152000 -0.212606 0.127284
5100150000 -0.220101 0.119188
5112148000 -0.232611 0.118253
5124146000 -0.242815 0.116023
5136144000 -0.251499 0.119608
5148142000 -0.256929 0.126808
5160140000 -0.262164 0.130776
5172138000 -0.265528 0.143255
5184136000 -0.263504 0.150864
5196134000 -0.259373 0.158598
5208132000 -0.250851 0.1691
5220130000 -0.237369 0.183934
5232128000 -0.212809 0.193696
5244126000 -0.190886 0.200868
5256124000 -0.165327 0.206572
5268122000 -0.135768 0.208622
5280120000 -0.120217 0.215364
5292118000 -0.102064 0.216366
5304116000 -0.0895645 0.212574
5316114000 -0.0849258 0.209781
5328112000 -0.0793729 0.206126
5340110000 -0.0773302 0.194347
5352108000 -0.0824602 0.183614
5364106000 -0.0864491 0.173937
5376104000 -0.095762 0.160603
5388102000 -0.107497 0.148473
5400100000 -0.118573 0.136244
5412098000 -0.137898 0.130355
5424096000 -0.152763 0.124951
5436094000 -0.169964 0.120834
5448092000 -0.189353 0.118789
5460090000 -0.203417 0.118492
5472088000 -0.220469 0.115892
5484086000 -0.235483 0.11981
5496084000 -0.247384 0.125058
5508082000 -0.256783 0.131841
5520080000 -0.268083 0.143058
5532078000 -0.273773 0.15589
5544076000 -0.277048 0.169844
5556074000 -0.27829 0.188565
5568072000 -0.275417 0.207524
5580070000 -0.27067 0.227014
5592068000 -0.261824 0.250473
5604066000 -0.250284 0.272972
5616064000 -0.235409 0.297143
5628062000 -0.218659 0.319838
5640060000 -0.199958 0.340151
5652058000 -0.181793 0.3617
5664056000 -0.160835 0.37913
5676054000 -0.13976 0.391771
5688052000 -0.121482 0.406529
5700050000 -0.1043 0.415833
5712048000 -0.0853031 0.421672
5724046000 -0.0710293 0.425334
5736044000 -0.0561868 0.42521
5748042000 -0.0415043 0.424179
5760040000 -0.0260183 0.419329
5772038000 -0.0120405 0.410411
5784036000 0.00139511 0.398362
5796034000 0.0147535 0.381178
5808032000 0.0245457 0.360403
5820030000 0.0332302 0.337836
5832028000 0.0373673 0.314008
5844026000 0.0392052 0.28931
5856024000 0.0406227 0.266884
5868022000 0.0364897 0.244963
5880020000 0.0293456 0.230251
5892018000 0.0233094 0.215318
5904016000 0.0131911 0.207792
5916014000 0.00399509 0.20823
5928012000 -0.00571399 0.211159
5940010000 -0.0169287 0.22319
5952008000 -0.0266088 0.241412
5964006000 -0.030971 0.271572
5976004000 -0.0295783 0.30089
5988002000 -0.0226072 0.331404
6000000000 -0.00639616 0.367529
