# Hz S RI R 50
1000000 1.00247 -0.0194455
12998000 0.957354 -0.211179
24996000 0.894192 -0.385202
36994000 0.802626 -0.54049
48992000 0.689146 -0.682409
60990000 0.55117 -0.794705
72988000 0.395456 -0.879263
84986000 0.228311 -0.932248
96984000 0.0577837 -0.953657
108982000 -0.11191 -0.944448
120980000 -0.274742 -0.906428
132978000 -0.430684 -0.823777
144976000 -0.55698 -0.734172
156974000 -0.587174 -0.698831
168972000 -0.722018 -0.590029
180970000 -0.804515 -0.476012
192968000 -0.868069 -0.352925
204966000 -0.910852 -0.225502
216964000 -0.933366 -0.0967826
228962000 -0.937306 0.0304855
240960000 -0.922274 0.154547
252958000 -0.893629 0.268113
264956000 -0.854352 0.378186
276954000 -0.80295 0.48227
288952000 -0.737161 0.579576
300950000 -0.65923 0.665987
312948000 -0.574472 0.738787
324946000 -0.48143 0.801827
336944000 -0.383465 0.852562
348942000 -0.283147 0.891459
360940000 -0.179782 0.918292
372938000 -0.0755198 0.933113
384936000 0.0295459 0.937556
396934000 0.134105 0.930679
408932000 0.237169 0.912009
420930000 0.338523 0.880951
432928000 0.435611 0.839289
444926000 0.528547 0.785271
456924000 0.61564 0.719509
468922000 0.694406 0.642883
480920000 0.764991 0.556349
492918000 0.825255 0.460146
504916000 0.873555 0.355335
516914000 0.908819 0.243965
528912000 0.930856 0.127488
540910000 0.937825 0.00553074
552908000 0.926464 -0.120404
564906000 0.896566 -0.247079
576904000 0.845341 -0.372897
588902000 0.772768 -0.490566
600900000 0.679993 -0.597851
612898000 0.568356 -0.693166
624896000 0.435401 -0.772415
636894000 0.282041 -0.825343
648892000 0.117699 -0.843279
660890000 -0.0401728 -0.836246
672888000 -0.210752 -0.802114
684886000 -0.379845 -0.724771
696884000 -0.533682 -0.60637
708882000 -0.656001 -0.44717
720880000 -0.738018 -0.263447
732878000 -0.775762 -0.0594829
744876000 -0.760258 0.14434
756874000 -0.696577 0.339692
768872000 -0.590573 0.510121
780870000 -0.450686 0.649331
792868000 -0.286336 0.750332
804866000 -0.108113 0.80718
816864000 0.0702521 0.822797
828862000 0.238891 0.800576
840860000 0.39149 0.747701
852858000 0.524462 0.672359
864856000 0.637792 0.577531
876854000 0.728824 0.470074
888852000 0.798207 0.35303
900850000 0.848174 0.231845
912848000 0.878606 0.107926
924846000 0.890708 -0.0164635
936844000 0.884503 -0.139435
948842000 0.862183 -0.257556
960840000 0.824296 -0.367905
972838000 0.773873 -0.471428
984836000 0.711265 -0.564269
996834000 0.638745 -0.647134
1008832000 0.55824 -0.719777
1020830000 0.473122 -0.781176
1032828000 0.382831 -0.82946
1044826000 0.288062 -0.868326
1056824000 0.192466 -0.896497
1068822000 0.0959407 -0.913842
1080820000 -0.00199074 -0.920219
1092818000 -0.0991019 -0.91664
1104816000 -0.1945 -0.901955
1116814000 -0.288433 -0.878157
1128812000 -0.380585 -0.843481
1140810000 -0.465916 -0.798724
1152808000 -0.548981 -0.74596
1164806000 -0.625595 -0.681234
1176804000 -0.695392 -0.60879
1188802000 -0.75491 -0.531787
1200800000 -0.805914 -0.448281
1212798000 -0.847717 -0.360732
1224796000 -0.879869 -0.270259
1236794000 -0.902524 -0.174389
1248792000 -0.912518 -0.0830436
1260790000 -0.914459 0.00831823
1272788000 -0.907618 0.0989158
1284786000 -0.890887 0.185726
1296784000 -0.866708 0.27137
1308782000 -0.832247 0.353677
1320780000 -0.79077 0.432849
1332778000 -0.739936 0.507067
1344776000 -0.682161 0.576378
1356774000 -0.616236 0.639538
1368772000 -0.541466 0.69756
1380770000 -0.459009 0.746369
1392768000 -0.37118 0.786489
1404766000 -0.277891 0.816267
1416764000 -0.181802 0.836241
1428762000 -0.0837705 0.846322
1440760000 0.0155422 0.845766
1452758000 0.114 0.833778
1464756000 0.211203 0.810321
1476754000 0.306485 0.773799
1488752000 0.394684 0.726345
1500750000 0.478327 0.667076
1512748000 0.551963 0.594657
1524746000 0.616387 0.509941
1536744000 0.667985 0.412354
1548742000 0.706679 0.300669
1560740000 0.72492 0.173514
1572738000 0.711788 0.0325013
1584736000 0.663165 -0.114446
1596734000 0.566009 -0.258193
1608732000 0.41854 -0.376343
1620730000 0.223194 -0.444629
1632728000 0.0084099 -0.434618
1644726000 -0.188524 -0.340699
1656724000 -0.331838 -0.174588
1668722000 -0.392929 0.0212122
1680720000 -0.388274 0.21289
1692718000 -0.320346 0.382485
1704716000 -0.208131 0.50657
1716714000 -0.0773399 0.59098
1728712000 0.0604139 0.63252
1740710000 0.191571 0.641586
1752708000 0.312362 0.627888
1764706000 0.419803 0.593309
1776704000 0.511119 0.542992
1788702000 0.589649 0.488329
1800700000 0.655222 0.424496
1812698000 0.707573 0.358435
1824696000 0.749133 0.292417
1836694000 0.77872 0.224792
1848692000 0.803641 0.155883
1860690000 0.815381 0.0857672
1872688000 0.822687 0.0191795
1884686000 0.82451 -0.0474333
1896684000 0.817355 -0.11845
1908682000 0.802738 -0.185686
1920680000 0.779213 -0.252207
1932678000 0.749946 -0.317488
1944676000 0.712028 -0.381044
1956674000 0.666514 -0.438573
1968672000 0.621687 -0.49201
1980670000 0.569235 -0.545843
1992668000 0.511341 -0.586788
2004666000 0.456332 -0.626958
2016664000 0.392419 -0.661388
2028662000 0.328014 -0.685874
2040660000 0.260593 -0.700573
2052658000 0.197378 -0.706965
2064656000 0.132123 -0.706007
2076654000 0.0618328 -0.69236
2088652000 0.00332494 -0.659418
2100650000 -0.0401919 -0.61812
2112648000 -0.0567361 -0.551206
2124646000 7.85247e-05 -0.53868
2136644000 -0.0161337 -0.63752
2148642000 -0.135351 -0.66893
2160640000 -0.24149 -0.622533
2172638000 -0.310641 -0.555207
2184636000 -0.363351 -0.487103
2196634000 -0.404002 -0.405695
2208632000 -0.428291 -0.321159
2220630000 -0.432497 -0.243389
2232628000 -0.42815 -0.160723
2244626000 -0.407772 -0.0848489
2256624000 -0.364169 -0.0143933
2268622000 -0.317142 0.0359936
2280620000 -0.26182 0.0719104
2292618000 -0.197148 0.0957526
2304616000 -0.146156 0.102224
2316614000 -0.0862649 0.102374
2328612000 -0.0340443 0.09296
2340610000 0.0227692 0.0640268
2352608000 0.0570877 0.0229102
2364606000 0.0872499 -0.0152006
2376604000 0.107112 -0.0724017
2388602000 0.101263 -0.121538
2400600000 0.0959248 -0.162108
2412598000 0.0800176 -0.204097
2424596000 0.0594465 -0.232977
2436594000 0.0286412 -0.257587
2448592000 -0.00465266 -0.27236
2460590000 -0.0379714 -0.278356
2472588000 -0.073103 -0.277582
2484586000 -0.108489 -0.267061
2496584000 -0.142043 -0.243778
2508582000 -0.168604 -0.222122
2520580000 -0.18642 -0.191147
2532578000 -0.200138 -0.158495
2544576000 -0.203882 -0.123921
2556574000 -0.191811 -0.0992698
2568572000 -0.187426 -0.0877754
2580570000 -0.183054 -0.0736183
2592568000 -0.171388 -0.0704994
2604566000 -0.174442 -0.0757284
2616564000 -0.192002 -0.0786146
2628562000 -0.208126 -0.0752671
2640560000 -0.221092 -0.062075
2652558000 -0.243468 -0.0499977
2664556000 -0.258379 -0.0194274
2676554000 -0.258217 0.00910709
2688552000 -0.258389 0.025775
2700550000 -0.260504 0.0554867
2712548000 -0.248322 0.0999142
2724546000 -0.220576 0.129955
2736544000 -0.193172 0.150457
2748542000 -0.160139 0.170737
2760540000 -0.124783 0.189381
2772538000 -0.078369 0.19469
2784536000 -0.0390967 0.192919
2796534000 0.000613898 0.184066
2808532000 0.0396315 0.166517
2820530000 0.0615125 0.140418
2832528000 0.084881 0.121644
2844526000 0.102146 0.0913979
2856524000 0.103305 0.0572974
2868522000 0.0984765 0.0409843
2880520000 0.0884759 0.0132984
2892518000 0.0669236 0.00102682
2904516000 0.047538 -0.00431234
2916514000 0.0256563 -0.00820093
2928512000 -0.00354969 0.000571394
2940510000 -0.0261723 0.0231418
2952508000 -0.0366413 0.0487691
2964506000 -0.0452799 0.081191
2976504000 -0.0424167 0.107649
2988502000 -0.0333249 0.145084
3000500000 -0.00947146 0.17772
3012498000 0.0273135 0.197922
3024496000 0.0606723 0.215541
3036494000 0.107049 0.226385
3048492000 0.158334 0.224277
3060490000 0.202905 0.212602
3072488000 0.250467 0.19599
3084486000 0.297853 0.169994
3096484000 0.335231 0.132292
3108482000 0.367754 0.0959246
3120480000 0.395931 0.0563545
3132478000 0.420404 0.0106087
3144476000 0.435671 -0.0335077
3156474000 0.448176 -0.0774158
3168472000 0.454656 -0.123847
3180470000 0.457003 -0.167644
3192468000 0.45381 -0.213894
3204466000 0.442485 -0.258856
3216464000 0.429987 -0.303059
3228462000 0.411584 -0.344483
3240460000 0.389203 -0.387132
3252458000 0.359673 -0.426462
3264456000 0.327498 -0.46295
3276454000 0.290296 -0.497262
3288452000 0.247213 -0.528728
3300450000 0.202852 -0.555981
3312448000 0.154523 -0.577624
3324446000 0.10367 -0.595791
3336444000 0.0524823 -0.609548
3348442000 -0.000473825 -0.615526
3360440000 -0.0527552 -0.618404
3372438000 -0.105122 -0.616062
3384436000 -0.157264 -0.60818
3396434000 -0.207125 -0.592616
3408432000 -0.253652 -0.574837
3420430000 -0.297137 -0.550032
3432428000 -0.337986 -0.520167
3444426000 -0.375343 -0.486555
3456424000 -0.407889 -0.446624
3468422000 -0.428136 -0.41153
3480420000 -0.458433 -0.351515
3492418000 -0.473108 -0.303221
3504416000 -0.485303 -0.245826
3516414000 -0.486322 -0.184777
3528412000 -0.478785 -0.126519
3540410000 -0.464854 -0.066947
3552408000 -0.439739 -0.0069048
3564406000 -0.408424 0.0456526
3576404000 -0.366699 0.0944149
3588402000 -0.318391 0.134671
3600400000 -0.262557 0.167885
3612398000 -0.201745 0.186941
3624396000 -0.14035 0.195166
3636394000 -0.0774462 0.190219
3648392000 -0.0146807 0.172182
3660390000 0.0408883 0.138763
3672388000 0.0914767 0.0923022
3684386000 0.129723 0.0317379
3696384000 0.150057 -0.0321141
3708382000 0.159754 -0.10174
3720380000 0.152653 -0.174331
3732378000 0.129661 -0.239671
3744376000 0.0950343 -0.29981
3756374000 0.0499693 -0.348446
3768372000 -0.0012806 -0.385826
3780370000 -0.0584899 -0.41062
3792368000 -0.113892 -0.424238
3804366000 -0.170473 -0.427868
3816364000 -0.222444 -0.420228
3828362000 -0.275007 -0.402465
3840360000 -0.323942 -0.37738
3852358000 -0.364418 -0.340767
3864356000 -0.399659 -0.29845
3876354000 -0.430213 -0.249718
3888352000 -0.449735 -0.194518
3900350000 -0.461059 -0.134847
3912348000 -0.460232 -0.0750711
3924346000 -0.454443 -0.0141512
3936344000 -0.433351 0.0488764
3948342000 -0.398687 0.105431
3960340000 -0.355577 0.152011
3972338000 -0.30355 0.191934
3984336000 -0.238456 0.218209
3996334000 -0.172464 0.229083
4008332000 -0.102453 0.225756
4020330000 -0.0273851 0.204512
4032328000 0.037608 0.163146
4044326000 0.0947701 0.107646
4056324000 0.141939 0.0330386
4068322000 0.167536 -0.0537328
4080320000 0.17063 -0.143349
4092318000 0.159201 -0.231761
4104316000 0.124651 -0.322494
4116314000 0.0692583 -0.400016
4128312000 0.00449249 -0.462984
4140310000 -0.0730762 -0.514138
4152308000 -0.155347 -0.548263
4164306000 -0.236156 -0.563653
4176304000 -0.322056 -0.56387
4188302000 -0.404572 -0.546943
4200300000 -0.48396 -0.513741
4212298000 -0.558843 -0.463843
4224296000 -0.625028 -0.402424
4236294000 -0.679488 -0.334576
4248292000 -0.721373 -0.260221
4260290000 -0.75449 -0.185083
4272288000 -0.777105 -0.110617
4284286000 -0.792229 -0.0350757
4296284000 -0.797692 0.0388193
4308282000 -0.796017 0.108836
4320280000 -0.787291 0.180543
4332278000 -0.773772 0.245713
4344276000 -0.751549 0.311406
4356274000 -0.725373 0.371554
4368272000 -0.694288 0.429261
4380270000 -0.656528 0.482002
4392268000 -0.614597 0.534689
4404266000 -0.570063 0.575766
4416264000 -0.521061 0.617153
4428262000 -0.4623 0.653168
4440260000 -0.399924 0.682
4452258000 -0.332047 0.704188
4464256000 -0.257571 0.718071
4476254000 -0.178132 0.722727
4488252000 -0.09455 0.716392
4500250000 -0.0100633 0.695775
4512248000 0.0714601 0.666418
4524246000 0.142842 0.623647
4536244000 0.205636 0.577544
4548242000 0.268034 0.525965
4560240000 0.328119 0.463153
4572238000 0.376162 0.380929
4584236000 0.396806 0.283287
4596234000 0.38147 0.18915
4608232000 0.337612 0.116508
4620230000 0.275771 0.0799103
4632228000 0.221611 0.079864
4644226000 0.192074 0.104412
4656224000 0.193951 0.134024
4668222000 0.221802 0.148801
4680220000 0.265518 0.140498
4692218000 0.307623 0.104862
4704216000 0.337223 0.0438187
4716214000 0.344566 -0.0311903
4728212000 0.330578 -0.110842
4740210000 0.29689 -0.187104
4752208000 0.245065 -0.256468
4764206000 0.180788 -0.313004
4776204000 0.107199 -0.354532
4788202000 0.0291335 -0.37929
4800200000 -0.048446 -0.39292
4812198000 -0.117641 -0.389827
4824196000 -0.183508 -0.375244
4836194000 -0.240946 -0.352527
4848192000 -0.291741 -0.321296
4860190000 -0.333335 -0.282456
4872188000 -0.364003 -0.238916
4884186000 -0.385533 -0.193774
4896184000 -0.398535 -0.144857
4908182000 -0.401938 -0.0956577
4920180000 -0.395936 -0.0473509
4932178000 -0.384172 -0.000809132
4944176000 -0.364485 0.0393525
4956174000 -0.339478 0.0706582
4968172000 -0.313644 0.0984468
4980170000 -0.28623 0.118813
4992168000 -0.260999 0.128717
5004166000 -0.246832 0.135269
5016164000 -0.229891 0.141059
5028162000 -0.218997 0.14106
5040160000 -0.212088 0.135972
5052158000 -0.210882 0.134235
5064156000 -0.21305 0.13004
5076154000 -0.216811 0.123177
5088152000 -0.224065 0.12673
5100150000 -0.230207 0.119939
5112148000 -0.242941 0.115502
5124146000 -0.256213 0.119482
5136144000 -0.261446 0.126704
5148142000 -0.269513 0.132683
5160140000 -0.273625 0.146807
5172138000 -0.27026 0.159851
5184136000 -0.263295 0.171195
5196134000 -0.253354 0.181129
5208132000 -0.238868 0.192071
5220130000 -0.217989 0.196652
5232128000 -0.198664 0.203083
5244126000 -0.175215 0.210153
5256124000 -0.150659 0.213352
5268122000 -0.123079 0.208668
5280120000 -0.109044 0.216345
5292118000 -0.0930697 0.213952
5304116000 -0.0823562 0.208311
5316114000 -0.0777439 0.206744
5328112000 -0.0722092 0.199425
5340110000 -0.0748161 0.186812
5352108000 -0.080432 0.179786
5364106000 -0.0867458 0.16711
5376104000 -0.097911 0.156224
5388102000 -0.10825 0.146546
5400100000 -0.123874 0.137558
5412098000 -0.138928 0.132915
5424096000 -0.152443 0.126796
5436094000 -0.17206 0.123912
5448092000 -0.188431 0.120353
5460090000 -0.202711 0.120705
5472088000 -0.218528 0.121864
5484086000 -0.230397 0.123726
5496084000 -0.24445 0.12871
5508082000 -0.255633 0.137807
5520080000 -0.26485 0.147678
5532078000 -0.268239 0.159364
5544076000 -0.273355 0.173335
5556074000 -0.274109 0.194442
5568072000 -0.26794 0.210093
5580070000 -0.264216 0.230666
5592068000 -0.255848 0.25337
5604066000 -0.240575 0.274856
5616064000 -0.22873 0.292011
5628062000 -0.215758 0.317242
5640060000 -0.196941 0.33748
5652058000 -0.180097 0.355547
5664056000 -0.16495 0.372685
5676054000 -0.147128 0.39178
5688052000 -0.124647 0.405324
5700050000 -0.108891 0.413321
5712048000 -0.0919892 0.422859
5724046000 -0.0741458 0.427304
5736044000 -0.0589142 0.428434
5748042000 -0.0450572 0.424988
5760040000 -0.0315066 0.420648
5772038000 -0.0155115 0.414986
5784036000 -0.00135786 0.401642
5796034000 0.0107246 0.385666
5808032000 0.0203336 0.367491
5820030000 0.030916 0.348051
5832028000 0.0381252 0.324065
5844026000 0.0407954 0.301375
5856024000 0.0424567 0.278663
5868022000 0.0427559 0.259971
5880020000 0.0386803 0.242155
5892018000 0.0326777 0.225747
5904016000 0.0253705 0.217707
5916014000 0.0149509 0.21099
5928012000 0.00163989 0.214804
5940010000 -0.00822733 0.22565
5952008000 -0.0172075 0.243588
5964006000 -0.0256209 0.267086
5976004000 -0.0247576 0.297765
5988002000 -0.0176783 0.326873
6000000000 -0.00104383 0.355374
