# Hz S RI R 50
1000000 1.00126 -0.0220784
12998000 0.957615 -0.211629
24996000 0.894057 -0.385627
36994000 0.80232 -0.540241
48992000 0.688694 -0.683221
60990000 0.55074 -0.795199
72988000 0.394581 -0.879823
84986000 0.227303 -0.932701
96984000 0.0560098 -0.953953
108982000 -0.114655 -0.943928
120980000 -0.278954 -0.9045
132978000 -0.435902 -0.808431
144976000 -0.55498 -0.711499
156974000 -0.598504 -0.703691
168972000 -0.723722 -0.590511
180970000 -0.80485 -0.475823
192968000 -0.868466 -0.352864
204966000 -0.910981 -0.225412
216964000 -0.933311 -0.0966997
228962000 -0.93678 0.0304395
240960000 -0.921099 0.153612
252958000 -0.894362 0.266835
264956000 -0.855406 0.377769
276954000 -0.803205 0.4825
288952000 -0.737271 0.579646
300950000 -0.659975 0.665877
312948000 -0.57494 0.739193
324946000 -0.481846 0.802323
336944000 -0.383816 0.852681
348942000 -0.283178 0.89157
360940000 -0.179656 0.918453
372938000 -0.0754933 0.933594
384936000 0.0295541 0.938161
396934000 0.134161 0.931059
408932000 0.237561 0.91216
420930000 0.338592 0.880896
432928000 0.435806 0.839394
444926000 0.52886 0.785231
456924000 0.615314 0.719936
468922000 0.694578 0.642743
480920000 0.765291 0.555954
492918000 0.825719 0.45961
504916000 0.874 0.354918
516914000 0.908933 0.243749
528912000 0.930589 0.126748
540910000 0.937276 0.00497357
552908000 0.92598 -0.121213
564906000 0.895873 -0.247101
576904000 0.844768 -0.372575
588902000 0.77254 -0.490012
600900000 0.680457 -0.597667
612898000 0.569522 -0.693439
624896000 0.435303 -0.773778
636894000 0.280918 -0.825643
648892000 0.116908 -0.843604
660890000 -0.0424186 -0.835303
672888000 -0.211273 -0.799372
684886000 -0.379245 -0.72352
696884000 -0.531332 -0.605483
708882000 -0.653696 -0.446944
720880000 -0.736211 -0.265033
732878000 -0.775615 -0.0618046
744876000 -0.761537 0.143876
756874000 -0.697439 0.340235
768872000 -0.590616 0.511071
780870000 -0.450136 0.650012
792868000 -0.285247 0.750928
804866000 -0.106708 0.806944
816864000 0.070851 0.82198
828862000 0.239123 0.800079
840860000 0.392374 0.74709
852858000 0.524923 0.671177
864856000 0.637798 0.575767
876854000 0.728229 0.4694
888852000 0.797971 0.352623
900850000 0.847822 0.231519
912848000 0.878503 0.107375
924846000 0.890509 -0.0171265
936844000 0.884352 -0.139637
948842000 0.861587 -0.257985
960840000 0.824752 -0.368785
972838000 0.773374 -0.472374
984836000 0.711156 -0.564903
996834000 0.638616 -0.647666
1008832000 0.558092 -0.719883
1020830000 0.472899 -0.781061
1032828000 0.38185 -0.829799
1044826000 0.287553 -0.868721
1056824000 0.19233 -0.896077
1068822000 0.0953709 -0.913924
1080820000 -0.00236327 -0.920195
1092818000 -0.0995045 -0.916335
1104816000 -0.194961 -0.901767
1116814000 -0.289143 -0.877334
1128812000 -0.38063 -0.843014
1140810000 -0.466478 -0.799319
1152808000 -0.549466 -0.745246
1164806000 -0.625002 -0.681702
1176804000 -0.694682 -0.609203
1188802000 -0.755212 -0.531205
1200800000 -0.806389 -0.447597
1212798000 -0.847743 -0.360817
1224796000 -0.880051 -0.270415
1236794000 -0.902456 -0.174764
1248792000 -0.912446 -0.0834895
1260790000 -0.91473 0.00720063
1272788000 -0.908361 0.0984556
1284786000 -0.891122 0.185854
1296784000 -0.86668 0.271699
1308782000 -0.832607 0.353949
1320780000 -0.790573 0.433314
1332778000 -0.740646 0.507803
1344776000 -0.682415 0.576442
1356774000 -0.616204 0.639524
1368772000 -0.54098 0.697587
1380770000 -0.458354 0.747335
1392768000 -0.369819 0.78675
1404766000 -0.277271 0.816312
1416764000 -0.18057 0.835672
1428762000 -0.0829184 0.845561
1440760000 0.0165401 0.844734
1452758000 0.114497 0.831963
1464756000 0.211636 0.808885
1476754000 0.306332 0.772916
1488752000 0.394632 0.724841
1500750000 0.475651 0.665982
1512748000 0.550944 0.593375
1524746000 0.61517 0.508816
1536744000 0.667014 0.411784
1548742000 0.705274 0.299065
1560740000 0.722283 0.172135
1572738000 0.709873 0.0316507
1584736000 0.660517 -0.11586
1596734000 0.562951 -0.25864
1608732000 0.416181 -0.375376
1620730000 0.222861 -0.442619
1632728000 0.00814564 -0.435643
1644726000 -0.192114 -0.342484
1656724000 -0.336691 -0.17329
1668722000 -0.39741 0.0249353
1680720000 -0.392302 0.218642
1692718000 -0.322928 0.389957
1704716000 -0.206751 0.516013
1716714000 -0.0725472 0.598659
1728712000 0.0667934 0.63862
1740710000 0.199496 0.645595
1752708000 0.32099 0.628227
1764706000 0.427707 0.59144
1776704000 0.518849 0.539346
1788702000 0.594855 0.483419
1800700000 0.659751 0.41895
1812698000 0.709982 0.351618
1824696000 0.749976 0.286562
1836694000 0.779727 0.21837
1848692000 0.801032 0.148423
1860690000 0.812998 0.0811764
1872688000 0.820061 0.0146178
1884686000 0.820789 -0.0526845
1896684000 0.812486 -0.121211
1908682000 0.797563 -0.188373
1920680000 0.773321 -0.253158
1932678000 0.745189 -0.316635
1944676000 0.70752 -0.378226
1956674000 0.66386 -0.436173
1968672000 0.618682 -0.490978
1980670000 0.565082 -0.542405
1992668000 0.507972 -0.582317
2004666000 0.454665 -0.622482
2016664000 0.390755 -0.65552
2028662000 0.326838 -0.678596
2040660000 0.262452 -0.691539
2052658000 0.200246 -0.698687
2064656000 0.137849 -0.698058
2076654000 0.0713109 -0.6862
2088652000 0.0160944 -0.656168
2100650000 -0.0248334 -0.617668
2112648000 -0.0415408 -0.561388
2124646000 0.0068721 -0.552842
2136644000 -0.0155683 -0.646131
2148642000 -0.134966 -0.675407
2160640000 -0.239442 -0.626188
2172638000 -0.306253 -0.560857
2184636000 -0.358732 -0.494055
2196634000 -0.398003 -0.41403
2208632000 -0.419695 -0.335063
2220630000 -0.428716 -0.263804
2232628000 -0.430285 -0.183733
2244626000 -0.416449 -0.111006
2256624000 -0.38332 -0.0416492
2268622000 -0.348243 0.0145933
2280620000 -0.297755 0.0662753
2292618000 -0.230548 0.09793
2304616000 -0.180633 0.107592
2316614000 -0.119589 0.121385
2328612000 -0.0607074 0.119098
2340610000 -0.000272203 0.0933629
2352608000 0.0398146 0.0596623
2364606000 0.0816175 0.0259617
2376604000 0.113564 -0.029098
2388602000 0.119169 -0.0810545
2400600000 0.122532 -0.128661
2412598000 0.115184 -0.177407
2424596000 0.0995952 -0.220778
2436594000 0.0666578 -0.25599
2448592000 0.0300864 -0.278289
2460590000 -0.00557757 -0.292801
2472588000 -0.0472472 -0.297595
2484586000 -0.0913212 -0.292135
2496584000 -0.131478 -0.268283
2508582000 -0.16287 -0.246327
2520580000 -0.189561 -0.213432
2532578000 -0.203088 -0.176764
2544576000 -0.212323 -0.141923
2556574000 -0.202575 -0.111821
2568572000 -0.196886 -0.0929471
2580570000 -0.189243 -0.0793551
2592568000 -0.177668 -0.0761288
2604566000 -0.182437 -0.0797022
2616564000 -0.197053 -0.0813423
2628562000 -0.213212 -0.0808343
2640560000 -0.230372 -0.0711828
2652558000 -0.254675 -0.0563008
2664556000 -0.272234 -0.0251149
2676554000 -0.279072 0.0078717
2688552000 -0.277798 0.0362223
2700550000 -0.277782 0.0679758
2712548000 -0.261727 0.117031
2724546000 -0.228815 0.152211
2736544000 -0.19318 0.179465
2748542000 -0.149987 0.193557
2760540000 -0.109911 0.208677
2772538000 -0.058747 0.209712
2784536000 -0.017336 0.197869
2796534000 0.0236048 0.185748
2808532000 0.059868 0.162279
2820530000 0.0823405 0.13133
2832528000 0.102368 0.105434
2844526000 0.114832 0.0721993
2856524000 0.113825 0.0360496
2868522000 0.0995821 0.0138252
2880520000 0.0836351 -0.0129155
2892518000 0.0517453 -0.0230695
2904516000 0.0245472 -0.0225375
2916514000 0.000407251 -0.0148008
2928512000 -0.0251927 -0.00143018
2940510000 -0.0466447 0.0258869
2952508000 -0.0566007 0.0556039
2964506000 -0.061662 0.0911394
2976504000 -0.0556184 0.118404
2988502000 -0.0454512 0.158978
3000500000 -0.0179493 0.193949
3012498000 0.0218106 0.216021
3024496000 0.060357 0.233785
3036494000 0.109499 0.242927
3048492000 0.164347 0.240906
3060490000 0.212825 0.227303
3072488000 0.26383 0.207487
3084486000 0.312179 0.178526
3096484000 0.352455 0.135646
3108482000 0.384067 0.0947274
3120480000 0.411053 0.0507847
3132478000 0.432021 0.00328413
3144476000 0.445227 -0.0438329
3156474000 0.453228 -0.0890463
3168472000 0.456723 -0.13548
3180470000 0.4566 -0.177512
3192468000 0.450708 -0.222701
3204466000 0.43827 -0.266359
3216464000 0.4233 -0.308684
3228462000 0.404502 -0.348427
3240460000 0.380997 -0.388186
3252458000 0.352483 -0.425165
3264456000 0.321307 -0.459767
3276454000 0.284239 -0.49277
3288452000 0.244411 -0.523701
3300450000 0.200022 -0.550449
3312448000 0.154027 -0.571186
3324446000 0.105785 -0.589109
3336444000 0.0569353 -0.603735
3348442000 0.00358919 -0.611667
3360440000 -0.0483899 -0.614012
3372438000 -0.0977427 -0.613288
3384436000 -0.14995 -0.607786
3396434000 -0.19887 -0.594063
3408432000 -0.245168 -0.577314
3420430000 -0.290169 -0.55516
3432428000 -0.331261 -0.527355
3444426000 -0.369743 -0.495018
3456424000 -0.404307 -0.457272
3468422000 -0.427233 -0.422773
3480420000 -0.4595 -0.36288
3492418000 -0.476941 -0.314539
3504416000 -0.490549 -0.257257
3516414000 -0.495538 -0.195561
3528412000 -0.49052 -0.134558
3540410000 -0.479242 -0.0712403
3552408000 -0.4552 -0.00820045
3564406000 -0.423318 0.0481207
3576404000 -0.381331 0.0992719
3588402000 -0.33365 0.144155
3600400000 -0.273751 0.180039
3612398000 -0.211394 0.202231
3624396000 -0.145176 0.214548
3636394000 -0.0762695 0.209758
3648392000 -0.00761951 0.190393
3660390000 0.0526405 0.155326
3672388000 0.106498 0.104616
3684386000 0.148105 0.0394152
3696384000 0.169752 -0.0301577
3708382000 0.179404 -0.106165
3720380000 0.169461 -0.184005
3732378000 0.141664 -0.252943
3744376000 0.103283 -0.313821
3756374000 0.0525625 -0.364195
3768372000 -0.00307061 -0.401085
3780370000 -0.0625974 -0.424598
3792368000 -0.121467 -0.436428
3804366000 -0.179989 -0.438123
3816364000 -0.236839 -0.42633
3828362000 -0.288111 -0.404559
3840360000 -0.335583 -0.375538
3852358000 -0.37591 -0.335098
3864356000 -0.409234 -0.291656
3876354000 -0.437945 -0.239578
3888352000 -0.454942 -0.18478
3900350000 -0.464401 -0.123714
3912348000 -0.46068 -0.062532
3924346000 -0.449336 -0.00296479
3936344000 -0.425983 0.0569376
3948342000 -0.3887 0.113851
3960340000 -0.343703 0.155667
3972338000 -0.29295 0.192578
3984336000 -0.227373 0.216481
3996334000 -0.162204 0.224136
4008332000 -0.09354 0.218739
4020330000 -0.0235051 0.195373
4032328000 0.0389893 0.154869
4044326000 0.0954079 0.100168
4056324000 0.141 0.0241719
4068322000 0.163789 -0.0614503
4080320000 0.166091 -0.151493
4092318000 0.150085 -0.23804
4104316000 0.114091 -0.324016
4116314000 0.0584058 -0.397294
4128312000 -0.00371721 -0.455656
4140310000 -0.0751441 -0.506396
4152308000 -0.155996 -0.540147
4164306000 -0.236662 -0.556825
4176304000 -0.317763 -0.560337
4188302000 -0.402908 -0.544321
4200300000 -0.480961 -0.511575
4212298000 -0.556617 -0.463316
4224296000 -0.622624 -0.40208
4236294000 -0.677864 -0.334836
4248292000 -0.719537 -0.260809
4260290000 -0.754121 -0.18587
4272288000 -0.776108 -0.112258
4284286000 -0.791052 -0.036607
4296284000 -0.797551 0.0370867
4308282000 -0.796112 0.10743
4320280000 -0.787856 0.178466
4332278000 -0.773642 0.245555
4344276000 -0.752424 0.311184
4356274000 -0.726198 0.373619
4368272000 -0.696625 0.431385
4380270000 -0.657544 0.482172
4392268000 -0.616101 0.532885
4404266000 -0.570577 0.578349
4416264000 -0.51843 0.617151
4428262000 -0.46366 0.652508
4440260000 -0.4014 0.682007
4452258000 -0.332552 0.704712
4464256000 -0.257933 0.718387
4476254000 -0.178139 0.723751
4488252000 -0.0959228 0.7163
4500250000 -0.0107055 0.698448
4512248000 0.070258 0.665418
4524246000 0.142663 0.623084
4536244000 0.205771 0.577713
4548242000 0.267677 0.526807
4560240000 0.328062 0.463896
4572238000 0.37717 0.381654
4584236000 0.397986 0.284772
4596234000 0.385702 0.189204
4608232000 0.339833 0.116716
4620230000 0.277123 0.077559
4632228000 0.221587 0.0777795
4644226000 0.191616 0.102864
4656224000 0.1944 0.133619
4668222000 0.2249 0.148131
4680220000 0.267591 0.139024
4692218000 0.31145 0.101897
4704216000 0.339584 0.0375392
4716214000 0.344227 -0.0397822
4728212000 0.327294 -0.118743
4740210000 0.290147 -0.194784
4752208000 0.235677 -0.263265
4764206000 0.168699 -0.316679
4776204000 0.0927801 -0.35458
4788202000 0.0133616 -0.375894
4800200000 -0.0591996 -0.378675
4812198000 -0.128838 -0.37655
4824196000 -0.189746 -0.359252
4836194000 -0.243721 -0.33453
4848192000 -0.291014 -0.302436
4860190000 -0.326863 -0.265364
4872188000 -0.356956 -0.223244
4884186000 -0.371872 -0.178488
4896184000 -0.381509 -0.134591
4908182000 -0.384408 -0.0876598
4920180000 -0.374815 -0.0442998
4932178000 -0.363504 -0.00515901
4944176000 -0.347724 0.0284868
4956174000 -0.32752 0.0593446
4968172000 -0.306127 0.0838573
4980170000 -0.282723 0.105332
4992168000 -0.262213 0.11785
5004166000 -0.245326 0.126023
5016164000 -0.233586 0.132179
5028162000 -0.222126 0.135034
5040160000 -0.215154 0.1322
5052158000 -0.212711 0.129672
5064156000 -0.214383 0.128309
5076154000 -0.217003 0.12302
5088152000 -0.223145 0.123292
5100150000 -0.229215 0.116517
5112148000 -0.240925 0.112451
5124146000 -0.252416 0.114619
5136144000 -0.259911 0.119603
5148142000 -0.267288 0.124601
5160140000 -0.273635 0.13605
5172138000 -0.272972 0.149097
5184136000 -0.269987 0.159321
5196134000 -0.262612 0.169877
5208132000 -0.250486 0.181588
5220130000 -0.234006 0.188675
5232128000 -0.21432 0.199363
5244126000 -0.193344 0.208867
5256124000 -0.16741 0.216599
5268122000 -0.137947 0.215546
5280120000 -0.123376 0.224367
5292118000 -0.105925 0.224505
5304116000 -0.0938835 0.220175
5316114000 -0.0876753 0.219766
5328112000 -0.0813021 0.214532
5340110000 -0.0810803 0.205472
5352108000 -0.0827279 0.19677
5364106000 -0.0868649 0.184808
5376104000 -0.0933413 0.174135
5388102000 -0.101444 0.160686
5400100000 -0.115921 0.151119
5412098000 -0.130077 0.146213
5424096000 -0.140883 0.138515
5436094000 -0.156418 0.130521
5448092000 -0.173857 0.125841
5460090000 -0.188513 0.122805
5472088000 -0.205202 0.121842
5484086000 -0.217306 0.119932
5496084000 -0.232218 0.124215
5508082000 -0.245102 0.130739
5520080000 -0.256489 0.139922
5532078000 -0.261789 0.151563
5544076000 -0.26948 0.165488
5556074000 -0.270927 0.185873
5568072000 -0.267553 0.203709
5580070000 -0.263385 0.223517
5592068000 -0.257105 0.247896
5604066000 -0.242674 0.270768
5616064000 -0.23057 0.289417
5628062000 -0.217594 0.31541
5640060000 -0.198704 0.337011
5652058000 -0.180892 0.356015
5664056000 -0.163155 0.372652
5676054000 -0.144254 0.390567
5688052000 -0.124146 0.404482
5700050000 -0.105794 0.414326
5712048000 -0.0880271 0.425399
5724046000 -0.0719419 0.427603
5736044000 -0.052207 0.426843
5748042000 -0.0384522 0.422245
5760040000 -0.0230041 0.416157
5772038000 -0.00978063 0.406228
5784036000 0.00233707 0.392168
5796034000 0.0144973 0.375318
5808032000 0.0214492 0.356423
5820030000 0.0293018 0.336538
5832028000 0.0349945 0.313693
5844026000 0.0372804 0.290451
5856024000 0.0372481 0.268371
5868022000 0.036073 0.249405
5880020000 0.0299607 0.231848
5892018000 0.0215848 0.216466
5904016000 0.012087 0.211069
5916014000 0.00156453 0.206917
5928012000 -0.0123384 0.21255
5940010000 -0.0239507 0.226969
5952008000 -0.0323459 0.24591
5964006000 -0.0376169 0.271571
5976004000 -0.0354334 0.304522
5988002000 -0.0266584 0.336209
6000000000 -0.00815817 0.36647
