# Hz S RI R 50
1000000 1.00358 -0.0163986
12998000 0.955265 -0.210893
24996000 0.892157 -0.384201
36994000 0.804099 -0.540666
48992000 0.688917 -0.681197
60990000 0.550759 -0.794316
72988000 0.39421 -0.878349
84986000 0.226746 -0.931397
96984000 0.0546077 -0.952274
108982000 -0.116408 -0.938399
120980000 -0.27399 -0.89812
132978000 -0.422411 -0.816294
144976000 -0.497629 -0.732751
156974000 -0.603084 -0.697977
168972000 -0.72505 -0.588639
180970000 -0.803743 -0.468296
192968000 -0.861806 -0.348872
204966000 -0.902881 -0.227634
216964000 -0.928641 -0.103455
228962000 -0.937099 0.0222491
240960000 -0.927762 0.147727
252958000 -0.900607 0.268133
264956000 -0.858606 0.381437
276954000 -0.803078 0.486137
288952000 -0.735493 0.581603
300950000 -0.658639 0.66681
312948000 -0.573262 0.739994
324946000 -0.479346 0.803094
336944000 -0.380964 0.852649
348942000 -0.279389 0.889403
360940000 -0.17822 0.914852
372938000 -0.0756058 0.93014
384936000 0.0285053 0.934826
396934000 0.132787 0.928443
408932000 0.2354 0.910459
420930000 0.336976 0.880289
432928000 0.434548 0.838678
444926000 0.527002 0.785088
456924000 0.614124 0.719909
468922000 0.693431 0.643012
480920000 0.764072 0.556719
492918000 0.824823 0.460243
504916000 0.873712 0.355203
516914000 0.909398 0.244061
528912000 0.930114 0.126816
540910000 0.936351 0.00490393
552908000 0.924678 -0.120387
564906000 0.89438 -0.245583
576904000 0.84487 -0.368989
588902000 0.775927 -0.486976
600900000 0.683992 -0.59726
612898000 0.571146 -0.692552
624896000 0.440597 -0.770728
636894000 0.29086 -0.826606
648892000 0.127314 -0.853424
660890000 -0.0436968 -0.848502
672888000 -0.214028 -0.81069
684886000 -0.388234 -0.733697
696884000 -0.544262 -0.608151
708882000 -0.665832 -0.445673
720880000 -0.744999 -0.257565
732878000 -0.779311 -0.0539893
744876000 -0.763794 0.152854
756874000 -0.698541 0.350841
768872000 -0.586477 0.523414
780870000 -0.441888 0.657572
792868000 -0.276704 0.753441
804866000 -0.0990847 0.806631
816864000 0.0764486 0.818756
828862000 0.242453 0.796023
840860000 0.39287 0.743023
852858000 0.524347 0.667024
864856000 0.635967 0.573646
876854000 0.725919 0.466641
888852000 0.79442 0.350697
900850000 0.843885 0.231432
912848000 0.875079 0.108426
924846000 0.888154 -0.0152622
936844000 0.883121 -0.137631
948842000 0.861101 -0.254673
960840000 0.824407 -0.36568
972838000 0.773589 -0.469953
984836000 0.712088 -0.562911
996834000 0.639531 -0.646109
1008832000 0.559046 -0.718729
1020830000 0.473158 -0.779863
1032828000 0.382397 -0.829062
1044826000 0.288519 -0.866739
1056824000 0.19304 -0.894406
1068822000 0.0960883 -0.911834
1080820000 -0.00134012 -0.917654
1092818000 -0.0983513 -0.914198
1104816000 -0.19413 -0.899136
1116814000 -0.287515 -0.874455
1128812000 -0.378711 -0.840116
1140810000 -0.463566 -0.796021
1152808000 -0.546724 -0.744205
1164806000 -0.623295 -0.679734
1176804000 -0.694166 -0.609356
1188802000 -0.754131 -0.530801
1200800000 -0.805887 -0.446891
1212798000 -0.847516 -0.360367
1224796000 -0.880159 -0.270049
1236794000 -0.902307 -0.173578
1248792000 -0.911837 -0.0816306
1260790000 -0.913445 0.0107755
1272788000 -0.906034 0.100134
1284786000 -0.888434 0.187133
1296784000 -0.863104 0.272312
1308782000 -0.828596 0.353966
1320780000 -0.786206 0.432185
1332778000 -0.736364 0.505311
1344776000 -0.678409 0.572736
1356774000 -0.613539 0.635638
1368772000 -0.540499 0.69337
1380770000 -0.45948 0.742201
1392768000 -0.372473 0.782326
1404766000 -0.280667 0.81371
1416764000 -0.184488 0.835591
1428762000 -0.0862053 0.847342
1440760000 0.014308 0.847352
1452758000 0.113988 0.835069
1464756000 0.211346 0.810429
1476754000 0.305428 0.775541
1488752000 0.395227 0.728439
1500750000 0.478346 0.667934
1512748000 0.554598 0.596343
1524746000 0.620466 0.510422
1536744000 0.67322 0.409181
1548742000 0.708273 0.293173
1560740000 0.721506 0.165018
1572738000 0.70317 0.0280675
1584736000 0.65282 -0.115653
1596734000 0.555713 -0.251253
1608732000 0.413903 -0.361192
1620730000 0.232581 -0.426557
1632728000 0.0304203 -0.427725
1644726000 -0.166921 -0.345154
1656724000 -0.314469 -0.197298
1668722000 -0.395631 -0.00809748
1680720000 -0.407812 0.192559
1692718000 -0.344831 0.372954
1704716000 -0.235548 0.511804
1716714000 -0.100737 0.606683
1728712000 0.0441849 0.660738
1740710000 0.190439 0.675868
1752708000 0.322607 0.657442
1764706000 0.439609 0.617813
1776704000 0.538549 0.560614
1788702000 0.618074 0.495786
1800700000 0.685898 0.425987
1812698000 0.736286 0.351594
1824696000 0.773352 0.278899
1836694000 0.801258 0.207387
1848692000 0.820767 0.133185
1860690000 0.829401 0.0626896
1872688000 0.832521 -0.0113137
1884686000 0.827074 -0.0810179
1896684000 0.812946 -0.149908
1908682000 0.791748 -0.217229
1920680000 0.761849 -0.28207
1932678000 0.727341 -0.343397
1944676000 0.686935 -0.403969
1956674000 0.634754 -0.456541
1968672000 0.584024 -0.504455
1980670000 0.530965 -0.545972
1992668000 0.473647 -0.583607
2004666000 0.415113 -0.613249
2016664000 0.359035 -0.637235
2028662000 0.299204 -0.653047
2040660000 0.243458 -0.66506
2052658000 0.185012 -0.668759
2064656000 0.127798 -0.66747
2076654000 0.0705635 -0.658699
2088652000 0.0202021 -0.630138
2100650000 -0.0224228 -0.58869
2112648000 -0.0244357 -0.536157
2124646000 0.0175787 -0.539867
2136644000 -0.00676553 -0.636897
2148642000 -0.128398 -0.663261
2160640000 -0.234586 -0.618379
2172638000 -0.314073 -0.547669
2184636000 -0.360671 -0.460067
2196634000 -0.388176 -0.381745
2208632000 -0.402671 -0.298869
2220630000 -0.395779 -0.223954
2232628000 -0.386906 -0.154257
2244626000 -0.356662 -0.0863496
2256624000 -0.323069 -0.0379146
2268622000 -0.279793 0.000469101
2280620000 -0.236233 0.0341705
2292618000 -0.188236 0.0587988
2304616000 -0.133883 0.0672137
2316614000 -0.0816821 0.0652704
2328612000 -0.0357149 0.0449639
2340610000 0.00475607 0.0226114
2352608000 0.0327627 -0.0164011
2364606000 0.0462883 -0.0488341
2376604000 0.06777 -0.0776234
2388602000 0.0661955 -0.125494
2400600000 0.0618516 -0.156333
2412598000 0.0528662 -0.195929
2424596000 0.0262967 -0.210685
2436594000 0.00324821 -0.228917
2448592000 -0.00715086 -0.240738
2460590000 -0.0359007 -0.263276
2472588000 -0.0777714 -0.261496
2484586000 -0.110504 -0.241587
2496584000 -0.130463 -0.230611
2508582000 -0.157989 -0.207375
2520580000 -0.177004 -0.183558
2532578000 -0.188559 -0.150725
2544576000 -0.184846 -0.124482
2556574000 -0.182588 -0.107884
2568572000 -0.1875 -0.0990718
2580570000 -0.187545 -0.082568
2592568000 -0.191632 -0.0655973
2604566000 -0.186195 -0.0603294
2616564000 -0.192134 -0.0636143
2628562000 -0.209845 -0.0567494
2640560000 -0.221306 -0.0309143
2652558000 -0.215685 -0.0162926
2664556000 -0.2234 -0.000440141
2676554000 -0.220363 0.0161269
2688552000 -0.214625 0.0330103
2700550000 -0.211988 0.0531554
2712548000 -0.199212 0.0715023
2724546000 -0.182879 0.0835713
2736544000 -0.175041 0.101829
2748542000 -0.158639 0.124466
2760540000 -0.124912 0.134815
2772538000 -0.105199 0.150142
2784536000 -0.0715638 0.150664
2796534000 -0.0469335 0.154445
2808532000 -0.0202335 0.153763
2820530000 0.0151342 0.154948
2832528000 0.0462466 0.135491
2844526000 0.0641187 0.117678
2856524000 0.072004 0.0966281
2868522000 0.0865482 0.0810219
2880520000 0.0864712 0.0562306
2892518000 0.0785975 0.041014
2904516000 0.0689283 0.0282878
2916514000 0.0517638 0.0196764
2928512000 0.0298627 0.0198348
2940510000 0.0097738 0.0302187
2952508000 -0.00320604 0.0467249
2964506000 -0.0141166 0.0686874
2976504000 -0.0218623 0.0943406
2988502000 -0.0137886 0.126355
3000500000 0.00617199 0.155609
3012498000 0.0340404 0.177945
3024496000 0.0645037 0.188461
3036494000 0.0987297 0.205397
3048492000 0.143842 0.212141
3060490000 0.193702 0.206338
3072488000 0.239921 0.190085
3084486000 0.286021 0.171993
3096484000 0.334307 0.139911
3108482000 0.37098 0.0968416
3120480000 0.400112 0.0550679
3132478000 0.421223 0.00833511
3144476000 0.438748 -0.0343556
3156474000 0.451635 -0.0840337
3168472000 0.455363 -0.132128
3180470000 0.455068 -0.175
3192468000 0.450804 -0.221708
3204466000 0.438357 -0.268078
3216464000 0.423315 -0.308774
3228462000 0.402972 -0.351748
3240460000 0.37487 -0.389467
3252458000 0.350279 -0.424247
3264456000 0.317131 -0.457937
3276454000 0.283516 -0.491289
3288452000 0.245582 -0.522088
3300450000 0.202557 -0.552218
3312448000 0.152721 -0.573642
3324446000 0.102157 -0.59313
3336444000 0.0481358 -0.605374
3348442000 -0.00662286 -0.608601
3360440000 -0.0577802 -0.606736
3372438000 -0.10321 -0.598293
3384436000 -0.147591 -0.593133
3396434000 -0.192483 -0.582903
3408432000 -0.240011 -0.568714
3420430000 -0.282347 -0.544721
3432428000 -0.321285 -0.518382
3444426000 -0.358208 -0.486668
3456424000 -0.390658 -0.451129
3468422000 -0.410612 -0.419354
3480420000 -0.442979 -0.36401
3492418000 -0.45966 -0.315779
3504416000 -0.473443 -0.265423
3516414000 -0.480025 -0.208857
3528412000 -0.479807 -0.149195
3540410000 -0.471735 -0.0899062
3552408000 -0.454106 -0.0275799
3564406000 -0.427157 0.0283471
3576404000 -0.390866 0.0819858
3588402000 -0.344428 0.131795
3600400000 -0.286472 0.171779
3612398000 -0.225149 0.196495
3624396000 -0.158427 0.213943
3636394000 -0.0881691 0.213647
3648392000 -0.0164768 0.194299
3660390000 0.0458334 0.161941
3672388000 0.102916 0.112691
3684386000 0.148125 0.0489219
3696384000 0.174216 -0.0255917
3708382000 0.182871 -0.101775
3720380000 0.173915 -0.180819
3732378000 0.14673 -0.253831
3744376000 0.105182 -0.314334
3756374000 0.0545771 -0.362387
3768372000 0.00162798 -0.397833
3780370000 -0.0584195 -0.424114
3792368000 -0.117132 -0.437486
3804366000 -0.176248 -0.437609
3816364000 -0.232616 -0.427126
3828362000 -0.283807 -0.407175
3840360000 -0.331753 -0.376563
3852358000 -0.372071 -0.340723
3864356000 -0.406832 -0.296034
3876354000 -0.434877 -0.247729
3888352000 -0.455402 -0.189922
3900350000 -0.463567 -0.129845
3912348000 -0.462308 -0.0693415
3924346000 -0.452929 -0.0100867
3936344000 -0.431583 0.0523538
3948342000 -0.397092 0.110452
3960340000 -0.352322 0.156041
3972338000 -0.29598 0.195277
3984336000 -0.230712 0.220251
3996334000 -0.161077 0.228876
4008332000 -0.089042 0.219568
4020330000 -0.0208157 0.194007
4032328000 0.0443395 0.151516
4044326000 0.0976123 0.0918665
4056324000 0.135143 0.0168473
4068322000 0.156286 -0.0620899
4080320000 0.162064 -0.150646
4092318000 0.144534 -0.237545
4104316000 0.1097 -0.321583
4116314000 0.0538873 -0.392855
4128312000 -0.0103678 -0.450572
4140310000 -0.0791069 -0.496358
4152308000 -0.154847 -0.530617
4164306000 -0.232604 -0.548553
4176304000 -0.311563 -0.550158
4188302000 -0.392775 -0.538815
4200300000 -0.470682 -0.508126
4212298000 -0.546257 -0.461762
4224296000 -0.612168 -0.403124
4236294000 -0.668075 -0.337918
4248292000 -0.712712 -0.266519
4260290000 -0.746743 -0.191869
4272288000 -0.770415 -0.119069
4284286000 -0.788905 -0.0439826
4296284000 -0.798288 0.0311031
4308282000 -0.796968 0.101888
4320280000 -0.788944 0.173759
4332278000 -0.77548 0.241304
4344276000 -0.755051 0.308775
4356274000 -0.727318 0.370423
4368272000 -0.696701 0.426308
4380270000 -0.659025 0.481263
4392268000 -0.614805 0.531987
4404266000 -0.568291 0.577572
4416264000 -0.518821 0.615769
4428262000 -0.462524 0.653811
4440260000 -0.399407 0.68318
4452258000 -0.33196 0.706149
4464256000 -0.257872 0.720016
4476254000 -0.178558 0.726696
4488252000 -0.0943004 0.720807
4500250000 -0.00690745 0.70403
4512248000 0.0721934 0.672978
4524246000 0.150505 0.630501
4536244000 0.217544 0.580417
4548242000 0.28175 0.524397
4560240000 0.340612 0.454813
4572238000 0.384708 0.367756
4584236000 0.401935 0.270937
4596234000 0.383642 0.176971
4608232000 0.335979 0.103919
4620230000 0.272035 0.0704868
4632228000 0.218731 0.0748984
4644226000 0.193486 0.099982
4656224000 0.194823 0.126886
4668222000 0.223642 0.141518
4680220000 0.264747 0.133756
4692218000 0.308226 0.0982984
4704216000 0.336897 0.0361766
4716214000 0.34417 -0.0383573
4728212000 0.328484 -0.118121
4740210000 0.292306 -0.194515
4752208000 0.238488 -0.263433
4764206000 0.171902 -0.316403
4776204000 0.0967427 -0.355863
4788202000 0.0193506 -0.376103
4800200000 -0.0527498 -0.385719
4812198000 -0.122941 -0.384626
4824196000 -0.188633 -0.369895
4836194000 -0.247102 -0.345023
4848192000 -0.294258 -0.311272
4860190000 -0.333679 -0.272641
4872188000 -0.362389 -0.227584
4884186000 -0.379177 -0.180575
4896184000 -0.387506 -0.134903
4908182000 -0.384453 -0.0899439
4920180000 -0.377019 -0.0456625
4932178000 -0.363409 -0.00821991
4944176000 -0.347227 0.0267704
4956174000 -0.322856 0.0561249
4968172000 -0.300372 0.0802884
4980170000 -0.278307 0.0933329
4992168000 -0.258976 0.109284
5004166000 -0.244517 0.112058
5016164000 -0.231509 0.113866
5028162000 -0.233963 0.118813
5040160000 -0.231617 0.12333
5052158000 -0.226955 0.121577
5064156000 -0.235795 0.122547
5076154000 -0.239354 0.123369
5088152000 -0.245388 0.129664
5100150000 -0.251803 0.134618
5112148000 -0.253055 0.135746
5124146000 -0.259586 0.139087
5136144000 -0.263906 0.145622
5148142000 -0.261763 0.153312
5160140000 -0.25831 0.160092
5172138000 -0.251913 0.164281
5184136000 -0.247719 0.170219
5196134000 -0.239037 0.175491
5208132000 -0.227123 0.179438
5220130000 -0.210325 0.183427
5232128000 -0.192085 0.185812
5244126000 -0.172319 0.191054
5256124000 -0.154433 0.190959
5268122000 -0.128607 0.195395
5280120000 -0.115296 0.200773
5292118000 -0.102732 0.199621
5304116000 -0.0949405 0.202721
5316114000 -0.0853499 0.20068
5328112000 -0.0840854 0.194228
5340110000 -0.0863168 0.188368
5352108000 -0.0889768 0.178583
5364106000 -0.0933564 0.167192
5376104000 -0.103609 0.153538
5388102000 -0.116164 0.145303
5400100000 -0.128724 0.134641
5412098000 -0.14887 0.129342
5424096000 -0.163806 0.126342
5436094000 -0.177841 0.123628
5448092000 -0.201436 0.121687
5460090000 -0.211697 0.124408
5472088000 -0.22575 0.124359
5484086000 -0.239122 0.12672
5496084000 -0.250314 0.132505
5508082000 -0.260992 0.13904
5520080000 -0.268805 0.151324
5532078000 -0.274585 0.16308
5544076000 -0.276672 0.179119
5556074000 -0.275529 0.198845
5568072000 -0.268304 0.212245
5580070000 -0.264087 0.232456
5592068000 -0.257186 0.254142
5604066000 -0.24385 0.276889
5616064000 -0.229185 0.297087
5628062000 -0.21387 0.321626
5640060000 -0.195246 0.340931
5652058000 -0.178333 0.361034
5664056000 -0.15745 0.379286
5676054000 -0.139508 0.392486
5688052000 -0.123296 0.408679
5700050000 -0.104626 0.420504
5712048000 -0.0819128 0.425551
5724046000 -0.0662502 0.426927
5736044000 -0.0502573 0.428433
5748042000 -0.0346384 0.422597
5760040000 -0.0234206 0.417495
5772038000 -0.00832848 0.408796
5784036000 0.00463936 0.39565
5796034000 0.0167276 0.377605
5808032000 0.0259591 0.357605
5820030000 0.0346131 0.33473
5832028000 0.0387804 0.311283
5844026000 0.0424485 0.2863
5856024000 0.0402773 0.261582
5868022000 0.0353183 0.241858
5880020000 0.027541 0.228329
5892018000 0.0247019 0.214213
5904016000 0.014222 0.204539
5916014000 0.00147401 0.203574
5928012000 -0.00801353 0.210931
5940010000 -0.0189908 0.223084
5952008000 -0.0272987 0.242478
5964006000 -0.0326275 0.269935
5976004000 -0.0294272 0.300483
5988002000 -0.0215916 0.330083
6000000000 -0.00265713 0.362641
