# Hz S RI R 50
1000000 1.00446 -0.00673001
12998000 0.98324 -0.0632626
24996000 0.974838 -0.11306
36994000 0.965814 -0.163165
48992000 0.958295 -0.211857
60990000 0.948419 -0.261937
72988000 0.933288 -0.313188
84986000 0.914669 -0.364115
96984000 0.892051 -0.415196
108982000 0.865302 -0.466023
120980000 0.833588 -0.515604
132978000 0.790545 -0.565445
144976000 0.751122 -0.609125
156974000 0.657852 -0.609768
168972000 0.699645 -0.617204
180970000 0.687292 -0.663888
192968000 0.64576 -0.719132
204966000 0.597312 -0.758896
216964000 0.547599 -0.789623
228962000 0.497532 -0.813964
240960000 0.449889 -0.832887
252958000 0.402628 -0.846535
264956000 0.359442 -0.863724
276954000 0.320453 -0.876464
288952000 0.278927 -0.901335
300950000 0.223308 -0.919287
312948000 0.1671 -0.929845
324946000 0.10688 -0.933492
336944000 0.0483544 -0.929893
348942000 -0.00561884 -0.921714
360940000 -0.058788 -0.912766
372938000 -0.115019 -0.897465
384936000 -0.163891 -0.876277
396934000 -0.207603 -0.856403
408932000 -0.257027 -0.832861
420930000 -0.293856 -0.79583
432928000 -0.318307 -0.766793
444926000 -0.343367 -0.744963
456924000 -0.360827 -0.723327
468922000 -0.380404 -0.723272
480920000 -0.423634 -0.71729
492918000 -0.469476 -0.695454
504916000 -0.511431 -0.665633
516914000 -0.542323 -0.629651
528912000 -0.562895 -0.604752
540910000 -0.601356 -0.587273
552908000 -0.643744 -0.553001
564906000 -0.677697 -0.512999
576904000 -0.712515 -0.466771
588902000 -0.738555 -0.414953
600900000 -0.755572 -0.362873
612898000 -0.767015 -0.314675
624896000 -0.782358 -0.270919
636894000 -0.798742 -0.219418
648892000 -0.808545 -0.162373
660890000 -0.807963 -0.101582
672888000 -0.797003 -0.0443613
684886000 -0.780699 0.00374898
696884000 -0.763113 0.04634
708882000 -0.744296 0.0890035
720880000 -0.721512 0.122977
732878000 -0.707371 0.1531
744876000 -0.686086 0.189603
756874000 -0.672231 0.223226
768872000 -0.642858 0.26155
780870000 -0.613007 0.287726
792868000 -0.587621 0.304165
804866000 -0.560384 0.319778
816864000 -0.545634 0.330181
828862000 -0.5426 0.348058
840860000 -0.53633 0.379154
852858000 -0.512196 0.413552
864856000 -0.486467 0.442452
876854000 -0.454959 0.460128
888852000 -0.422033 0.482355
900850000 -0.385526 0.490527
912848000 -0.362068 0.486792
924846000 -0.3511 0.493025
936844000 -0.343296 0.508647
948842000 -0.322411 0.530393
960840000 -0.296308 0.550562
972838000 -0.267768 0.563575
984836000 -0.231912 0.579911
996834000 -0.196168 0.584299
1008832000 -0.162319 0.588978
1020830000 -0.124978 0.586761
1032828000 -0.094341 0.578015
1044826000 -0.0672845 0.570737
1056824000 -0.0389159 0.564091
1068822000 -0.0163356 0.54691
1080820000 -0.00277755 0.535001
1092818000 0.0118399 0.530259
1104816000 0.0262448 0.524491
1116814000 0.0363893 0.520685
1128812000 0.0473989 0.518707
1140810000 0.0538414 0.520658
1152808000 0.0661789 0.530371
1164806000 0.0852898 0.537348
1176804000 0.105595 0.54343
1188802000 0.124498 0.545351
1200800000 0.138882 0.551901
1212798000 0.156652 0.561785
1224796000 0.182297 0.570109
1236794000 0.209079 0.578883
1248792000 0.243591 0.585228
1260790000 0.280027 0.586307
1272788000 0.320115 0.583932
1284786000 0.357947 0.574126
1296784000 0.402526 0.556923
1308782000 0.438325 0.534774
1320780000 0.474921 0.513266
1332778000 0.514283 0.48418
1344776000 0.546171 0.449412
1356774000 0.575036 0.411266
1368772000 0.597997 0.369223
1380770000 0.616781 0.32937
1392768000 0.632095 0.289736
1404766000 0.644349 0.252033
1416764000 0.652963 0.215532
1428762000 0.660785 0.182955
1440760000 0.668715 0.151887
1452758000 0.673685 0.122786
1464756000 0.681723 0.0958618
1476754000 0.686628 0.0653822
1488752000 0.690165 0.0383495
1500750000 0.694055 0.0112477
1512748000 0.698893 -0.0164415
1524746000 0.702617 -0.0445165
1536744000 0.7065 -0.0725333
1548742000 0.709272 -0.102395
1560740000 0.712638 -0.134092
1572738000 0.715459 -0.171996
1584736000 0.713229 -0.212193
1596734000 0.708257 -0.253886
1608732000 0.699158 -0.298114
1620730000 0.684909 -0.342976
1632728000 0.664998 -0.38915
1644726000 0.640073 -0.433825
1656724000 0.613515 -0.475431
1668722000 0.58325 -0.515374
1680720000 0.550785 -0.549684
1692718000 0.51557 -0.582404
1704716000 0.479255 -0.609386
1716714000 0.443049 -0.635329
1728712000 0.405103 -0.658005
1740710000 0.3681 -0.676146
1752708000 0.329801 -0.693272
1764706000 0.291029 -0.70798
1776704000 0.251003 -0.7196
1788702000 0.208608 -0.72717
1800700000 0.168398 -0.733426
1812698000 0.12278 -0.731807
1824696000 0.0821196 -0.730135
1836694000 0.0399911 -0.724943
1848692000 -0.00432954 -0.718262
1860690000 -0.0507167 -0.708384
1872688000 -0.0951036 -0.692928
1884686000 -0.135639 -0.67742
1896684000 -0.176583 -0.665458
1908682000 -0.22245 -0.650427
1920680000 -0.267201 -0.627769
1932678000 -0.307547 -0.604033
1944676000 -0.346578 -0.575669
1956674000 -0.379997 -0.545903
1968672000 -0.4142 -0.513695
1980670000 -0.443607 -0.47714
1992668000 -0.466214 -0.438491
2004666000 -0.482663 -0.399783
2016664000 -0.499331 -0.364356
2028662000 -0.511494 -0.325299
2040660000 -0.519239 -0.284715
2052658000 -0.524857 -0.241104
2064656000 -0.523061 -0.195685
2076654000 -0.517618 -0.150974
2088652000 -0.50982 -0.105182
2100650000 -0.493101 -0.0551263
2112648000 -0.469 -0.0110685
2124646000 -0.443487 0.0275696
2136644000 -0.417645 0.0629641
2148642000 -0.387355 0.0977222
2160640000 -0.358264 0.123905
2172638000 -0.32334 0.152567
2184636000 -0.282005 0.169084
2196634000 -0.251932 0.178824
2208632000 -0.214314 0.185383
2220630000 -0.181166 0.187572
2232628000 -0.144125 0.185487
2244626000 -0.114306 0.171139
2256624000 -0.0920923 0.152128
2268622000 -0.0743004 0.139849
2280620000 -0.0534814 0.122063
2292618000 -0.0430266 0.104406
2304616000 -0.0275517 0.0818695
2316614000 -0.0197232 0.0628109
2328612000 -0.0123346 0.0398221
2340610000 -0.00945332 0.0139956
2352608000 -0.00880667 -0.00938304
2364606000 -0.00954804 -0.0326655
2376604000 -0.019838 -0.059003
2388602000 -0.0311145 -0.0792043
2400600000 -0.043011 -0.0926619
2412598000 -0.056693 -0.109209
2424596000 -0.0710747 -0.112092
2436594000 -0.0787447 -0.131668
2448592000 -0.104362 -0.138654
2460590000 -0.127131 -0.139999
2472588000 -0.148982 -0.134733
2484586000 -0.165696 -0.135815
2496584000 -0.192752 -0.123621
2508582000 -0.211859 -0.112613
2520580000 -0.231814 -0.0943053
2532578000 -0.246132 -0.0800522
2544576000 -0.266168 -0.0663905
2556574000 -0.287424 -0.0485799
2568572000 -0.307286 -0.0234443
2580570000 -0.320658 0.00337624
2592568000 -0.334639 0.0275814
2604566000 -0.339313 0.0606613
2616564000 -0.342276 0.0843112
2628562000 -0.34516 0.108552
2640560000 -0.343278 0.13123
2652558000 -0.340489 0.160313
2664556000 -0.327751 0.178131
2676554000 -0.323883 0.196599
2688552000 -0.316893 0.222213
2700550000 -0.300674 0.242657
2712548000 -0.286839 0.262551
2724546000 -0.267263 0.285455
2736544000 -0.248784 0.298116
2748542000 -0.231825 0.313935
2760540000 -0.211967 0.336817
2772538000 -0.185422 0.356485
2784536000 -0.155622 0.367533
2796534000 -0.127515 0.38235
2808532000 -0.0980355 0.383095
2820530000 -0.0793166 0.395808
2832528000 -0.0491319 0.408808
2844526000 -0.0217103 0.412695
2856524000 0.00686241 0.421876
2868522000 0.0357225 0.422622
2880520000 0.0661758 0.42685
2892518000 0.0969648 0.41781
2904516000 0.115243 0.413613
2916514000 0.142989 0.411116
2928512000 0.17106 0.40047
2940510000 0.190548 0.382959
2952508000 0.206364 0.381822
2964506000 0.235415 0.374379
2976504000 0.257465 0.357681
2988502000 0.276807 0.348123
3000500000 0.306284 0.329305
3012498000 0.320777 0.307215
3024496000 0.341188 0.293554
3036494000 0.366167 0.270057
3048492000 0.383704 0.240478
3060490000 0.397662 0.218903
3072488000 0.411799 0.194004
3084486000 0.430747 0.169044
3096484000 0.442783 0.134543
3108482000 0.447693 0.107927
3120480000 0.45552 0.0822749
3132478000 0.459926 0.0555724
3144476000 0.465612 0.0328298
3156474000 0.469134 0.00957969
3168472000 0.47495 -0.0158972
3180470000 0.476255 -0.0383748
3192468000 0.479714 -0.0663957
3204466000 0.473679 -0.0932108
3216464000 0.470586 -0.116524
3228462000 0.462427 -0.142929
3240460000 0.455347 -0.162515
3252458000 0.44842 -0.186385
3264456000 0.437825 -0.209654
3276454000 0.426572 -0.230077
3288452000 0.416829 -0.255635
3300450000 0.396653 -0.279384
3312448000 0.383552 -0.296999
3324446000 0.370265 -0.321293
3336444000 0.347625 -0.345118
3348442000 0.328794 -0.361313
3360440000 0.310323 -0.380722
3372438000 0.291772 -0.397813
3384436000 0.269471 -0.415309
3396434000 0.252223 -0.425986
3408432000 0.235882 -0.447028
3420430000 0.212976 -0.459587
3432428000 0.193409 -0.472647
3444426000 0.172946 -0.480598
3456424000 0.159893 -0.49149
3468422000 0.149223 -0.498823
3480420000 0.114593 -0.51149
3492418000 0.095686 -0.517636
3504416000 0.0723377 -0.523403
3516414000 0.0451215 -0.524048
3528412000 0.0269197 -0.524202
3540410000 0.00408069 -0.526991
3552408000 -0.0204676 -0.525668
3564406000 -0.0458218 -0.520867
3576404000 -0.0681537 -0.517473
3588402000 -0.0937376 -0.510045
3600400000 -0.116059 -0.504628
3612398000 -0.141242 -0.496138
3624396000 -0.166134 -0.487253
3636394000 -0.187492 -0.479505
3648392000 -0.214338 -0.470088
3660390000 -0.233962 -0.457526
3672388000 -0.259835 -0.449484
3684386000 -0.279829 -0.437536
3696384000 -0.299499 -0.428788
3708382000 -0.324187 -0.416224
3720380000 -0.341614 -0.400927
3732378000 -0.358328 -0.391282
3744376000 -0.377704 -0.377299
3756374000 -0.390849 -0.36222
3768372000 -0.405612 -0.34797
3780370000 -0.417203 -0.330452
3792368000 -0.431723 -0.317969
3804366000 -0.443837 -0.296859
3816364000 -0.45104 -0.280319
3828362000 -0.462656 -0.261448
3840360000 -0.472433 -0.238603
3852358000 -0.479299 -0.216593
3864356000 -0.483533 -0.193159
3876354000 -0.490438 -0.170396
3888352000 -0.495527 -0.142499
3900350000 -0.494725 -0.116565
3912348000 -0.500056 -0.0947158
3924346000 -0.504174 -0.0646326
3936344000 -0.500296 -0.0391909
3948342000 -0.500725 -0.0157896
3960340000 -0.500799 0.00428038
3972338000 -0.50154 0.0334202
3984336000 -0.495067 0.0538321
3996334000 -0.495079 0.0780583
4008332000 -0.487209 0.0977127
4020330000 -0.486435 0.119558
4032328000 -0.477438 0.142306
4044326000 -0.47096 0.158662
4056324000 -0.46181 0.17906
4068322000 -0.453153 0.197126
4080320000 -0.443836 0.211944
4092318000 -0.433505 0.232246
4104316000 -0.416912 0.244365
4116314000 -0.407782 0.256543
4128312000 -0.390674 0.271052
4140310000 -0.379167 0.278602
4152308000 -0.363007 0.293682
4164306000 -0.346784 0.300713
4176304000 -0.330168 0.317661
4188302000 -0.304424 0.329856
4200300000 -0.284156 0.343291
4212298000 -0.25767 0.357371
4224296000 -0.231682 0.368977
4236294000 -0.206482 0.377808
4248292000 -0.186561 0.384805
4260290000 -0.159648 0.392718
4272288000 -0.136788 0.39231
4284286000 -0.120858 0.39377
4296284000 -0.102886 0.396661
4308282000 -0.0884822 0.397965
4320280000 -0.0662901 0.399629
4332278000 -0.0517684 0.398475
4344276000 -0.0350115 0.394212
4356274000 -0.0192957 0.388063
4368272000 -0.0103748 0.386042
4380270000 0.00551743 0.382607
4392268000 0.0253177 0.3735
4404266000 0.0395029 0.361977
4416264000 0.0530738 0.349788
4428262000 0.0671618 0.341236
4440260000 0.0846449 0.326508
4452258000 0.0968098 0.310424
4464256000 0.108174 0.296696
4476254000 0.121971 0.285297
4488252000 0.136509 0.264696
4500250000 0.146235 0.248587
4512248000 0.16029 0.231056
4524246000 0.167922 0.216483
4536244000 0.178961 0.200077
4548242000 0.185179 0.182387
4560240000 0.190209 0.171263
4572238000 0.198371 0.160072
4584236000 0.202334 0.143062
4596234000 0.199188 0.13654
4608232000 0.203791 0.132413
4620230000 0.208846 0.122921
4632228000 0.20732 0.112774
4644226000 0.203755 0.107242
4656224000 0.205104 0.104643
4668222000 0.206423 0.0918128
4680220000 0.200929 0.0846299
4692218000 0.200664 0.0804917
4704216000 0.200901 0.0691603
4716214000 0.194212 0.0562667
4728212000 0.189371 0.0478682
4740210000 0.184014 0.032031
4752208000 0.176911 0.0207771
4764206000 0.168773 0.00641725
4776204000 0.163736 -0.0026707
4788202000 0.156541 -0.019086
4800200000 0.149371 -0.0297557
4812198000 0.143113 -0.0423204
4824196000 0.13912 -0.0499061
4836194000 0.14121 -0.0615595
4848192000 0.138603 -0.0764801
4860190000 0.135467 -0.0850356
4872188000 0.133744 -0.0934025
4884186000 0.13118 -0.101166
4896184000 0.132456 -0.109399
4908182000 0.130978 -0.117676
4920180000 0.134072 -0.124641
4932178000 0.132967 -0.136706
4944176000 0.124607 -0.14308
4956174000 0.120927 -0.14671
4968172000 0.113016 -0.150427
4980170000 0.108153 -0.152598
4992168000 0.0982408 -0.160935
5004166000 0.0867061 -0.164427
5016164000 0.0739112 -0.173189
5028162000 0.0533064 -0.173353
5040160000 0.0365772 -0.174285
5052158000 0.0185902 -0.176098
5064156000 -0.000608151 -0.178113
5076154000 -0.0187771 -0.178231
5088152000 -0.0357165 -0.181102
5100150000 -0.0582447 -0.177788
5112148000 -0.0707089 -0.178725
5124146000 -0.0871082 -0.177025
5136144000 -0.0990557 -0.178997
5148142000 -0.116586 -0.178055
5160140000 -0.125275 -0.176338
5172138000 -0.138971 -0.178736
5184136000 -0.152837 -0.174805
5196134000 -0.160188 -0.170367
5208132000 -0.163413 -0.16977
5220130000 -0.174137 -0.16619
5232128000 -0.175978 -0.156998
5244126000 -0.177243 -0.151618
5256124000 -0.18263 -0.140025
5268122000 -0.184755 -0.129008
5280120000 -0.183729 -0.105749
5292118000 -0.185297 -0.0946795
5304116000 -0.192651 -0.0778746
5316114000 -0.198299 -0.060704
5328112000 -0.205953 -0.0436951
5340110000 -0.21564 -0.0274153
5352108000 -0.220442 -0.00735565
5364106000 -0.224742 0.00751952
5376104000 -0.229577 0.0206591
5388102000 -0.233021 0.03522
5400100000 -0.234298 0.0485002
5412098000 -0.238605 0.0579575
5424096000 -0.237984 0.0734422
5436094000 -0.234313 0.0880781
5448092000 -0.225431 0.094045
5460090000 -0.218772 0.094049
5472088000 -0.214882 0.0973383
5484086000 -0.208078 0.101556
5496084000 -0.199122 0.101562
5508082000 -0.19542 0.104825
5520080000 -0.183328 0.112632
5532078000 -0.169295 0.112801
5544076000 -0.157017 0.114105
5556074000 -0.143654 0.120399
5568072000 -0.124646 0.120038
5580070000 -0.113379 0.119789
5592068000 -0.0956069 0.124092
5604066000 -0.0781189 0.122624
5616064000 -0.0649974 0.12181
5628062000 -0.0550703 0.120642
5640060000 -0.0430589 0.125095
5652058000 -0.0288916 0.122314
5664056000 -0.0226594 0.117636
5676054000 -0.0188079 0.116914
5688052000 -0.0138807 0.116029
5700050000 -0.0114743 0.113844
5712048000 -0.00676108 0.113479
5724046000 -0.00118924 0.105856
5736044000 -0.00135269 0.0908002
5748042000 -0.0105013 0.0765628
5760040000 -0.0169083 0.0702123
5772038000 -0.0208584 0.0548276
5784036000 -0.032863 0.0388505
5796034000 -0.0447909 0.0285493
5808032000 -0.0517015 0.0170331
5820030000 -0.0628009 0.000111718
5832028000 -0.075158 -0.0128904
5844026000 -0.0841591 -0.0257647
5856024000 -0.0937293 -0.0397334
5868022000 -0.108156 -0.0475972
5880020000 -0.11963 -0.0495865
5892018000 -0.129414 -0.0557897
5904016000 -0.140788 -0.0560951
5916014000 -0.152838 -0.0533034
5928012000 -0.165533 -0.0453305
5940010000 -0.177379 -0.0357681
5952008000 -0.190843 -0.0206128
5964006000 -0.201359 -0.00362113
5976004000 -0.210388 0.0153877
5988002000 -0.219415 0.0361064
6000000000 -0.224739 0.0574432
