# Hz S RI R 50
1000000 1.00513 -0.00789559
12998000 0.983446 -0.0621965
24996000 0.975138 -0.112514
36994000 0.968268 -0.159919
48992000 0.960497 -0.210675
60990000 0.949158 -0.261061
72988000 0.93444 -0.311984
84986000 0.916237 -0.362627
96984000 0.894143 -0.413147
108982000 0.868347 -0.463357
120980000 0.838787 -0.512453
132978000 0.800608 -0.562533
144976000 0.764072 -0.607933
156974000 0.672622 -0.658041
168972000 0.701647 -0.617858
180970000 0.67951 -0.66109
192968000 0.645004 -0.716191
204966000 0.599787 -0.756375
216964000 0.552026 -0.789022
228962000 0.502211 -0.816658
240960000 0.450034 -0.838272
252958000 0.398163 -0.849149
264956000 0.359987 -0.857062
276954000 0.326794 -0.87812
288952000 0.279149 -0.903109
300950000 0.226292 -0.918871
312948000 0.171334 -0.930802
324946000 0.112635 -0.935757
336944000 0.0535285 -0.934885
348942000 -0.00146716 -0.928441
360940000 -0.0579218 -0.921726
372938000 -0.116924 -0.904067
384936000 -0.165432 -0.88105
396934000 -0.210008 -0.861529
408932000 -0.260073 -0.837525
420930000 -0.298971 -0.806185
432928000 -0.327769 -0.769313
444926000 -0.349739 -0.746264
456924000 -0.373786 -0.72545
468922000 -0.387241 -0.711996
480920000 -0.426221 -0.708117
492918000 -0.470084 -0.686774
504916000 -0.507025 -0.659644
516914000 -0.539985 -0.62733
528912000 -0.559749 -0.602088
540910000 -0.598337 -0.584896
552908000 -0.6393 -0.553262
564906000 -0.676246 -0.515781
576904000 -0.712283 -0.469152
588902000 -0.739758 -0.416469
600900000 -0.757289 -0.361081
612898000 -0.765749 -0.310407
624896000 -0.777608 -0.268676
636894000 -0.793466 -0.21976
648892000 -0.804367 -0.165386
660890000 -0.804613 -0.105013
672888000 -0.794649 -0.0511162
684886000 -0.781739 -0.00226921
696884000 -0.765491 0.0407599
708882000 -0.748876 0.0847296
720880000 -0.724783 0.120558
732878000 -0.710558 0.148557
744876000 -0.692324 0.186729
756874000 -0.680806 0.22051
768872000 -0.654552 0.262144
780870000 -0.628951 0.294753
792868000 -0.600478 0.325663
804866000 -0.557752 0.347823
816864000 -0.526022 0.355019
828862000 -0.512311 0.355542
840860000 -0.511351 0.370255
852858000 -0.498289 0.396817
864856000 -0.483937 0.428212
876854000 -0.452079 0.454347
888852000 -0.418256 0.474926
900850000 -0.38518 0.483592
912848000 -0.358297 0.481344
924846000 -0.346601 0.48668
936844000 -0.337079 0.499006
948842000 -0.319876 0.5144
960840000 -0.302319 0.534762
972838000 -0.281275 0.553356
984836000 -0.242192 0.573894
996834000 -0.206123 0.581127
1008832000 -0.171288 0.585314
1020830000 -0.135736 0.584187
1032828000 -0.103536 0.577041
1044826000 -0.0776252 0.569351
1056824000 -0.0494348 0.564112
1068822000 -0.0271632 0.550244
1080820000 -0.0145111 0.540961
1092818000 0.0028385 0.534298
1104816000 0.0191294 0.532391
1116814000 0.0307495 0.523945
1128812000 0.0385767 0.52405
1140810000 0.0461198 0.528623
1152808000 0.0613084 0.538824
1164806000 0.0804277 0.546298
1176804000 0.102361 0.555233
1188802000 0.122501 0.55619
1200800000 0.138822 0.563092
1212798000 0.160243 0.571981
1224796000 0.18427 0.579537
1236794000 0.214194 0.590068
1248792000 0.249154 0.593855
1260790000 0.286357 0.593962
1272788000 0.32768 0.590087
1284786000 0.366573 0.577239
1296784000 0.407098 0.558874
1308782000 0.443407 0.537206
1320780000 0.479371 0.51369
1332778000 0.516022 0.484153
1344776000 0.546855 0.451917
1356774000 0.576911 0.415888
1368772000 0.600721 0.374677
1380770000 0.622132 0.33633
1392768000 0.638042 0.293919
1404766000 0.649414 0.255793
1416764000 0.657605 0.220287
1428762000 0.668157 0.187698
1440760000 0.676906 0.155412
1452758000 0.683314 0.123828
1464756000 0.690016 0.0933052
1476754000 0.692704 0.0622391
1488752000 0.694122 0.0367997
1500750000 0.699005 0.0102964
1512748000 0.702584 -0.0159129
1524746000 0.70761 -0.0430124
1536744000 0.713113 -0.0722706
1548742000 0.717645 -0.102642
1560740000 0.721545 -0.135797
1572738000 0.723725 -0.173728
1584736000 0.721439 -0.214593
1596734000 0.716067 -0.256827
1608732000 0.705441 -0.302643
1620730000 0.690294 -0.346922
1632728000 0.671848 -0.392265
1644726000 0.647969 -0.438493
1656724000 0.620364 -0.48181
1668722000 0.588461 -0.523472
1680720000 0.553898 -0.556461
1692718000 0.519645 -0.586805
1704716000 0.483754 -0.613658
1716714000 0.449772 -0.639062
1728712000 0.412988 -0.663712
1740710000 0.375695 -0.683729
1752708000 0.335912 -0.702105
1764706000 0.295656 -0.716218
1776704000 0.255832 -0.729904
1788702000 0.213627 -0.737225
1800700000 0.169586 -0.741283
1812698000 0.125902 -0.742526
1824696000 0.0838944 -0.738838
1836694000 0.0415851 -0.735029
1848692000 -0.00310224 -0.728363
1860690000 -0.0501079 -0.719073
1872688000 -0.0939096 -0.703969
1884686000 -0.135531 -0.69084
1896684000 -0.179833 -0.677182
1908682000 -0.225942 -0.659648
1920680000 -0.268769 -0.637187
1932678000 -0.308701 -0.615335
1944676000 -0.348205 -0.58712
1956674000 -0.381548 -0.556959
1968672000 -0.413302 -0.525221
1980670000 -0.442255 -0.49286
1992668000 -0.465117 -0.457304
2004666000 -0.483984 -0.425636
2016664000 -0.502953 -0.389637
2028662000 -0.518663 -0.353369
2040660000 -0.53367 -0.313213
2052658000 -0.541054 -0.271502
2064656000 -0.542694 -0.227332
2076654000 -0.543377 -0.184881
2088652000 -0.542607 -0.135673
2100650000 -0.53272 -0.0857199
2112648000 -0.514932 -0.0358483
2124646000 -0.49466 0.00681293
2136644000 -0.476886 0.0496858
2148642000 -0.450541 0.0954514
2160640000 -0.420914 0.128497
2172638000 -0.388046 0.164631
2184636000 -0.347618 0.188887
2196634000 -0.312902 0.210951
2208632000 -0.27809 0.224267
2220630000 -0.241153 0.239152
2232628000 -0.198925 0.240969
2244626000 -0.165693 0.235878
2256624000 -0.135966 0.231561
2268622000 -0.105387 0.220852
2280620000 -0.0754254 0.208948
2292618000 -0.0507785 0.190192
2304616000 -0.0279623 0.172545
2316614000 -0.00445731 0.151959
2328612000 0.00992274 0.120347
2340610000 0.0160486 0.101305
2352608000 0.0357218 0.0738381
2364606000 0.0371794 0.0395094
2376604000 0.0359861 0.0203118
2388602000 0.0413859 -0.00965742
2400600000 0.0324476 -0.0358485
2412598000 0.0253831 -0.0595278
2424596000 0.0151838 -0.0768587
2436594000 0.00409427 -0.105208
2448592000 -0.016101 -0.115925
2460590000 -0.0370949 -0.127014
2472588000 -0.0521289 -0.131973
2484586000 -0.0738675 -0.142984
2496584000 -0.0975198 -0.141059
2508582000 -0.118462 -0.141486
2520580000 -0.145538 -0.135233
2532578000 -0.167472 -0.128311
2544576000 -0.193539 -0.116048
2556574000 -0.218051 -0.105215
2568572000 -0.242788 -0.0864268
2580570000 -0.262647 -0.0662065
2592568000 -0.280327 -0.0461628
2604566000 -0.294709 -0.0246202
2616564000 -0.308401 -0.00365774
2628562000 -0.323306 0.0211874
2640560000 -0.328386 0.0445699
2652558000 -0.336046 0.070695
2664556000 -0.334357 0.093749
2676554000 -0.33867 0.110992
2688552000 -0.339528 0.142999
2700550000 -0.328452 0.166858
2712548000 -0.320372 0.18863
2724546000 -0.310328 0.211748
2736544000 -0.298795 0.23774
2748542000 -0.277665 0.259939
2760540000 -0.26082 0.283721
2772538000 -0.237107 0.302252
2784536000 -0.217796 0.323314
2796534000 -0.184939 0.338809
2808532000 -0.165285 0.34699
2820530000 -0.148364 0.364133
2832528000 -0.118466 0.386357
2844526000 -0.0906442 0.393242
2856524000 -0.0684307 0.403712
2868522000 -0.0410541 0.418213
2880520000 -0.00689239 0.429049
2892518000 0.0188047 0.427485
2904516000 0.0498387 0.433971
2916514000 0.0770341 0.428757
2928512000 0.104911 0.430316
2940510000 0.133749 0.421418
2952508000 0.159275 0.41588
2964506000 0.183022 0.407063
2976504000 0.20573 0.400103
2988502000 0.235308 0.392696
3000500000 0.2615 0.375816
3012498000 0.284511 0.360539
3024496000 0.308478 0.345502
3036494000 0.337694 0.323689
3048492000 0.357821 0.295014
3060490000 0.375868 0.276126
3072488000 0.398808 0.252592
3084486000 0.419858 0.225451
3096484000 0.43423 0.19459
3108482000 0.443526 0.171485
3120480000 0.461267 0.147435
3132478000 0.475537 0.117232
3144476000 0.484806 0.0882865
3156474000 0.491467 0.059416
3168472000 0.498836 0.0300161
3180470000 0.500878 0.00382706
3192468000 0.500713 -0.0268059
3204466000 0.499041 -0.0482357
3216464000 0.501047 -0.0764004
3228462000 0.497075 -0.105618
3240460000 0.493452 -0.128763
3252458000 0.484816 -0.157305
3264456000 0.476411 -0.180896
3276454000 0.466567 -0.204098
3288452000 0.458178 -0.232403
3300450000 0.44224 -0.254112
3312448000 0.433822 -0.278892
3324446000 0.418363 -0.310149
3336444000 0.397232 -0.3327
3348442000 0.382477 -0.354149
3360440000 0.364318 -0.380351
3372438000 0.341618 -0.403724
3384436000 0.319909 -0.424493
3396434000 0.303095 -0.442103
3408432000 0.27898 -0.464191
3420430000 0.256062 -0.480755
3432428000 0.23163 -0.492197
3444426000 0.21337 -0.506866
3456424000 0.189709 -0.519704
3468422000 0.178006 -0.523995
3480420000 0.141583 -0.537496
3492418000 0.121569 -0.544167
3504416000 0.0985691 -0.551429
3516414000 0.0714295 -0.554767
3528412000 0.0514989 -0.55879
3540410000 0.0247877 -0.564594
3552408000 -0.00547324 -0.561344
3564406000 -0.0293509 -0.557169
3576404000 -0.0528966 -0.556122
3588402000 -0.0813188 -0.551836
3600400000 -0.109658 -0.546725
3612398000 -0.138129 -0.540089
3624396000 -0.166795 -0.532072
3636394000 -0.193717 -0.522832
3648392000 -0.221742 -0.511755
3660390000 -0.247128 -0.501858
3672388000 -0.27488 -0.488981
3684386000 -0.296194 -0.47741
3696384000 -0.321543 -0.469044
3708382000 -0.350163 -0.453255
3720380000 -0.369949 -0.43568
3732378000 -0.388438 -0.421746
3744376000 -0.410436 -0.404618
3756374000 -0.425448 -0.382033
3768372000 -0.439169 -0.368953
3780370000 -0.452229 -0.349215
3792368000 -0.468356 -0.329198
3804366000 -0.476274 -0.309959
3816364000 -0.487978 -0.293087
3828362000 -0.501071 -0.269592
3840360000 -0.509689 -0.24237
3852358000 -0.515454 -0.219052
3864356000 -0.523391 -0.19548
3876354000 -0.528993 -0.16805
3888352000 -0.535283 -0.13762
3900350000 -0.53502 -0.109979
3912348000 -0.540867 -0.081777
3924346000 -0.541617 -0.0501853
3936344000 -0.538739 -0.0226422
3948342000 -0.539261 0.00616576
3960340000 -0.53949 0.0319902
3972338000 -0.531793 0.0652983
3984336000 -0.523921 0.0853765
3996334000 -0.52313 0.111242
4008332000 -0.512994 0.13643
4020330000 -0.505974 0.158915
4032328000 -0.49641 0.183545
4044326000 -0.48379 0.204447
4056324000 -0.471011 0.222724
4068322000 -0.457757 0.239825
4080320000 -0.443008 0.258061
4092318000 -0.428663 0.274857
4104316000 -0.410348 0.286691
4116314000 -0.398298 0.300659
4128312000 -0.377461 0.314367
4140310000 -0.356694 0.320856
4152308000 -0.341442 0.331296
4164306000 -0.320147 0.341185
4176304000 -0.29771 0.348494
4188302000 -0.275642 0.36052
4200300000 -0.251459 0.369887
4212298000 -0.221038 0.382957
4224296000 -0.198377 0.386658
4236294000 -0.174026 0.399784
4248292000 -0.142292 0.404669
4260290000 -0.117037 0.402641
4272288000 -0.0977167 0.400688
4284286000 -0.0783882 0.401379
4296284000 -0.0576668 0.400333
4308282000 -0.0445608 0.394307
4320280000 -0.0247052 0.394158
4332278000 -0.0077103 0.387471
4344276000 0.00566006 0.375416
4356274000 0.0195013 0.373941
4368272000 0.0332808 0.363793
4380270000 0.046376 0.3534
4392268000 0.0618498 0.338306
4404266000 0.0683161 0.323659
4416264000 0.0825968 0.311257
4428262000 0.0909058 0.296807
4440260000 0.10255 0.280391
4452258000 0.108447 0.263432
4464256000 0.112684 0.250186
4476254000 0.124181 0.238923
4488252000 0.131277 0.217919
4500250000 0.137373 0.206108
4512248000 0.144623 0.186676
4524246000 0.146324 0.180392
4536244000 0.15853 0.165595
4548242000 0.160427 0.150985
4560240000 0.16032 0.143621
4572238000 0.171899 0.136812
4584236000 0.170397 0.124777
4596234000 0.178193 0.118141
4608232000 0.171359 0.11251
4620230000 0.173903 0.109519
4632228000 0.173471 0.10392
4644226000 0.17077 0.101949
4656224000 0.17096 0.0990902
4668222000 0.167875 0.0921716
4680220000 0.168261 0.0893902
4692218000 0.167572 0.087463
4704216000 0.165305 0.0829035
4716214000 0.162697 0.0749887
4728212000 0.159368 0.0657323
4740210000 0.156252 0.0548277
4752208000 0.152248 0.0482959
4764206000 0.146692 0.0399093
4776204000 0.151425 0.0310903
4788202000 0.148156 0.018641
4800200000 0.148329 0.0061983
4812198000 0.148392 -0.00979408
4824196000 0.148076 -0.0221904
4836194000 0.152277 -0.0365562
4848192000 0.149361 -0.0528525
4860190000 0.153634 -0.0618357
4872188000 0.152316 -0.0755314
4884186000 0.150161 -0.0863602
4896184000 0.15478 -0.0988293
4908182000 0.152656 -0.111455
4920180000 0.150742 -0.1215
4932178000 0.150846 -0.130894
4944176000 0.142039 -0.141978
4956174000 0.136469 -0.146914
4968172000 0.130776 -0.152602
4980170000 0.121516 -0.160324
4992168000 0.107908 -0.166761
5004166000 0.0954776 -0.168769
5016164000 0.0826587 -0.173194
5028162000 0.066315 -0.177354
5040160000 0.0470335 -0.181392
5052158000 0.0279464 -0.18124
5064156000 0.0120479 -0.185973
5076154000 -0.010726 -0.190027
5088152000 -0.0310042 -0.192051
5100150000 -0.0505668 -0.190333
5112148000 -0.0655291 -0.192276
5124146000 -0.086229 -0.192104
5136144000 -0.104299 -0.191688
5148142000 -0.118265 -0.188897
5160140000 -0.132059 -0.188999
5172138000 -0.14591 -0.18572
5184136000 -0.157041 -0.182451
5196134000 -0.168475 -0.178319
5208132000 -0.177196 -0.170583
5220130000 -0.181668 -0.166005
5232128000 -0.181604 -0.156148
5244126000 -0.183948 -0.152894
5256124000 -0.19019 -0.13913
5268122000 -0.188247 -0.127025
5280120000 -0.191518 -0.109854
5292118000 -0.197438 -0.0923256
5304116000 -0.200895 -0.0696797
5316114000 -0.203406 -0.0512366
5328112000 -0.207357 -0.0341298
5340110000 -0.212348 -0.0157194
5352108000 -0.216598 -0.00154101
5364106000 -0.219297 0.0109662
5376104000 -0.22444 0.0225487
5388102000 -0.225716 0.0341618
5400100000 -0.23355 0.0447103
5412098000 -0.239451 0.0585317
5424096000 -0.236722 0.0739993
5436094000 -0.232615 0.0836033
5448092000 -0.229312 0.0956573
5460090000 -0.221824 0.100853
5472088000 -0.210412 0.105756
5484086000 -0.202116 0.102482
5496084000 -0.196332 0.104235
5508082000 -0.186976 0.108766
5520080000 -0.175468 0.108653
5532078000 -0.162532 0.109257
5544076000 -0.151198 0.113045
5556074000 -0.13517 0.113759
5568072000 -0.123059 0.111109
5580070000 -0.108914 0.116981
5592068000 -0.0894191 0.114407
5604066000 -0.0805631 0.113095
5616064000 -0.0682709 0.113434
5628062000 -0.0574618 0.117406
5640060000 -0.0405993 0.117722
5652058000 -0.0332067 0.111985
5664056000 -0.0277297 0.113492
5676054000 -0.0189864 0.114969
5688052000 -0.0136776 0.10624
5700050000 -0.0161434 0.101048
5712048000 -0.0151092 0.105067
5724046000 -0.0117202 0.0963377
5736044000 -0.0167296 0.0847324
5748042000 -0.0259785 0.0768261
5760040000 -0.0269613 0.0709361
5772038000 -0.0319886 0.0576324
5784036000 -0.0392894 0.0413299
5796034000 -0.0528905 0.0246004
5808032000 -0.0658299 0.0168633
5820030000 -0.0758167 0.00364475
5832028000 -0.0863376 -0.00819575
5844026000 -0.100596 -0.0165501
5856024000 -0.107947 -0.024912
5868022000 -0.117091 -0.03203
5880020000 -0.126503 -0.0349838
5892018000 -0.137429 -0.0407605
5904016000 -0.148424 -0.0346309
5916014000 -0.153752 -0.0301983
5928012000 -0.162586 -0.0237575
5940010000 -0.171546 -0.0138749
5952008000 -0.180967 -0.00152857
5964006000 -0.188658 0.0129723
5976004000 -0.19793 0.029128
5988002000 -0.206426 0.0465866
6000000000 -0.217716 0.0708934
