# Hz S RI R 50
1000000 1.00166 -0.00194606
12998000 0.982893 -0.0631054
24996000 0.974215 -0.112911
36994000 0.96637 -0.160104
48992000 0.959061 -0.210938
60990000 0.946845 -0.26116
72988000 0.931487 -0.311662
84986000 0.91246 -0.361861
96984000 0.889599 -0.41191
108982000 0.862468 -0.461532
120980000 0.831726 -0.509905
132978000 0.790934 -0.55936
144976000 0.753054 -0.60319
156974000 0.638333 -0.64046
168972000 0.703684 -0.607822
180970000 0.675301 -0.656613
192968000 0.635912 -0.707126
204966000 0.588243 -0.743616
216964000 0.539413 -0.772913
228962000 0.490635 -0.796703
240960000 0.436158 -0.814799
252958000 0.389688 -0.819499
264956000 0.353319 -0.827169
276954000 0.320954 -0.84723
288952000 0.273669 -0.869795
300950000 0.219089 -0.880938
312948000 0.168856 -0.885713
324946000 0.114237 -0.886661
336944000 0.0606691 -0.883216
348942000 0.0112414 -0.876086
360940000 -0.0416747 -0.86558
372938000 -0.092846 -0.84411
384936000 -0.131089 -0.822455
396934000 -0.167806 -0.80524
408932000 -0.212018 -0.786117
420930000 -0.245453 -0.755793
432928000 -0.262259 -0.725957
444926000 -0.280941 -0.709523
456924000 -0.30094 -0.702696
468922000 -0.331495 -0.700071
480920000 -0.368941 -0.688596
492918000 -0.412367 -0.669304
504916000 -0.449875 -0.640643
516914000 -0.479698 -0.609184
528912000 -0.500059 -0.583351
540910000 -0.533903 -0.56639
552908000 -0.573566 -0.534462
564906000 -0.605229 -0.497074
576904000 -0.636268 -0.45298
588902000 -0.657092 -0.405137
600900000 -0.671654 -0.357941
612898000 -0.681925 -0.315178
624896000 -0.694478 -0.273404
636894000 -0.705103 -0.22719
648892000 -0.712427 -0.177469
660890000 -0.70711 -0.123854
672888000 -0.694675 -0.079981
684886000 -0.683687 -0.0413229
696884000 -0.670308 -0.00829362
708882000 -0.659192 0.0267813
720880000 -0.642424 0.0591816
732878000 -0.632081 0.0845945
744876000 -0.619164 0.119661
756874000 -0.607138 0.150706
768872000 -0.588708 0.187854
780870000 -0.56448 0.217812
792868000 -0.53577 0.240136
804866000 -0.508785 0.254543
816864000 -0.493833 0.26238
828862000 -0.487323 0.277963
840860000 -0.476982 0.302287
852858000 -0.460343 0.322233
864856000 -0.447662 0.345924
876854000 -0.425898 0.369064
888852000 -0.399349 0.387786
900850000 -0.372704 0.403052
912848000 -0.349342 0.409215
924846000 -0.331697 0.418092
936844000 -0.313905 0.433832
948842000 -0.290545 0.441515
960840000 -0.267842 0.454286
972838000 -0.245553 0.46091
984836000 -0.217358 0.469396
996834000 -0.192432 0.471068
1008832000 -0.166565 0.477765
1020830000 -0.134599 0.476096
1032828000 -0.107025 0.464199
1044826000 -0.0903986 0.454727
1056824000 -0.0705572 0.445326
1068822000 -0.0628422 0.432123
1080820000 -0.0649903 0.429294
1092818000 -0.0543088 0.433169
1104816000 -0.048496 0.437036
1116814000 -0.0400344 0.445117
1128812000 -0.0292833 0.452726
1140810000 -0.0244778 0.462821
1152808000 -0.00991136 0.476848
1164806000 0.00629905 0.491164
1176804000 0.0253109 0.510932
1188802000 0.0529592 0.519191
1200800000 0.074106 0.528518
1212798000 0.100194 0.539444
1224796000 0.12833 0.546717
1236794000 0.158324 0.553595
1248792000 0.193627 0.558606
1260790000 0.229996 0.557636
1272788000 0.267823 0.552677
1284786000 0.303669 0.542824
1296784000 0.344611 0.528764
1308782000 0.380571 0.508555
1320780000 0.41563 0.488312
1332778000 0.453597 0.462125
1344776000 0.486446 0.429245
1356774000 0.515589 0.393732
1368772000 0.539395 0.352765
1380770000 0.557359 0.313541
1392768000 0.569285 0.27389
1404766000 0.576943 0.241075
1416764000 0.584819 0.210166
1428762000 0.593329 0.185841
1440760000 0.603802 0.160596
1452758000 0.613337 0.137678
1464756000 0.625589 0.112223
1476754000 0.634492 0.0831727
1488752000 0.639902 0.0588701
1500750000 0.649696 0.0325048
1512748000 0.654836 0.00634901
1524746000 0.662863 -0.0198031
1536744000 0.670011 -0.0475473
1548742000 0.676942 -0.0788293
1560740000 0.680964 -0.11143
1572738000 0.686871 -0.14891
1584736000 0.68937 -0.190241
1596734000 0.685066 -0.234279
1608732000 0.675805 -0.282057
1620730000 0.659349 -0.32813
1632728000 0.638496 -0.372449
1644726000 0.613606 -0.416329
1656724000 0.587916 -0.455931
1668722000 0.558525 -0.493772
1680720000 0.528194 -0.525967
1692718000 0.496014 -0.557037
1704716000 0.463134 -0.583121
1716714000 0.431322 -0.608365
1728712000 0.398236 -0.63204
1740710000 0.364149 -0.653824
1752708000 0.326444 -0.673164
1764706000 0.288794 -0.688481
1776704000 0.250474 -0.702999
1788702000 0.208146 -0.710463
1800700000 0.16893 -0.716191
1812698000 0.126636 -0.716396
1824696000 0.0891215 -0.715471
1836694000 0.0495553 -0.713554
1848692000 0.00845169 -0.710964
1860690000 -0.0351741 -0.70642
1872688000 -0.0797231 -0.696472
1884686000 -0.121944 -0.686913
1896684000 -0.165149 -0.677127
1908682000 -0.210558 -0.6666
1920680000 -0.25802 -0.649757
1932678000 -0.304985 -0.630746
1944676000 -0.349276 -0.602454
1956674000 -0.38676 -0.573918
1968672000 -0.424596 -0.54104
1980670000 -0.457501 -0.505036
1992668000 -0.482919 -0.466845
2004666000 -0.502627 -0.428895
2016664000 -0.523319 -0.391909
2028662000 -0.539249 -0.350415
2040660000 -0.550687 -0.307044
2052658000 -0.556366 -0.260822
2064656000 -0.555161 -0.213081
2076654000 -0.548812 -0.169947
2088652000 -0.542867 -0.122424
2100650000 -0.527205 -0.0732869
2112648000 -0.505974 -0.0298122
2124646000 -0.480733 0.00784509
2136644000 -0.461519 0.0397365
2148642000 -0.443095 0.079911
2160640000 -0.412572 0.107087
2172638000 -0.386892 0.136472
2184636000 -0.353422 0.158507
2196634000 -0.327391 0.174967
2208632000 -0.302411 0.190011
2220630000 -0.272564 0.205882
2232628000 -0.242025 0.214955
2244626000 -0.208016 0.220337
2256624000 -0.176891 0.21619
2268622000 -0.15299 0.21061
2280620000 -0.126622 0.206913
2292618000 -0.0979309 0.195225
2304616000 -0.073569 0.178772
2316614000 -0.0528161 0.163995
2328612000 -0.0309875 0.138567
2340610000 -0.0226977 0.118001
2352608000 -0.00458258 0.09579
2364606000 0.00623241 0.0707531
2376604000 0.00992819 0.0406109
2388602000 0.00920943 0.0137679
2400600000 0.00660506 -0.00497726
2412598000 0.00261091 -0.0335321
2424596000 -0.0112702 -0.0490964
2436594000 -0.0146026 -0.0669421
2448592000 -0.0317149 -0.0867526
2460590000 -0.0504144 -0.0942183
2472588000 -0.0626838 -0.100048
2484586000 -0.0803022 -0.114028
2496584000 -0.103662 -0.10968
2508582000 -0.121811 -0.110798
2520580000 -0.142676 -0.107005
2532578000 -0.165414 -0.103015
2544576000 -0.184742 -0.0910382
2556574000 -0.203484 -0.0907718
2568572000 -0.230008 -0.075094
2580570000 -0.251124 -0.0604654
2592568000 -0.270234 -0.0486693
2604566000 -0.291492 -0.0256733
2616564000 -0.304728 -0.00569334
2628562000 -0.323627 0.0137171
2640560000 -0.333445 0.0358912
2652558000 -0.345691 0.0627751
2664556000 -0.345054 0.0874209
2676554000 -0.351786 0.104898
2688552000 -0.354227 0.130449
2700550000 -0.356523 0.157709
2712548000 -0.34528 0.188748
2724546000 -0.33457 0.212663
2736544000 -0.326301 0.236886
2748542000 -0.308721 0.262624
2760540000 -0.293029 0.29083
2772538000 -0.27327 0.312438
2784536000 -0.249185 0.338714
2796534000 -0.221463 0.359709
2808532000 -0.192517 0.367661
2820530000 -0.180626 0.388258
2832528000 -0.146328 0.414668
2844526000 -0.115017 0.419724
2856524000 -0.0937892 0.43468
2868522000 -0.061155 0.449472
2880520000 -0.0283315 0.459563
2892518000 0.00554958 0.460819
2904516000 0.0322853 0.461278
2916514000 0.0626185 0.463637
2928512000 0.0980403 0.464433
2940510000 0.12792 0.450486
2952508000 0.149828 0.444334
2964506000 0.175544 0.440419
2976504000 0.20452 0.426703
2988502000 0.230488 0.41638
3000500000 0.257021 0.404372
3012498000 0.281356 0.383821
3024496000 0.302475 0.368201
3036494000 0.329067 0.350805
3048492000 0.355374 0.322645
3060490000 0.371903 0.302644
3072488000 0.392949 0.275021
3084486000 0.412038 0.253495
3096484000 0.433625 0.222555
3108482000 0.444209 0.193193
3120480000 0.458014 0.166299
3132478000 0.469347 0.137802
3144476000 0.478213 0.10804
3156474000 0.480217 0.0811216
3168472000 0.486583 0.0518226
3180470000 0.484733 0.0284811
3192468000 0.48898 0.00487682
3204466000 0.488012 -0.0193983
3216464000 0.488642 -0.0450841
3228462000 0.484268 -0.0711228
3240460000 0.480455 -0.0911878
3252458000 0.472589 -0.116325
3264456000 0.466545 -0.137063
3276454000 0.460867 -0.157086
3288452000 0.455301 -0.184525
3300450000 0.442118 -0.207372
3312448000 0.434179 -0.225801
3324446000 0.424342 -0.253748
3336444000 0.409551 -0.278264
3348442000 0.395643 -0.304199
3360440000 0.378949 -0.327497
3372438000 0.363398 -0.349219
3384436000 0.346249 -0.375722
3396434000 0.325516 -0.393427
3408432000 0.308052 -0.415985
3420430000 0.287134 -0.435941
3432428000 0.264744 -0.451082
3444426000 0.246036 -0.4648
3456424000 0.226215 -0.475159
3468422000 0.217307 -0.482932
3480420000 0.185898 -0.499741
3492418000 0.166788 -0.507832
3504416000 0.147129 -0.518855
3516414000 0.120673 -0.531219
3528412000 0.0941655 -0.533739
3540410000 0.072122 -0.535487
3552408000 0.047941 -0.5426
3564406000 0.0203317 -0.541263
3576404000 -0.000122781 -0.542394
3588402000 -0.0304955 -0.541583
3600400000 -0.0562604 -0.538877
3612398000 -0.0855174 -0.536716
3624396000 -0.114141 -0.53487
3636394000 -0.146632 -0.525449
3648392000 -0.175018 -0.518061
3660390000 -0.205747 -0.509479
3672388000 -0.232184 -0.498205
3684386000 -0.261339 -0.489246
3696384000 -0.285701 -0.477337
3708382000 -0.312943 -0.465026
3720380000 -0.338452 -0.445995
3732378000 -0.354721 -0.431063
3744376000 -0.377047 -0.417679
3756374000 -0.394302 -0.397725
3768372000 -0.410023 -0.382055
3780370000 -0.427128 -0.36558
3792368000 -0.442104 -0.344448
3804366000 -0.453055 -0.326403
3816364000 -0.466537 -0.306895
3828362000 -0.47886 -0.282187
3840360000 -0.48814 -0.258142
3852358000 -0.494626 -0.233387
3864356000 -0.503013 -0.207439
3876354000 -0.509355 -0.181065
3888352000 -0.515488 -0.152498
3900350000 -0.52084 -0.124557
3912348000 -0.52349 -0.0933224
3924346000 -0.526609 -0.063344
3936344000 -0.526358 -0.0331912
3948342000 -0.524051 -0.00133166
3960340000 -0.520996 0.02455
3972338000 -0.516329 0.0540735
3984336000 -0.509173 0.078138
3996334000 -0.50469 0.10326
4008332000 -0.492377 0.127089
4020330000 -0.485184 0.147288
4032328000 -0.475404 0.16833
4044326000 -0.465202 0.188289
4056324000 -0.4536 0.206047
4068322000 -0.441851 0.223903
4080320000 -0.426448 0.239163
4092318000 -0.41595 0.253724
4104316000 -0.399535 0.271082
4116314000 -0.382721 0.284262
4128312000 -0.366318 0.293134
4140310000 -0.347844 0.302696
4152308000 -0.329572 0.310967
4164306000 -0.313 0.316892
4176304000 -0.294397 0.325953
4188302000 -0.273135 0.338765
4200300000 -0.246316 0.349756
4212298000 -0.21994 0.36296
4224296000 -0.194297 0.367227
4236294000 -0.170089 0.376928
4248292000 -0.147265 0.377664
4260290000 -0.128739 0.382672
4272288000 -0.105256 0.387892
4284286000 -0.0863372 0.385279
4296284000 -0.0703288 0.389171
4308282000 -0.0489236 0.387079
4320280000 -0.0341779 0.384244
4332278000 -0.0177436 0.379943
4344276000 -0.00551838 0.373394
4356274000 0.0115046 0.36669
4368272000 0.0215517 0.357462
4380270000 0.0345309 0.350557
4392268000 0.0477172 0.341263
4404266000 0.0591629 0.330241
4416264000 0.0719055 0.316619
4428262000 0.0831923 0.303686
4440260000 0.0927147 0.289538
4452258000 0.10393 0.276427
4464256000 0.113736 0.261942
4476254000 0.120056 0.248333
4488252000 0.132821 0.233247
4500250000 0.141325 0.219337
4512248000 0.146158 0.202831
4524246000 0.156188 0.194569
4536244000 0.165639 0.179874
4548242000 0.172393 0.166469
4560240000 0.174355 0.157306
4572238000 0.185324 0.150908
4584236000 0.191677 0.139994
4596234000 0.195089 0.126216
4608232000 0.193302 0.120838
4620230000 0.199393 0.119528
4632228000 0.200331 0.110742
4644226000 0.202257 0.105248
4656224000 0.198884 0.0957545
4668222000 0.197302 0.0914799
4680220000 0.197103 0.08344
4692218000 0.195223 0.0765926
4704216000 0.192057 0.0696318
4716214000 0.189112 0.0633309
4728212000 0.185561 0.0538938
4740210000 0.182728 0.0383794
4752208000 0.174592 0.0322297
4764206000 0.174561 0.0206533
4776204000 0.171269 0.00796973
4788202000 0.167027 -0.00530022
4800200000 0.164913 -0.0175876
4812198000 0.161597 -0.0317887
4824196000 0.162749 -0.0471401
4836194000 0.159468 -0.0641427
4848192000 0.15857 -0.0745272
4860190000 0.161268 -0.0897361
4872188000 0.156761 -0.100927
4884186000 0.154737 -0.110663
4896184000 0.151203 -0.122479
4908182000 0.152811 -0.132085
4920180000 0.147568 -0.140789
4932178000 0.147171 -0.147278
4944176000 0.144993 -0.159041
4956174000 0.134519 -0.165195
4968172000 0.127099 -0.166905
4980170000 0.119097 -0.171867
4992168000 0.107131 -0.177684
5004166000 0.0946889 -0.179
5016164000 0.0861325 -0.184079
5028162000 0.0676988 -0.186453
5040160000 0.0494612 -0.19003
5052158000 0.0321392 -0.192954
5064156000 0.0121848 -0.193739
5076154000 -0.000934692 -0.196698
5088152000 -0.0218819 -0.20215
5100150000 -0.0432388 -0.203396
5112148000 -0.056885 -0.206121
5124146000 -0.0768148 -0.208959
5136144000 -0.0950484 -0.210533
5148142000 -0.111538 -0.210663
5160140000 -0.126207 -0.210066
5172138000 -0.143557 -0.208523
5184136000 -0.158835 -0.20503
5196134000 -0.169864 -0.19882
5208132000 -0.175371 -0.193961
5220130000 -0.184387 -0.192101
5232128000 -0.19026 -0.183941
5244126000 -0.194521 -0.171367
5256124000 -0.195305 -0.157866
5268122000 -0.199809 -0.148261
5280120000 -0.202393 -0.125164
5292118000 -0.203357 -0.108146
5304116000 -0.207209 -0.0891858
5316114000 -0.214897 -0.0697137
5328112000 -0.217173 -0.0518379
5340110000 -0.223697 -0.0357986
5352108000 -0.231283 -0.0158107
5364106000 -0.233555 -0.0021849
5376104000 -0.239651 0.0135305
5388102000 -0.24289 0.0282168
5400100000 -0.241945 0.0451908
5412098000 -0.24012 0.0549166
5424096000 -0.239377 0.0633057
5436094000 -0.236993 0.073437
5448092000 -0.233067 0.0832559
5460090000 -0.22642 0.0867672
5472088000 -0.221625 0.0903704
5484086000 -0.213686 0.0962059
5496084000 -0.203784 0.0968089
5508082000 -0.195598 0.101443
5520080000 -0.183003 0.104727
5532078000 -0.170502 0.103495
5544076000 -0.155343 0.105419
5556074000 -0.14096 0.108284
5568072000 -0.123643 0.105407
5580070000 -0.111133 0.103835
5592068000 -0.0997489 0.106041
5604066000 -0.0799364 0.109326
5616064000 -0.0651652 0.104503
5628062000 -0.0574278 0.100017
5640060000 -0.0471305 0.103394
5652058000 -0.0364622 0.100987
5664056000 -0.0289623 0.0967955
5676054000 -0.0272797 0.0932638
5688052000 -0.0262452 0.0939194
5700050000 -0.020263 0.0913118
5712048000 -0.0215195 0.0839704
5724046000 -0.0280481 0.0783654
5736044000 -0.0303718 0.0734751
5748042000 -0.0349425 0.060719
5760040000 -0.0466978 0.0526608
5772038000 -0.0536567 0.0459079
5784036000 -0.0635292 0.0376495
5796034000 -0.072287 0.0275324
5808032000 -0.0780637 0.0162848
5820030000 -0.0904602 0.00213563
5832028000 -0.100461 -0.00675182
5844026000 -0.105501 -0.0187795
5856024000 -0.118374 -0.0296522
5868022000 -0.127658 -0.0367108
5880020000 -0.140237 -0.0350154
5892018000 -0.143037 -0.0359023
5904016000 -0.14677 -0.0378037
5916014000 -0.158428 -0.0365507
5928012000 -0.165524 -0.0266281
5940010000 -0.169456 -0.0222879
5952008000 -0.181865 -0.0148759
5964006000 -0.194096 -0.00246118
5976004000 -0.202435 0.0183983
5988002000 -0.210951 0.0329273
6000000000 -0.219863 0.0536125
