# Hz S RI R 50
1000000 1.00335 -0.00592823
12998000 0.982936 -0.0620269
24996000 0.97457 -0.112034
36994000 0.969186 -0.159209
48992000 0.960842 -0.210297
60990000 0.948947 -0.261122
72988000 0.933845 -0.312338
84986000 0.915621 -0.363274
96984000 0.893074 -0.414454
108982000 0.865662 -0.46501
120980000 0.834983 -0.511805
132978000 0.79762 -0.561864
144976000 0.752007 -0.600195
156974000 0.647754 -0.653946
168972000 0.737332 -0.619428
180970000 0.678084 -0.685566
192968000 0.633064 -0.721305
204966000 0.587917 -0.747968
216964000 0.552897 -0.773445
228962000 0.515569 -0.802828
240960000 0.47134 -0.836021
252958000 0.421305 -0.862269
264956000 0.37073 -0.884192
276954000 0.31823 -0.901895
288952000 0.264572 -0.915914
300950000 0.210915 -0.92283
312948000 0.161891 -0.932906
324946000 0.102479 -0.939237
336944000 0.0432702 -0.939081
348942000 -0.0174288 -0.931087
360940000 -0.0742642 -0.917445
372938000 -0.12937 -0.900524
384936000 -0.186854 -0.879644
396934000 -0.23775 -0.848463
408932000 -0.279665 -0.812072
420930000 -0.317646 -0.762344
432928000 -0.324084 -0.728546
444926000 -0.32998 -0.70307
456924000 -0.340851 -0.698342
468922000 -0.354921 -0.691246
480920000 -0.377159 -0.69894
492918000 -0.422506 -0.709861
504916000 -0.480586 -0.695434
516914000 -0.532493 -0.668658
528912000 -0.575736 -0.634385
540910000 -0.618099 -0.597774
552908000 -0.654697 -0.554072
564906000 -0.686704 -0.508246
576904000 -0.712163 -0.463758
588902000 -0.735793 -0.417927
600900000 -0.759673 -0.369893
612898000 -0.779482 -0.31657
624896000 -0.793646 -0.259585
636894000 -0.8029 -0.204698
648892000 -0.805088 -0.142523
660890000 -0.794347 -0.0818911
672888000 -0.775517 -0.0275044
684886000 -0.750017 0.0162085
696884000 -0.723662 0.0432035
708882000 -0.704865 0.0687244
720880000 -0.692697 0.0922618
732878000 -0.684313 0.115111
744876000 -0.682751 0.143099
756874000 -0.674874 0.169659
768872000 -0.670027 0.209729
780870000 -0.659853 0.243808
792868000 -0.644721 0.280152
804866000 -0.624123 0.321032
816864000 -0.600163 0.352284
828862000 -0.574044 0.382903
840860000 -0.553445 0.411556
852858000 -0.520019 0.445613
864856000 -0.486269 0.467546
876854000 -0.452655 0.486789
888852000 -0.41451 0.49827
900850000 -0.383782 0.504823
912848000 -0.356783 0.506956
924846000 -0.342842 0.510119
936844000 -0.32747 0.52838
948842000 -0.305429 0.549946
960840000 -0.270497 0.566238
972838000 -0.225541 0.578981
984836000 -0.184936 0.565746
996834000 -0.1589 0.553897
1008832000 -0.137873 0.553709
1020830000 -0.107746 0.548716
1032828000 -0.0808568 0.529741
1044826000 -0.0730167 0.517991
1056824000 -0.0574342 0.5117
1068822000 -0.0509297 0.498278
1080820000 -0.0546798 0.503957
1092818000 -0.0420057 0.5111
1104816000 -0.0306648 0.515926
1116814000 -0.0245371 0.52344
1128812000 -0.0169397 0.538706
1140810000 0.000689924 0.558645
1152808000 0.0225658 0.576709
1164806000 0.049254 0.592274
1176804000 0.0872812 0.606359
1188802000 0.119279 0.610858
1200800000 0.151201 0.617745
1212798000 0.187794 0.615883
1224796000 0.22137 0.613959
1236794000 0.257704 0.610595
1248792000 0.294955 0.600392
1260790000 0.328923 0.582147
1272788000 0.35745 0.568321
1284786000 0.387604 0.553013
1296784000 0.417506 0.533268
1308782000 0.44715 0.514631
1320780000 0.476688 0.488051
1332778000 0.502196 0.466207
1344776000 0.527537 0.441217
1356774000 0.553899 0.413964
1368772000 0.579143 0.385966
1380770000 0.607081 0.357081
1392768000 0.632079 0.322023
1404766000 0.65531 0.28568
1416764000 0.675281 0.248709
1428762000 0.693952 0.208972
1440760000 0.708332 0.169138
1452758000 0.718989 0.129004
1464756000 0.72389 0.0903018
1476754000 0.729341 0.0539178
1488752000 0.732092 0.0156572
1500750000 0.730673 -0.0209142
1512748000 0.728401 -0.0578733
1524746000 0.721313 -0.0931604
1536744000 0.713076 -0.126247
1548742000 0.704132 -0.156561
1560740000 0.693931 -0.189753
1572738000 0.680246 -0.219276
1584736000 0.667125 -0.248718
1596734000 0.655272 -0.276195
1608732000 0.639177 -0.304037
1620730000 0.629014 -0.329782
1632728000 0.620222 -0.359769
1644726000 0.610008 -0.394874
1656724000 0.596462 -0.432118
1668722000 0.581293 -0.472105
1680720000 0.558231 -0.512209
1692718000 0.531329 -0.549064
1704716000 0.500844 -0.582982
1716714000 0.46743 -0.615102
1728712000 0.430193 -0.643053
1740710000 0.393907 -0.664593
1752708000 0.356651 -0.684194
1764706000 0.321505 -0.699999
1776704000 0.283194 -0.716919
1788702000 0.243919 -0.729568
1800700000 0.20362 -0.740972
1812698000 0.159202 -0.748934
1824696000 0.115016 -0.75293
1836694000 0.063703 -0.753811
1848692000 0.0162545 -0.748158
1860690000 -0.0332169 -0.739938
1872688000 -0.0820835 -0.728688
1884686000 -0.130701 -0.712989
1896684000 -0.177116 -0.695036
1908682000 -0.22109 -0.676881
1920680000 -0.263061 -0.655818
1932678000 -0.300052 -0.635935
1944676000 -0.340808 -0.615448
1956674000 -0.382127 -0.592011
1968672000 -0.42323 -0.563177
1980670000 -0.461858 -0.529049
1992668000 -0.492507 -0.49057
2004666000 -0.520088 -0.452374
2016664000 -0.549791 -0.410392
2028662000 -0.571304 -0.359237
2040660000 -0.583908 -0.307872
2052658000 -0.58894 -0.255407
2064656000 -0.592762 -0.202323
2076654000 -0.585565 -0.1428
2088652000 -0.571309 -0.0869522
2100650000 -0.552067 -0.0315856
2112648000 -0.524392 0.0232774
2124646000 -0.491777 0.0666405
2136644000 -0.460973 0.109563
2148642000 -0.422342 0.14968
2160640000 -0.378783 0.179001
2172638000 -0.341212 0.201063
2184636000 -0.299171 0.225303
2196634000 -0.249565 0.237555
2208632000 -0.206959 0.233202
2220630000 -0.17431 0.231518
2232628000 -0.137914 0.225406
2244626000 -0.102031 0.213754
2256624000 -0.0733354 0.193249
2268622000 -0.0557076 0.169145
2280620000 -0.0439743 0.152833
2292618000 -0.0214825 0.134815
2304616000 -0.0116478 0.111403
2316614000 -0.00103642 0.0890524
2328612000 0.000328253 0.0664549
2340610000 0.0115377 0.0481478
2352608000 0.0178994 0.02561
2364606000 0.016283 -0.000624708
2376604000 0.0163556 -0.0264995
2388602000 0.0169719 -0.0479356
2400600000 0.00735566 -0.07662
2412598000 -0.00796093 -0.100009
2424596000 -0.0227684 -0.117106
2436594000 -0.0392698 -0.133125
2448592000 -0.0640285 -0.148626
2460590000 -0.0926634 -0.147433
2472588000 -0.10949 -0.149085
2484586000 -0.132856 -0.151447
2496584000 -0.166964 -0.139765
2508582000 -0.184576 -0.133514
2520580000 -0.216218 -0.115304
2532578000 -0.237451 -0.0915769
2544576000 -0.25411 -0.0696617
2556574000 -0.26899 -0.0510025
2568572000 -0.285897 -0.026717
2580570000 -0.295324 -0.000358458
2592568000 -0.306946 0.0177816
2604566000 -0.310316 0.0525678
2616564000 -0.311721 0.0731908
2628562000 -0.312374 0.0922582
2640560000 -0.311435 0.113549
2652558000 -0.307569 0.132696
2664556000 -0.295585 0.149297
2676554000 -0.292293 0.164355
2688552000 -0.289001 0.182302
2700550000 -0.277056 0.197786
2712548000 -0.270759 0.220022
2724546000 -0.251042 0.238256
2736544000 -0.237385 0.24888
2748542000 -0.220125 0.268748
2760540000 -0.199127 0.281574
2772538000 -0.182882 0.293534
2784536000 -0.165859 0.304698
2796534000 -0.150479 0.317674
2808532000 -0.126935 0.333805
2820530000 -0.102316 0.344202
2832528000 -0.0832508 0.356096
2844526000 -0.0579461 0.365767
2856524000 -0.040975 0.373758
2868522000 -0.0147652 0.385914
2880520000 0.0106861 0.390281
2892518000 0.0320538 0.396586
2904516000 0.0598599 0.394756
2916514000 0.0819791 0.398116
2928512000 0.105902 0.401011
2940510000 0.139325 0.396147
2952508000 0.16063 0.389467
2964506000 0.188802 0.38004
2976504000 0.207501 0.372377
2988502000 0.234156 0.362771
3000500000 0.258139 0.350648
3012498000 0.280686 0.332056
3024496000 0.301827 0.313937
3036494000 0.324299 0.298168
3048492000 0.349274 0.270804
3060490000 0.362674 0.251156
3072488000 0.378254 0.225292
3084486000 0.394469 0.205956
3096484000 0.41365 0.183549
3108482000 0.42754 0.157281
3120480000 0.440101 0.131077
3132478000 0.449273 0.109178
3144476000 0.464625 0.0831256
3156474000 0.472292 0.0571418
3168472000 0.482955 0.0288692
3180470000 0.486038 -0.00133273
3192468000 0.488976 -0.0231021
3204466000 0.492755 -0.0555988
3216464000 0.489112 -0.0823881
3228462000 0.487298 -0.109585
3240460000 0.485517 -0.140885
3252458000 0.469899 -0.170802
3264456000 0.459986 -0.194619
3276454000 0.446055 -0.223692
3288452000 0.426701 -0.246326
3300450000 0.411767 -0.267929
3312448000 0.393334 -0.288623
3324446000 0.376766 -0.307499
3336444000 0.355572 -0.329729
3348442000 0.335489 -0.344735
3360440000 0.31732 -0.362347
3372438000 0.300382 -0.37833
3384436000 0.284129 -0.393453
3396434000 0.259766 -0.414006
3408432000 0.243576 -0.421953
3420430000 0.226682 -0.43443
3432428000 0.208969 -0.445716
3444426000 0.192615 -0.451977
3456424000 0.180847 -0.464701
3468422000 0.17101 -0.466874
3480420000 0.145768 -0.480429
3492418000 0.130573 -0.485108
3504416000 0.117079 -0.493904
3516414000 0.100622 -0.504905
3528412000 0.082132 -0.510273
3540410000 0.0604696 -0.518032
3552408000 0.0393719 -0.520407
3564406000 0.0186057 -0.524436
3576404000 -0.00514362 -0.526624
3588402000 -0.0275591 -0.526922
3600400000 -0.0510374 -0.529062
3612398000 -0.0784334 -0.527972
3624396000 -0.103167 -0.528197
3636394000 -0.132913 -0.527166
3648392000 -0.159867 -0.52366
3660390000 -0.189687 -0.518214
3672388000 -0.219221 -0.513742
3684386000 -0.246847 -0.50761
3696384000 -0.274331 -0.499076
3708382000 -0.300507 -0.490966
3720380000 -0.323329 -0.479366
3732378000 -0.351467 -0.474187
3744376000 -0.378865 -0.458081
3756374000 -0.401634 -0.44537
3768372000 -0.425774 -0.430522
3780370000 -0.450257 -0.411492
3792368000 -0.470385 -0.392756
3804366000 -0.489346 -0.368802
3816364000 -0.503842 -0.344356
3828362000 -0.518527 -0.320018
3840360000 -0.529554 -0.292516
3852358000 -0.544454 -0.270291
3864356000 -0.557144 -0.243092
3876354000 -0.571054 -0.204964
3888352000 -0.573317 -0.174646
3900350000 -0.58101 -0.143841
3912348000 -0.589508 -0.107051
3924346000 -0.592362 -0.071578
3936344000 -0.59167 -0.0387806
3948342000 -0.594808 -0.00357654
3960340000 -0.595465 0.0337351
3972338000 -0.58726 0.0651564
3984336000 -0.579699 0.0992351
3996334000 -0.571314 0.129527
4008332000 -0.56385 0.15809
4020330000 -0.550124 0.188092
4032328000 -0.536487 0.215139
4044326000 -0.521517 0.241036
4056324000 -0.50031 0.26145
4068322000 -0.485542 0.281903
4080320000 -0.467622 0.305333
4092318000 -0.443701 0.321344
4104316000 -0.420234 0.339073
4116314000 -0.394844 0.34541
4128312000 -0.375714 0.355691
4140310000 -0.350791 0.365139
4152308000 -0.326127 0.37058
4164306000 -0.301773 0.371048
4176304000 -0.282122 0.381037
4188302000 -0.260114 0.38498
4200300000 -0.229804 0.398328
4212298000 -0.202301 0.406113
4224296000 -0.172558 0.412134
4236294000 -0.14261 0.412763
4248292000 -0.11789 0.416783
4260290000 -0.0911222 0.414655
4272288000 -0.0693517 0.412365
4284286000 -0.0475541 0.407349
4296284000 -0.0301381 0.402631
4308282000 -0.0122018 0.397874
4320280000 0.00301478 0.38871
4332278000 0.0198448 0.382232
4344276000 0.0361683 0.372893
4356274000 0.0520604 0.362152
4368272000 0.0598241 0.349451
4380270000 0.0717013 0.335951
4392268000 0.0768027 0.318972
4404266000 0.0923152 0.302487
4416264000 0.0946516 0.287439
4428262000 0.10219 0.270002
4440260000 0.11104 0.252486
4452258000 0.10973 0.236563
4464256000 0.113786 0.225306
4476254000 0.120389 0.211756
4488252000 0.124066 0.196414
4500250000 0.128597 0.181236
4512248000 0.129891 0.168718
4524246000 0.136106 0.160424
4536244000 0.137808 0.150788
4548242000 0.140561 0.141186
4560240000 0.140572 0.135374
4572238000 0.148284 0.131647
4584236000 0.149884 0.129073
4596234000 0.156302 0.124076
4608232000 0.160096 0.123356
4620230000 0.169131 0.118613
4632228000 0.167851 0.112155
4644226000 0.171182 0.107898
4656224000 0.167096 0.0989234
4668222000 0.163226 0.0950717
4680220000 0.163017 0.0978097
4692218000 0.167512 0.0893802
4704216000 0.159234 0.083347
4716214000 0.161262 0.0788482
4728212000 0.155144 0.0717825
4740210000 0.158542 0.0637394
4752208000 0.155669 0.0522142
4764206000 0.157067 0.0427276
4776204000 0.151734 0.0255984
4788202000 0.148344 0.0130671
4800200000 0.141764 0.0030007
4812198000 0.145123 -0.00964291
4824196000 0.144666 -0.0230291
4836194000 0.141614 -0.0339635
4848192000 0.147009 -0.0384659
4860190000 0.151988 -0.0566836
4872188000 0.154147 -0.0702918
4884186000 0.158989 -0.0877093
4896184000 0.154295 -0.103188
4908182000 0.155606 -0.114841
4920180000 0.149708 -0.128407
4932178000 0.145923 -0.137085
4944176000 0.138 -0.145305
4956174000 0.129709 -0.149074
4968172000 0.12081 -0.154454
4980170000 0.108932 -0.159745
4992168000 0.0946854 -0.159618
5004166000 0.0872941 -0.157796
5016164000 0.0755919 -0.161303
5028162000 0.0628521 -0.160151
5040160000 0.0520782 -0.166744
5052158000 0.0329582 -0.172302
5064156000 0.0132685 -0.17275
5076154000 -0.000563356 -0.178162
5088152000 -0.0215 -0.179636
5100150000 -0.038084 -0.180493
5112148000 -0.0554419 -0.187773
5124146000 -0.0753461 -0.187772
5136144000 -0.0890674 -0.185403
5148142000 -0.102147 -0.18619
5160140000 -0.109613 -0.186257
5172138000 -0.125082 -0.194144
5184136000 -0.142462 -0.194325
5196134000 -0.150842 -0.192756
5208132000 -0.164073 -0.198718
5220130000 -0.179184 -0.191032
5232128000 -0.187552 -0.182976
5244126000 -0.194427 -0.168697
5256124000 -0.196748 -0.155097
5268122000 -0.205006 -0.144016
5280120000 -0.204613 -0.115935
5292118000 -0.207486 -0.097852
5304116000 -0.208244 -0.078399
5316114000 -0.214577 -0.0607694
5328112000 -0.221741 -0.0436302
5340110000 -0.229777 -0.021568
5352108000 -0.235635 -0.00344055
5364106000 -0.237163 0.0159266
5376104000 -0.23772 0.0288286
5388102000 -0.242435 0.0447518
5400100000 -0.239294 0.0590716
5412098000 -0.238883 0.0708381
5424096000 -0.237906 0.0821593
5436094000 -0.227801 0.0924718
5448092000 -0.225153 0.0937424
5460090000 -0.220754 0.0963764
5472088000 -0.216212 0.0989189
5484086000 -0.211318 0.100487
5496084000 -0.210955 0.102501
5508082000 -0.200297 0.112122
5520080000 -0.189692 0.116196
5532078000 -0.176346 0.120963
5544076000 -0.159372 0.124321
5556074000 -0.143088 0.127025
5568072000 -0.124064 0.126248
5580070000 -0.108539 0.121086
5592068000 -0.0973076 0.121674
5604066000 -0.0824537 0.121379
5616064000 -0.0716478 0.119337
5628062000 -0.0635865 0.124253
5640060000 -0.0536045 0.123821
5652058000 -0.0449808 0.128059
5664056000 -0.0385935 0.131797
5676054000 -0.0283491 0.136926
5688052000 -0.0192682 0.140716
5700050000 -0.0140921 0.136255
5712048000 -0.00788441 0.13877
5724046000 0.00352332 0.136368
5736044000 0.0126004 0.123696
5748042000 0.0178017 0.102871
5760040000 0.0107928 0.0873862
5772038000 0.0105931 0.0690664
5784036000 0.00374493 0.0475172
5796034000 -0.00539362 0.0272132
5808032000 -0.0183534 0.00492729
5820030000 -0.0277978 -0.0156904
5832028000 -0.0447843 -0.0371377
5844026000 -0.0612449 -0.0572676
5856024000 -0.0838281 -0.0696354
5868022000 -0.100058 -0.0795945
5880020000 -0.122409 -0.0861417
5892018000 -0.142957 -0.0863304
5904016000 -0.160375 -0.0791259
5916014000 -0.174513 -0.068363
5928012000 -0.187456 -0.0537986
5940010000 -0.198514 -0.0420469
5952008000 -0.213124 -0.0216482
5964006000 -0.220476 -6.87956e-06
5976004000 -0.228889 0.0208629
5988002000 -0.236008 0.0412285
6000000000 -0.246975 0.071252
