# Hz S RI R 50
1000000 1.0043 -0.0104648
12998000 0.982528 -0.062187
24996000 0.97412 -0.111835
36994000 0.966279 -0.161867
48992000 0.958976 -0.210009
60990000 0.946934 -0.260356
72988000 0.931645 -0.310594
84986000 0.912714 -0.360558
96984000 0.890051 -0.410515
108982000 0.863409 -0.459682
120980000 0.833017 -0.50797
132978000 0.79327 -0.556823
144976000 0.756758 -0.600469
156974000 0.659716 -0.64353
168972000 0.699798 -0.607589
180970000 0.675224 -0.656012
192968000 0.636132 -0.706909
204966000 0.589215 -0.743721
216964000 0.541258 -0.773132
228962000 0.492279 -0.797548
240960000 0.438785 -0.815737
252958000 0.392122 -0.822343
264956000 0.353798 -0.831489
276954000 0.319389 -0.849357
288952000 0.273177 -0.870598
300950000 0.2185 -0.882314
312948000 0.168404 -0.886171
324946000 0.115383 -0.887879
336944000 0.062295 -0.885999
348942000 0.0111052 -0.879097
360940000 -0.0416384 -0.869209
372938000 -0.0941025 -0.849311
384936000 -0.13498 -0.827746
396934000 -0.174155 -0.809521
408932000 -0.220362 -0.788152
420930000 -0.253932 -0.755626
432928000 -0.274804 -0.722893
444926000 -0.294016 -0.69995
456924000 -0.308379 -0.681747
468922000 -0.326582 -0.683052
480920000 -0.359427 -0.677587
492918000 -0.400415 -0.663028
504916000 -0.439865 -0.637659
516914000 -0.468859 -0.607899
528912000 -0.489705 -0.588874
540910000 -0.529738 -0.575011
552908000 -0.57297 -0.540408
564906000 -0.605794 -0.500364
576904000 -0.636477 -0.455039
588902000 -0.657218 -0.406442
600900000 -0.671471 -0.358591
612898000 -0.681269 -0.314879
624896000 -0.692403 -0.273245
636894000 -0.703355 -0.228153
648892000 -0.711466 -0.179185
660890000 -0.705962 -0.123802
672888000 -0.691994 -0.0787767
684886000 -0.67815 -0.0428
696884000 -0.664719 -0.0134738
708882000 -0.65525 0.0194205
720880000 -0.641424 0.0514324
732878000 -0.631776 0.0759563
744876000 -0.619878 0.109702
756874000 -0.611714 0.139937
768872000 -0.595321 0.179469
780870000 -0.572545 0.210181
792868000 -0.544641 0.231179
804866000 -0.522694 0.246492
816864000 -0.51123 0.255488
828862000 -0.510291 0.281014
840860000 -0.495639 0.309201
852858000 -0.478145 0.335161
864856000 -0.459793 0.364132
876854000 -0.431065 0.389357
888852000 -0.398455 0.406442
900850000 -0.3672 0.418805
912848000 -0.343292 0.419472
924846000 -0.326547 0.426477
936844000 -0.312529 0.442223
948842000 -0.289281 0.453086
960840000 -0.263839 0.468636
972838000 -0.236348 0.475959
984836000 -0.202961 0.481951
996834000 -0.174137 0.477941
1008832000 -0.151526 0.480061
1020830000 -0.120508 0.478189
1032828000 -0.0917104 0.467369
1044826000 -0.073687 0.454561
1056824000 -0.0521344 0.44522
1068822000 -0.0398296 0.426453
1080820000 -0.0422826 0.414242
1092818000 -0.0391452 0.414764
1104816000 -0.0342209 0.415794
1116814000 -0.0332136 0.417784
1128812000 -0.0304225 0.42732
1140810000 -0.0315091 0.436631
1152808000 -0.0250812 0.459399
1164806000 -0.007064 0.480005
1176804000 0.0130209 0.499604
1188802000 0.0392068 0.510333
1200800000 0.0585621 0.520729
1212798000 0.0842112 0.53482
1224796000 0.111821 0.545185
1236794000 0.142489 0.554826
1248792000 0.177395 0.562927
1260790000 0.217995 0.564792
1272788000 0.257513 0.561281
1284786000 0.297473 0.551858
1296784000 0.339889 0.536077
1308782000 0.376176 0.515725
1320780000 0.410991 0.493952
1332778000 0.447555 0.4682
1344776000 0.480182 0.436413
1356774000 0.508518 0.403193
1368772000 0.533999 0.363976
1380770000 0.55389 0.327114
1392768000 0.56962 0.289009
1404766000 0.58175 0.255423
1416764000 0.592009 0.222975
1428762000 0.602918 0.194728
1440760000 0.613114 0.166098
1452758000 0.62193 0.140708
1464756000 0.632945 0.114867
1476754000 0.640689 0.0853204
1488752000 0.646585 0.0626664
1500750000 0.656833 0.0373784
1512748000 0.665855 0.00764248
1524746000 0.673119 -0.0214361
1536744000 0.679194 -0.0517182
1548742000 0.684754 -0.083412
1560740000 0.688521 -0.117465
1572738000 0.689861 -0.154417
1584736000 0.691688 -0.19433
1596734000 0.687049 -0.23908
1608732000 0.677037 -0.285417
1620730000 0.661107 -0.331164
1632728000 0.640681 -0.375663
1644726000 0.617308 -0.420483
1656724000 0.59087 -0.461362
1668722000 0.559679 -0.500803
1680720000 0.527433 -0.532174
1692718000 0.494279 -0.562427
1704716000 0.459906 -0.587732
1716714000 0.428192 -0.611833
1728712000 0.395946 -0.634504
1740710000 0.362544 -0.656155
1752708000 0.326555 -0.676798
1764706000 0.289006 -0.693783
1776704000 0.247683 -0.707975
1788702000 0.20463 -0.715209
1800700000 0.163773 -0.720295
1812698000 0.121028 -0.720368
1824696000 0.0815659 -0.716412
1836694000 0.041544 -0.713363
1848692000 0.00120102 -0.707966
1860690000 -0.041429 -0.702619
1872688000 -0.0848636 -0.691909
1884686000 -0.126399 -0.682507
1896684000 -0.168805 -0.671963
1908682000 -0.214031 -0.660046
1920680000 -0.260024 -0.644396
1932678000 -0.305303 -0.62454
1944676000 -0.348809 -0.595839
1956674000 -0.385087 -0.568112
1968672000 -0.421647 -0.536459
1980670000 -0.45435 -0.502082
1992668000 -0.480104 -0.463008
2004666000 -0.499381 -0.425207
2016664000 -0.517377 -0.389997
2028662000 -0.535509 -0.349406
2040660000 -0.545007 -0.307067
2052658000 -0.551634 -0.261024
2064656000 -0.548857 -0.216483
2076654000 -0.544192 -0.17543
2088652000 -0.541217 -0.129236
2100650000 -0.526817 -0.0789644
2112648000 -0.507568 -0.036539
2124646000 -0.485464 0.00239546
2136644000 -0.467561 0.0361297
2148642000 -0.448168 0.0771023
2160640000 -0.420071 0.106022
2172638000 -0.392177 0.137822
2184636000 -0.361608 0.159281
2196634000 -0.334975 0.180713
2208632000 -0.306965 0.197536
2220630000 -0.275098 0.21408
2232628000 -0.24254 0.220928
2244626000 -0.208977 0.226342
2256624000 -0.176839 0.22382
2268622000 -0.150828 0.216929
2280620000 -0.124283 0.214878
2292618000 -0.0968882 0.202382
2304616000 -0.0697743 0.189134
2316614000 -0.0457646 0.173007
2328612000 -0.0227218 0.148377
2340610000 -0.00720442 0.126425
2352608000 0.0138286 0.0972116
2364606000 0.0230447 0.0665322
2376604000 0.026445 0.0335991
2388602000 0.0230159 0.00300493
2400600000 0.0171624 -0.019587
2412598000 0.0101319 -0.0496388
2424596000 -0.00705158 -0.0660432
2436594000 -0.012892 -0.0849504
2448592000 -0.0342992 -0.10469
2460590000 -0.0551072 -0.10851
2472588000 -0.0700913 -0.117921
2484586000 -0.0912054 -0.127733
2496584000 -0.117566 -0.12665
2508582000 -0.13927 -0.121877
2520580000 -0.165663 -0.114878
2532578000 -0.18772 -0.106957
2544576000 -0.210363 -0.0872767
2556574000 -0.226901 -0.0827966
2568572000 -0.252327 -0.0625447
2580570000 -0.26996 -0.0402166
2592568000 -0.285284 -0.027302
2604566000 -0.303581 -0.00316705
2616564000 -0.311915 0.022509
2628562000 -0.324093 0.0412472
2640560000 -0.326878 0.0619013
2652558000 -0.336769 0.0889238
2664556000 -0.331721 0.111924
2676554000 -0.331077 0.128873
2688552000 -0.330667 0.146673
2700550000 -0.327464 0.171798
2712548000 -0.318445 0.196834
2724546000 -0.305491 0.216933
2736544000 -0.295865 0.236514
2748542000 -0.278728 0.256766
2760540000 -0.264443 0.280625
2772538000 -0.243913 0.299168
2784536000 -0.221513 0.317194
2796534000 -0.2 0.334196
2808532000 -0.175485 0.340477
2820530000 -0.165826 0.357175
2832528000 -0.139053 0.379148
2844526000 -0.113484 0.38687
2856524000 -0.0973492 0.401684
2868522000 -0.0686682 0.418204
2880520000 -0.0396363 0.428485
2892518000 -0.00919713 0.434378
2904516000 0.0136749 0.433771
2916514000 0.0390116 0.441591
2928512000 0.0742402 0.444075
2940510000 0.0990765 0.433622
2952508000 0.120138 0.432062
2964506000 0.143982 0.432121
2976504000 0.17225 0.422682
2988502000 0.195624 0.417034
3000500000 0.222336 0.408081
3012498000 0.249045 0.396186
3024496000 0.272015 0.383922
3036494000 0.30168 0.369315
3048492000 0.328901 0.345866
3060490000 0.351398 0.328215
3072488000 0.37488 0.300604
3084486000 0.395818 0.280843
3096484000 0.416779 0.253138
3108482000 0.431884 0.231422
3120480000 0.454785 0.20445
3132478000 0.471511 0.175954
3144476000 0.487162 0.146281
3156474000 0.494557 0.11648
3168472000 0.50545 0.0843143
3180470000 0.508446 0.0590144
3192468000 0.51385 0.0294524
3204466000 0.515587 0.0029141
3216464000 0.520047 -0.0285838
3228462000 0.517495 -0.0595893
3240460000 0.514555 -0.0854444
3252458000 0.505891 -0.115094
3264456000 0.499702 -0.141567
3276454000 0.491323 -0.166314
3288452000 0.483098 -0.197006
3300450000 0.46816 -0.222783
3312448000 0.456479 -0.245863
3324446000 0.444419 -0.276393
3336444000 0.424675 -0.301485
3348442000 0.40592 -0.329543
3360440000 0.387499 -0.351658
3372438000 0.366347 -0.374828
3384436000 0.347324 -0.398764
3396434000 0.322925 -0.415688
3408432000 0.305033 -0.435891
3420430000 0.280679 -0.456443
3432428000 0.255373 -0.469636
3444426000 0.235811 -0.481748
3456424000 0.213555 -0.49123
3468422000 0.202689 -0.494396
3480420000 0.170293 -0.512069
3492418000 0.148095 -0.517177
3504416000 0.129177 -0.521742
3516414000 0.104893 -0.534472
3528412000 0.0783956 -0.533774
3540410000 0.0576203 -0.534687
3552408000 0.0327843 -0.538103
3564406000 0.00673594 -0.535257
3576404000 -0.0135757 -0.535985
3588402000 -0.0433028 -0.53396
3600400000 -0.0685914 -0.52904
3612398000 -0.0949057 -0.526915
3624396000 -0.12387 -0.521977
3636394000 -0.152932 -0.511146
3648392000 -0.178302 -0.503127
3660390000 -0.20606 -0.493762
3672388000 -0.229448 -0.485037
3684386000 -0.257563 -0.475403
3696384000 -0.278803 -0.46301
3708382000 -0.301431 -0.453447
3720380000 -0.327138 -0.435438
3732378000 -0.342571 -0.425085
3744376000 -0.364819 -0.412998
3756374000 -0.380705 -0.395408
3768372000 -0.397693 -0.381137
3780370000 -0.413456 -0.366187
3792368000 -0.428548 -0.346784
3804366000 -0.440995 -0.33252
3816364000 -0.452982 -0.314858
3828362000 -0.469454 -0.293293
3840360000 -0.480323 -0.270158
3852358000 -0.488684 -0.24872
3864356000 -0.498471 -0.222354
3876354000 -0.507014 -0.196871
3888352000 -0.515756 -0.168797
3900350000 -0.521286 -0.140168
3912348000 -0.529294 -0.111086
3924346000 -0.534366 -0.0779958
3936344000 -0.534963 -0.0470228
3948342000 -0.538325 -0.0174649
3960340000 -0.534977 0.0125354
3972338000 -0.53049 0.04246
3984336000 -0.52797 0.0680085
3996334000 -0.52391 0.0972246
4008332000 -0.514392 0.122813
4020330000 -0.506963 0.147095
4032328000 -0.498034 0.170623
4044326000 -0.486721 0.193866
4056324000 -0.473891 0.21653
4068322000 -0.460218 0.234284
4080320000 -0.443308 0.251675
4092318000 -0.431948 0.268931
4104316000 -0.415162 0.28882
4116314000 -0.395552 0.302679
4128312000 -0.381169 0.312738
4140310000 -0.358237 0.327384
4152308000 -0.336034 0.337643
4164306000 -0.315606 0.344033
4176304000 -0.292805 0.353744
4188302000 -0.266833 0.364684
4200300000 -0.237657 0.373423
4212298000 -0.210201 0.38831
4224296000 -0.179444 0.392029
4236294000 -0.153749 0.39616
4248292000 -0.125578 0.396546
4260290000 -0.104385 0.398394
4272288000 -0.0802826 0.399316
4284286000 -0.0600031 0.3922
4296284000 -0.0457228 0.394918
4308282000 -0.0216454 0.390394
4320280000 -0.00549797 0.383169
4332278000 0.0089922 0.377102
4344276000 0.022946 0.368956
4356274000 0.0382125 0.356908
4368272000 0.0459778 0.34308
4380270000 0.0563158 0.337724
4392268000 0.0706999 0.323301
4404266000 0.0789985 0.308189
4416264000 0.0873648 0.292931
4428262000 0.0947489 0.278651
4440260000 0.100931 0.264457
4452258000 0.108154 0.251285
4464256000 0.114034 0.236843
4476254000 0.12001 0.225846
4488252000 0.130917 0.210655
4500250000 0.135967 0.196532
4512248000 0.139962 0.181588
4524246000 0.146828 0.172037
4536244000 0.152124 0.158715
4548242000 0.157257 0.149978
4560240000 0.158566 0.141547
4572238000 0.166025 0.137004
4584236000 0.173336 0.128736
4596234000 0.175116 0.117684
4608232000 0.173149 0.115959
4620230000 0.180017 0.114443
4632228000 0.180476 0.107972
4644226000 0.182815 0.105769
4656224000 0.179564 0.0978046
4668222000 0.177417 0.0947359
4680220000 0.178795 0.0905021
4692218000 0.178479 0.0853968
4704216000 0.176847 0.0802485
4716214000 0.174528 0.0745528
4728212000 0.172469 0.0672864
4740210000 0.171171 0.0545037
4752208000 0.166451 0.0495351
4764206000 0.16774 0.0374506
4776204000 0.167472 0.0253878
4788202000 0.166611 0.0135699
4800200000 0.166732 -0.00198068
4812198000 0.164073 -0.0166883
4824196000 0.168109 -0.0318671
4836194000 0.168699 -0.0498972
4848192000 0.165579 -0.0629638
4860190000 0.172614 -0.0767057
4872188000 0.16791 -0.0946217
4884186000 0.165093 -0.105623
4896184000 0.16405 -0.118419
4908182000 0.164405 -0.132258
4920180000 0.156477 -0.141073
4932178000 0.157605 -0.148836
4944176000 0.15371 -0.162805
4956174000 0.142284 -0.170909
4968172000 0.132383 -0.171522
4980170000 0.124281 -0.17778
4992168000 0.111977 -0.184686
5004166000 0.0970888 -0.187058
5016164000 0.0863848 -0.191085
5028162000 0.0655535 -0.194974
5040160000 0.0447657 -0.195793
5052158000 0.0280328 -0.196429
5064156000 0.0090872 -0.197887
5076154000 -0.00632201 -0.200969
5088152000 -0.0310272 -0.205183
5100150000 -0.0497 -0.202117
5112148000 -0.0646543 -0.204301
5124146000 -0.0849901 -0.205455
5136144000 -0.102305 -0.204786
5148142000 -0.117595 -0.202778
5160140000 -0.131983 -0.201734
5172138000 -0.148554 -0.196894
5184136000 -0.161002 -0.194273
5196134000 -0.170111 -0.185871
5208132000 -0.170879 -0.180826
5220130000 -0.178965 -0.180741
5232128000 -0.182975 -0.174288
5244126000 -0.186379 -0.163751
5256124000 -0.1856 -0.148807
5268122000 -0.187941 -0.141516
5280120000 -0.189714 -0.120064
5292118000 -0.189867 -0.104752
5304116000 -0.195764 -0.0867586
5316114000 -0.201733 -0.0676762
5328112000 -0.204733 -0.0481968
5340110000 -0.206802 -0.033674
5352108000 -0.213721 -0.0195976
5364106000 -0.215153 -0.00526133
5376104000 -0.219981 0.00424339
5388102000 -0.227009 0.0139146
5400100000 -0.229556 0.0292472
5412098000 -0.230028 0.0377468
5424096000 -0.231248 0.045409
5436094000 -0.231795 0.0560352
5448092000 -0.230312 0.0629852
5460090000 -0.225903 0.068059
5472088000 -0.223054 0.0739414
5484086000 -0.217215 0.077729
5496084000 -0.208898 0.0798996
5508082000 -0.203661 0.0827836
5520080000 -0.194876 0.088257
5532078000 -0.184522 0.0903357
5544076000 -0.169794 0.0951588
5556074000 -0.156968 0.0973103
5568072000 -0.142166 0.0980995
5580070000 -0.128674 0.0990834
5592068000 -0.117893 0.103446
5604066000 -0.0988418 0.108647
5616064000 -0.0841007 0.106612
5628062000 -0.0753144 0.105317
5640060000 -0.0640741 0.111186
5652058000 -0.0537736 0.112776
5664056000 -0.0411428 0.113623
5676054000 -0.0332163 0.108559
5688052000 -0.0320529 0.110427
5700050000 -0.0234893 0.109756
5712048000 -0.0204962 0.0971396
5724046000 -0.0283529 0.0929725
5736044000 -0.0267269 0.0875642
5748042000 -0.0287033 0.0754644
5760040000 -0.0371583 0.0624867
5772038000 -0.0433304 0.0548181
5784036000 -0.0546894 0.0422192
5796034000 -0.062939 0.031374
5808032000 -0.0693527 0.0179651
5820030000 -0.0826667 0.00286672
5832028000 -0.0925096 -0.00694565
5844026000 -0.100596 -0.0188207
5856024000 -0.109798 -0.0317049
5868022000 -0.120338 -0.0397092
5880020000 -0.133853 -0.0417559
5892018000 -0.140142 -0.0451286
5904016000 -0.148218 -0.0459701
5916014000 -0.159702 -0.0434955
5928012000 -0.168655 -0.0341608
5940010000 -0.176639 -0.0273413
5952008000 -0.188932 -0.017013
5964006000 -0.201434 -0.00247141
5976004000 -0.21102 0.0192315
5988002000 -0.217121 0.0369706
6000000000 -0.225568 0.0585811
