# Hz S RI R 50
1000000 1.00246 -0.000757745
12998000 0.983468 -0.0618164
24996000 0.975328 -0.111836
36994000 0.968033 -0.159569
48992000 0.96087 -0.210457
60990000 0.949404 -0.260713
72988000 0.934604 -0.311314
84986000 0.916246 -0.362502
96984000 0.894426 -0.412805
108982000 0.868536 -0.462991
120980000 0.838813 -0.51244
132978000 0.800087 -0.562628
144976000 0.763664 -0.60803
156974000 0.666643 -0.654676
168972000 0.699649 -0.618052
180970000 0.682122 -0.661533
192968000 0.645641 -0.716561
204966000 0.599713 -0.756755
216964000 0.551934 -0.789477
228962000 0.501941 -0.816747
240960000 0.450171 -0.837675
252958000 0.398987 -0.848616
264956000 0.361397 -0.859323
276954000 0.326201 -0.878529
288952000 0.280085 -0.903044
300950000 0.227216 -0.919873
312948000 0.171891 -0.931689
324946000 0.112729 -0.936486
336944000 0.0538673 -0.936284
348942000 -0.00217126 -0.930628
360940000 -0.060041 -0.922517
372938000 -0.119058 -0.903452
384936000 -0.16389 -0.881004
396934000 -0.208949 -0.864059
408932000 -0.259118 -0.842449
420930000 -0.300564 -0.811294
432928000 -0.335902 -0.77561
444926000 -0.358325 -0.744517
456924000 -0.379064 -0.718456
468922000 -0.385417 -0.708386
480920000 -0.42396 -0.710242
492918000 -0.47213 -0.689187
504916000 -0.510778 -0.661273
516914000 -0.543607 -0.628733
528912000 -0.566911 -0.602768
540910000 -0.604599 -0.581193
552908000 -0.64621 -0.550412
564906000 -0.682425 -0.511151
576904000 -0.718114 -0.463533
588902000 -0.745567 -0.40979
600900000 -0.763828 -0.351481
612898000 -0.769506 -0.298579
624896000 -0.777757 -0.254546
636894000 -0.789134 -0.208213
648892000 -0.801872 -0.155674
660890000 -0.803336 -0.0926483
672888000 -0.788764 -0.0337316
684886000 -0.769839 0.014856
696884000 -0.745766 0.0547902
708882000 -0.723765 0.0952669
720880000 -0.700944 0.120021
732878000 -0.69015 0.142934
744876000 -0.671305 0.180256
756874000 -0.661684 0.211145
768872000 -0.637 0.24473
780870000 -0.616502 0.276441
792868000 -0.586942 0.303224
804866000 -0.555288 0.317017
816864000 -0.541208 0.328514
828862000 -0.529755 0.345627
840860000 -0.522531 0.369843
852858000 -0.501916 0.398551
864856000 -0.47813 0.425958
876854000 -0.447026 0.444682
888852000 -0.416463 0.460236
900850000 -0.387948 0.466076
912848000 -0.36818 0.466363
924846000 -0.357567 0.476039
936844000 -0.349166 0.489014
948842000 -0.333106 0.504571
960840000 -0.31832 0.528476
972838000 -0.298576 0.55015
984836000 -0.259606 0.574367
996834000 -0.220395 0.585435
1008832000 -0.183873 0.591503
1020830000 -0.14508 0.5901
1032828000 -0.111746 0.583335
1044826000 -0.0842752 0.573871
1056824000 -0.0575462 0.566938
1068822000 -0.0341403 0.552424
1080820000 -0.0227124 0.542402
1092818000 -0.0101002 0.538172
1104816000 0.00626418 0.540652
1116814000 0.0209625 0.535992
1128812000 0.0319205 0.536252
1140810000 0.0424329 0.54057
1152808000 0.0583234 0.550136
1164806000 0.0749486 0.554812
1176804000 0.0966241 0.568912
1188802000 0.122209 0.572828
1200800000 0.142296 0.578885
1212798000 0.166164 0.58668
1224796000 0.194805 0.593043
1236794000 0.226855 0.59855
1248792000 0.262179 0.596578
1260790000 0.296627 0.592542
1272788000 0.334939 0.587112
1284786000 0.369285 0.573693
1296784000 0.407447 0.559846
1308782000 0.442504 0.540888
1320780000 0.480023 0.518912
1332778000 0.517738 0.49093
1344776000 0.551445 0.459666
1356774000 0.584357 0.422209
1368772000 0.610025 0.378882
1380770000 0.631785 0.337644
1392768000 0.648043 0.293489
1404766000 0.657627 0.250755
1416764000 0.664219 0.214056
1428762000 0.670645 0.18122
1440760000 0.676627 0.151694
1452758000 0.683421 0.123462
1464756000 0.691506 0.0949448
1476754000 0.6968 0.0641919
1488752000 0.699885 0.03599
1500750000 0.704207 0.00784524
1512748000 0.70803 -0.0190674
1524746000 0.712158 -0.048496
1536744000 0.713748 -0.0763831
1548742000 0.718437 -0.106275
1560740000 0.722082 -0.140136
1572738000 0.724326 -0.17685
1584736000 0.723252 -0.218991
1596734000 0.715685 -0.26203
1608732000 0.704042 -0.307693
1620730000 0.687197 -0.35157
1632728000 0.666658 -0.395273
1644726000 0.642462 -0.438709
1656724000 0.617016 -0.480517
1668722000 0.585609 -0.520503
1680720000 0.552611 -0.552538
1692718000 0.519342 -0.583369
1704716000 0.485221 -0.610132
1716714000 0.45159 -0.636353
1728712000 0.416488 -0.66151
1740710000 0.378692 -0.683239
1752708000 0.339185 -0.702027
1764706000 0.299743 -0.716751
1776704000 0.258102 -0.729687
1788702000 0.214682 -0.737611
1800700000 0.171814 -0.741497
1812698000 0.12912 -0.741666
1824696000 0.0875016 -0.741684
1836694000 0.0448678 -0.73683
1848692000 0.000333115 -0.731012
1860690000 -0.04719 -0.72111
1872688000 -0.0907134 -0.707006
1884686000 -0.132643 -0.692766
1896684000 -0.175527 -0.680353
1908682000 -0.221093 -0.664126
1920680000 -0.265969 -0.642278
1932678000 -0.30476 -0.620725
1944676000 -0.346153 -0.593305
1956674000 -0.379623 -0.563684
1968672000 -0.412376 -0.531889
1980670000 -0.439981 -0.499386
1992668000 -0.463792 -0.466399
2004666000 -0.485448 -0.432113
2016664000 -0.50413 -0.398139
2028662000 -0.521463 -0.362933
2040660000 -0.53468 -0.323059
2052658000 -0.543958 -0.279596
2064656000 -0.546409 -0.237108
2076654000 -0.548102 -0.195288
2088652000 -0.548282 -0.144569
2100650000 -0.537828 -0.0959203
2112648000 -0.523276 -0.0485033
2124646000 -0.505766 -0.00610132
2136644000 -0.492478 0.0390508
2148642000 -0.467559 0.0856222
2160640000 -0.44038 0.119748
2172638000 -0.411128 0.160595
2184636000 -0.372308 0.18745
2196634000 -0.338034 0.212365
2208632000 -0.30505 0.229835
2220630000 -0.269428 0.24771
2232628000 -0.22757 0.254914
2244626000 -0.194726 0.257599
2256624000 -0.161705 0.257942
2268622000 -0.124449 0.25021
2280620000 -0.0955576 0.241387
2292618000 -0.0619596 0.22669
2304616000 -0.0394436 0.210802
2316614000 -0.0079265 0.19091
2328612000 0.0109647 0.161915
2340610000 0.0239834 0.141838
2352608000 0.0448716 0.115918
2364606000 0.0584425 0.0839154
2376604000 0.0606938 0.0595881
2388602000 0.0724242 0.0264017
2400600000 0.0701929 -0.00249153
2412598000 0.0715654 -0.0357495
2424596000 0.0581485 -0.0609927
2436594000 0.0490488 -0.0909342
2448592000 0.0365028 -0.1078
2460590000 0.0135347 -0.131647
2472588000 -0.00483443 -0.139191
2484586000 -0.0269568 -0.160555
2496584000 -0.0595252 -0.154447
2508582000 -0.072234 -0.16097
2520580000 -0.103293 -0.166746
2532578000 -0.135222 -0.160726
2544576000 -0.164387 -0.149084
2556574000 -0.18909 -0.142791
2568572000 -0.21643 -0.131347
2580570000 -0.248785 -0.111658
2592568000 -0.269934 -0.0930406
2604566000 -0.289395 -0.0718486
2616564000 -0.310379 -0.0518549
2628562000 -0.324203 -0.0193951
2640560000 -0.333961 -0.00631464
2652558000 -0.357138 0.0230882
2664556000 -0.355661 0.0579007
2676554000 -0.358451 0.0724652
2688552000 -0.367988 0.102853
2700550000 -0.364487 0.138024
2712548000 -0.346533 0.158586
2724546000 -0.346037 0.181499
2736544000 -0.340751 0.213907
2748542000 -0.316127 0.246876
2760540000 -0.299914 0.265683
2772538000 -0.287625 0.292636
2784536000 -0.266125 0.322693
2796534000 -0.234363 0.344701
2808532000 -0.212775 0.358204
2820530000 -0.194382 0.385547
2832528000 -0.154338 0.409986
2844526000 -0.124911 0.414906
2856524000 -0.0992858 0.429655
2868522000 -0.0672996 0.448198
2880520000 -0.0299144 0.455627
2892518000 -0.00134071 0.459718
2904516000 0.0331359 0.462324
2916514000 0.0604357 0.459498
2928512000 0.0885565 0.466497
2940510000 0.125345 0.461844
2952508000 0.158699 0.45147
2964506000 0.180628 0.441344
2976504000 0.209603 0.437404
2988502000 0.241028 0.426852
3000500000 0.271115 0.409315
3012498000 0.301551 0.39155
3024496000 0.326868 0.368361
3036494000 0.351231 0.350758
3048492000 0.377613 0.323732
3060490000 0.398126 0.301616
3072488000 0.422838 0.27436
3084486000 0.448128 0.246512
3096484000 0.469607 0.210289
3108482000 0.475655 0.180326
3120480000 0.491774 0.150689
3132478000 0.503033 0.121107
3144476000 0.511851 0.0885777
3156474000 0.517497 0.0614466
3168472000 0.527699 0.028035
3180470000 0.528326 0.000685481
3192468000 0.52961 -0.0339223
3204466000 0.522196 -0.0584204
3216464000 0.523812 -0.0865366
3228462000 0.517996 -0.11769
3240460000 0.512732 -0.143711
3252458000 0.501378 -0.172393
3264456000 0.494505 -0.194568
3276454000 0.485721 -0.223453
3288452000 0.474664 -0.253429
3300450000 0.455144 -0.277944
3312448000 0.442707 -0.300448
3324446000 0.425074 -0.33045
3336444000 0.404781 -0.352881
3348442000 0.38893 -0.376654
3360440000 0.36743 -0.405951
3372438000 0.341883 -0.427173
3384436000 0.320105 -0.44832
3396434000 0.29713 -0.464886
3408432000 0.276588 -0.485561
3420430000 0.246475 -0.502388
3432428000 0.222662 -0.510938
3444426000 0.205003 -0.52589
3456424000 0.179951 -0.538501
3468422000 0.164729 -0.542055
3480420000 0.130944 -0.555314
3492418000 0.102981 -0.560737
3504416000 0.081821 -0.564181
3516414000 0.0540557 -0.567584
3528412000 0.032315 -0.569649
3540410000 0.0051978 -0.570434
3552408000 -0.0242884 -0.567554
3564406000 -0.0504406 -0.562378
3576404000 -0.0728696 -0.560014
3588402000 -0.102754 -0.555775
3600400000 -0.131952 -0.545004
3612398000 -0.155484 -0.53666
3624396000 -0.184448 -0.53006
3636394000 -0.212677 -0.51904
3648392000 -0.239358 -0.509009
3660390000 -0.268065 -0.494753
3672388000 -0.295184 -0.481844
3684386000 -0.31743 -0.466022
3696384000 -0.33888 -0.452927
3708382000 -0.365901 -0.435319
3720380000 -0.380773 -0.414936
3732378000 -0.397637 -0.402443
3744376000 -0.418128 -0.387236
3756374000 -0.431573 -0.364563
3768372000 -0.445682 -0.35124
3780370000 -0.456984 -0.331934
3792368000 -0.472062 -0.311845
3804366000 -0.482378 -0.293172
3816364000 -0.490847 -0.273014
3828362000 -0.504221 -0.248983
3840360000 -0.50848 -0.223911
3852358000 -0.511471 -0.199356
3864356000 -0.516999 -0.172481
3876354000 -0.517937 -0.14889
3888352000 -0.524924 -0.11916
3900350000 -0.522591 -0.0909715
3912348000 -0.525536 -0.0666266
3924346000 -0.526336 -0.0353
3936344000 -0.519854 -0.0115017
3948342000 -0.522764 0.015199
3960340000 -0.524623 0.0420099
3972338000 -0.514089 0.0759593
3984336000 -0.504774 0.0946783
3996334000 -0.501804 0.118179
4008332000 -0.491048 0.139874
4020330000 -0.484704 0.159105
4032328000 -0.47381 0.183158
4044326000 -0.464353 0.200207
4056324000 -0.450364 0.218253
4068322000 -0.436797 0.233675
4080320000 -0.422146 0.249928
4092318000 -0.409995 0.263546
4104316000 -0.392019 0.27475
4116314000 -0.381133 0.285994
4128312000 -0.361538 0.296804
4140310000 -0.345372 0.302551
4152308000 -0.329574 0.315385
4164306000 -0.307671 0.320795
4176304000 -0.290604 0.330782
4188302000 -0.265032 0.340516
4200300000 -0.244703 0.346029
4212298000 -0.22003 0.356787
4224296000 -0.195882 0.366025
4236294000 -0.177028 0.373222
4248292000 -0.149356 0.381303
4260290000 -0.128131 0.383608
4272288000 -0.102217 0.380594
4284286000 -0.0891213 0.379902
4296284000 -0.0719427 0.380812
4308282000 -0.0584184 0.38
4320280000 -0.0394856 0.376872
4332278000 -0.0255858 0.373955
4344276000 -0.0115756 0.366468
4356274000 0.00279381 0.360829
4368272000 0.0119928 0.349819
4380270000 0.0251442 0.347672
4392268000 0.0398618 0.332192
4404266000 0.0467329 0.31871
4416264000 0.0551279 0.311069
4428262000 0.0670879 0.303904
4440260000 0.0826494 0.285474
4452258000 0.0875752 0.270853
4464256000 0.0960145 0.259252
4476254000 0.105416 0.249584
4488252000 0.116478 0.229018
4500250000 0.119623 0.218275
4512248000 0.131814 0.203994
4524246000 0.135865 0.197845
4536244000 0.147214 0.179644
4548242000 0.150694 0.171489
4560240000 0.156585 0.162181
4572238000 0.167949 0.153478
4584236000 0.16764 0.144375
4596234000 0.175084 0.137836
4608232000 0.173412 0.132365
4620230000 0.180268 0.125485
4632228000 0.178384 0.120216
4644226000 0.178806 0.115115
4656224000 0.180685 0.113282
4668222000 0.177146 0.102585
4680220000 0.175909 0.0978682
4692218000 0.175266 0.0981175
4704216000 0.174826 0.0910988
4716214000 0.172033 0.0819279
4728212000 0.169571 0.0728488
4740210000 0.165565 0.0612561
4752208000 0.165393 0.0547046
4764206000 0.158072 0.0420323
4776204000 0.159601 0.0324337
4788202000 0.159573 0.0219686
4800200000 0.160129 0.00502971
4812198000 0.156766 -0.00941702
4824196000 0.15723 -0.0223739
4836194000 0.161404 -0.040005
4848192000 0.155884 -0.0543057
4860190000 0.15968 -0.0613879
4872188000 0.161551 -0.0759292
4884186000 0.158422 -0.0878055
4896184000 0.160337 -0.101765
4908182000 0.158242 -0.110522
4920180000 0.158158 -0.12437
4932178000 0.158002 -0.133089
4944176000 0.152718 -0.143724
4956174000 0.143344 -0.15139
4968172000 0.139466 -0.156604
4980170000 0.129609 -0.165548
4992168000 0.114107 -0.173387
5004166000 0.101285 -0.174143
5016164000 0.0903541 -0.180024
5028162000 0.0730109 -0.187019
5040160000 0.0516137 -0.189847
5052158000 0.0319481 -0.188965
5064156000 0.0144665 -0.195682
5076154000 -0.00601941 -0.198529
5088152000 -0.0245093 -0.202059
5100150000 -0.0492137 -0.20153
5112148000 -0.0637696 -0.205224
5124146000 -0.0853709 -0.204025
5136144000 -0.104512 -0.205012
5148142000 -0.119009 -0.202895
5160140000 -0.135794 -0.202466
5172138000 -0.151647 -0.196953
5184136000 -0.16386 -0.193663
5196134000 -0.175919 -0.189225
5208132000 -0.183725 -0.181489
5220130000 -0.191932 -0.175945
5232128000 -0.192588 -0.168351
5244126000 -0.197732 -0.160249
5256124000 -0.203276 -0.144162
5268122000 -0.203303 -0.13155
5280120000 -0.205264 -0.113151
5292118000 -0.211836 -0.0952725
5304116000 -0.214874 -0.0704965
5316114000 -0.217802 -0.053038
5328112000 -0.223993 -0.0350663
5340110000 -0.229253 -0.012316
5352108000 -0.230693 0.00138307
5364106000 -0.23677 0.0138558
5376104000 -0.241831 0.0315737
5388102000 -0.241179 0.0457456
5400100000 -0.246483 0.0569364
5412098000 -0.249677 0.0713302
5424096000 -0.242874 0.0873118
5436094000 -0.238775 0.0946262
5448092000 -0.238066 0.107773
5460090000 -0.228586 0.115909
5472088000 -0.21568 0.120415
5484086000 -0.20738 0.119955
5496084000 -0.200238 0.124135
5508082000 -0.186985 0.128358
5520080000 -0.171724 0.126782
5532078000 -0.158517 0.129316
5544076000 -0.141911 0.130572
5556074000 -0.124663 0.128191
5568072000 -0.112114 0.12299
5580070000 -0.0990483 0.129318
5592068000 -0.0787195 0.126014
5604066000 -0.0667929 0.123274
5616064000 -0.0547528 0.122178
5628062000 -0.0430694 0.125288
5640060000 -0.0261069 0.122806
5652058000 -0.0176073 0.117586
5664056000 -0.0106249 0.117352
5676054000 -0.000727673 0.113697
5688052000 0.00391382 0.106448
5700050000 0.00231032 0.0989316
5712048000 0.00354643 0.0963217
5724046000 0.00342633 0.0867176
5736044000 -0.00180836 0.0725651
5748042000 -0.0134111 0.0643423
5760040000 -0.0168344 0.0558767
5772038000 -0.024699 0.0414536
5784036000 -0.0357978 0.0300313
5796034000 -0.0469569 0.0122802
5808032000 -0.0621863 0.00166598
5820030000 -0.0725064 -0.0111906
5832028000 -0.0872821 -0.0247418
5844026000 -0.103827 -0.0340119
5856024000 -0.112158 -0.0393932
5868022000 -0.123202 -0.0445438
5880020000 -0.13449 -0.0460752
5892018000 -0.146599 -0.0494965
5904016000 -0.157199 -0.0448991
5916014000 -0.16394 -0.0388516
5928012000 -0.175512 -0.0317641
5940010000 -0.185219 -0.018296
5952008000 -0.194206 -0.00471308
5964006000 -0.20111 0.012484
5976004000 -0.211133 0.0297122
5988002000 -0.21814 0.0506856
6000000000 -0.225801 0.072772
