# Hz S RI R 50
1000000 1.00453 -0.00312608
12998000 0.982062 -0.0826713
24996000 0.968324 -0.15264
36994000 0.956705 -0.209155
48992000 0.942009 -0.281704
60990000 0.918614 -0.350738
72988000 0.888115 -0.420606
84986000 0.849413 -0.49259
96984000 0.79321 -0.568202
108982000 0.692459 -0.631063
120980000 0.610757 -0.647019
132978000 0.478605 -0.568964
144976000 0.6148 -0.509379
156974000 0.462256 -0.540409
168972000 0.65964 -0.650282
180970000 0.572535 -0.762209
192968000 0.490126 -0.8198
204966000 0.397551 -0.848831
216964000 0.333548 -0.846097
228962000 0.287656 -0.872463
240960000 0.222102 -0.90615
252958000 0.140762 -0.925873
264956000 0.0490464 -0.931614
276954000 -0.041464 -0.912766
288952000 -0.103433 -0.873891
300950000 -0.171111 -0.874217
312948000 -0.279848 -0.842625
324946000 -0.390274 -0.757497
336944000 -0.465211 -0.616363
348942000 -0.437605 -0.431538
360940000 -0.323818 -0.346582
372938000 -0.209167 -0.349638
384936000 -0.132898 -0.403678
396934000 -0.124547 -0.44449
408932000 -0.103397 -0.525876
420930000 -0.140163 -0.632388
432928000 -0.234227 -0.679097
444926000 -0.332485 -0.680462
456924000 -0.406476 -0.655455
468922000 -0.471818 -0.626228
480920000 -0.545981 -0.59478
492918000 -0.606832 -0.534262
504916000 -0.647317 -0.46709
516914000 -0.683027 -0.397062
528912000 -0.688791 -0.332563
540910000 -0.707744 -0.265939
552908000 -0.695577 -0.179985
564906000 -0.643843 -0.123049
576904000 -0.602303 -0.103641
588902000 -0.572054 -0.104488
600900000 -0.550621 -0.096622
612898000 -0.540244 -0.127645
624896000 -0.571564 -0.160535
636894000 -0.615998 -0.154891
648892000 -0.674722 -0.143585
660890000 -0.728142 -0.100408
672888000 -0.768018 -0.0434482
684886000 -0.795932 0.0308392
696884000 -0.79221 0.104712
708882000 -0.779175 0.163679
720880000 -0.76818 0.204209
732878000 -0.765486 0.250313
744876000 -0.761654 0.304232
756874000 -0.749725 0.371832
768872000 -0.716826 0.427822
780870000 -0.687454 0.472719
792868000 -0.663347 0.514052
804866000 -0.632049 0.563117
816864000 -0.597238 0.607747
828862000 -0.552299 0.649269
840860000 -0.509142 0.682517
852858000 -0.468762 0.708745
864856000 -0.422249 0.743542
876854000 -0.36934 0.766809
888852000 -0.322055 0.782345
900850000 -0.282897 0.798059
912848000 -0.235009 0.82323
924846000 -0.181232 0.837181
936844000 -0.130764 0.847929
948842000 -0.0759527 0.857367
960840000 -0.0213193 0.861923
972838000 0.0352368 0.860464
984836000 0.0956704 0.858032
996834000 0.158188 0.843039
1008832000 0.217685 0.817298
1020830000 0.270187 0.786422
1032828000 0.31457 0.74673
1044826000 0.350341 0.709452
1056824000 0.377783 0.666837
1068822000 0.389667 0.626353
1080820000 0.394024 0.605957
1092818000 0.402385 0.590758
1104816000 0.417667 0.584718
1116814000 0.440037 0.576767
1128812000 0.465596 0.570922
1140810000 0.495215 0.559551
1152808000 0.531134 0.549272
1164806000 0.571665 0.531529
1176804000 0.611604 0.498913
1188802000 0.64314 0.467079
1200800000 0.674723 0.432551
1212798000 0.700826 0.392078
1224796000 0.722914 0.353537
1236794000 0.746308 0.311635
1248792000 0.763542 0.264512
1260790000 0.775225 0.216839
1272788000 0.788491 0.172003
1284786000 0.798065 0.126124
1296784000 0.804793 0.0749076
1308782000 0.810026 0.0261928
1320780000 0.809703 -0.0254727
1332778000 0.807256 -0.0750061
1344776000 0.802986 -0.124399
1356774000 0.793094 -0.173544
1368772000 0.78262 -0.22311
1380770000 0.76668 -0.273545
1392768000 0.745866 -0.31855
1404766000 0.725093 -0.362898
1416764000 0.69947 -0.403508
1428762000 0.671002 -0.44275
1440760000 0.637817 -0.479692
1452758000 0.601297 -0.509179
1464756000 0.566317 -0.532477
1476754000 0.529006 -0.557989
1488752000 0.490061 -0.579953
1500750000 0.449503 -0.596416
1512748000 0.414614 -0.613716
1524746000 0.375476 -0.632497
1536744000 0.327388 -0.651672
1548742000 0.277972 -0.664778
1560740000 0.223658 -0.672251
1572738000 0.172454 -0.674152
1584736000 0.114655 -0.673085
1596734000 0.0547473 -0.66031
1608732000 0.00268263 -0.631231
1620730000 -0.0359679 -0.602626
1632728000 -0.070716 -0.566143
1644726000 -0.089068 -0.524723
1656724000 -0.0900146 -0.487797
1668722000 -0.0824167 -0.463885
1680720000 -0.0663857 -0.443566
1692718000 -0.0429039 -0.437249
1704716000 -0.0246868 -0.446697
1716714000 -0.00389008 -0.468164
1728712000 -0.0100723 -0.507919
1740710000 -0.0282087 -0.534113
1752708000 -0.057478 -0.550333
1764706000 -0.0733796 -0.562524
1776704000 -0.0951216 -0.591725
1788702000 -0.139629 -0.619649
1800700000 -0.20278 -0.623293
1812698000 -0.240461 -0.61714
1824696000 -0.296179 -0.622739
1836694000 -0.363486 -0.608977
1848692000 -0.426621 -0.584944
1860690000 -0.496358 -0.552493
1872688000 -0.559468 -0.504398
1884686000 -0.619406 -0.447697
1896684000 -0.669554 -0.381854
1908682000 -0.709388 -0.31443
1920680000 -0.74061 -0.247028
1932678000 -0.767679 -0.175499
1944676000 -0.781563 -0.103616
1956674000 -0.793129 -0.0329837
1968672000 -0.796072 0.0387755
1980670000 -0.791634 0.112615
1992668000 -0.77535 0.18639
2004666000 -0.749877 0.254861
2016664000 -0.717453 0.318554
2028662000 -0.679789 0.381329
2040660000 -0.633218 0.442023
2052658000 -0.577 0.500458
2064656000 -0.512174 0.552529
2076654000 -0.44228 0.60091
2088652000 -0.362732 0.641701
2100650000 -0.281781 0.671467
2112648000 -0.191002 0.696817
2124646000 -0.0997299 0.707286
2136644000 -0.0069136 0.707093
2148642000 0.0845035 0.694279
2160640000 0.172266 0.67058
2172638000 0.256174 0.633338
2184636000 0.33187 0.582667
2196634000 0.396308 0.52024
2208632000 0.445728 0.446243
2220630000 0.482954 0.367194
2232628000 0.504582 0.287146
2244626000 0.512857 0.202805
2256624000 0.505668 0.116286
2268622000 0.478972 0.0361906
2280620000 0.441323 -0.0373772
2292618000 0.388768 -0.106744
2304616000 0.324346 -0.149963
2316614000 0.254064 -0.183495
2328612000 0.178157 -0.190023
2340610000 0.116621 -0.17427
2352608000 0.0649991 -0.158566
2364606000 0.0249005 -0.118374
2376604000 -0.00817739 -0.0965014
2388602000 -0.0339762 -0.0475532
2400600000 -0.0400169 -0.00274284
2412598000 -0.0360868 0.0432857
2424596000 -0.0225676 0.0874492
2436594000 0.00847707 0.128303
2448592000 0.0382379 0.158763
2460590000 0.0892937 0.18728
2472588000 0.124295 0.193738
2484586000 0.1782 0.199258
2496584000 0.211142 0.203307
2508582000 0.258331 0.197353
2520580000 0.30909 0.180603
2532578000 0.341753 0.149265
2544576000 0.378098 0.122351
2556574000 0.404969 0.0863741
2568572000 0.427945 0.0445375
2580570000 0.442809 -0.00925523
2592568000 0.444977 -0.0580679
2604566000 0.453954 -0.11393
2616564000 0.439761 -0.175793
2628562000 0.414192 -0.22988
2640560000 0.394183 -0.28354
2652558000 0.36048 -0.333914
2664556000 0.312584 -0.383137
2676554000 0.268784 -0.421143
2688552000 0.208863 -0.449982
2700550000 0.156264 -0.471283
2712548000 0.0936805 -0.484567
2724546000 0.036105 -0.481657
2736544000 -0.0228056 -0.473919
2748542000 -0.0779588 -0.452036
2760540000 -0.125786 -0.418271
2772538000 -0.165484 -0.379809
2784536000 -0.200781 -0.332278
2796534000 -0.222999 -0.281066
2808532000 -0.232277 -0.228224
2820530000 -0.238097 -0.181166
2832528000 -0.232704 -0.123993
2844526000 -0.217843 -0.0790051
2856524000 -0.196952 -0.0272813
2868522000 -0.164162 0.00820399
2880520000 -0.133564 0.0405781
2892518000 -0.0932744 0.0705263
2904516000 -0.0578083 0.0857008
2916514000 -0.0110411 0.0966763
2928512000 0.0307656 0.0982793
2940510000 0.0706854 0.0850213
2952508000 0.101851 0.0724565
2964506000 0.130429 0.0503607
2976504000 0.155917 0.029704
2988502000 0.18008 0.00583468
3000500000 0.196206 -0.0281247
3012498000 0.207168 -0.0612601
3024496000 0.215795 -0.0910654
3036494000 0.225141 -0.12588
3048492000 0.221404 -0.161943
3060490000 0.223459 -0.195408
3072488000 0.214123 -0.223302
3084486000 0.209954 -0.254555
3096484000 0.20109 -0.286441
3108482000 0.189835 -0.314261
3120480000 0.170627 -0.341193
3132478000 0.154661 -0.362155
3144476000 0.136087 -0.382774
3156474000 0.118154 -0.403053
3168472000 0.0928161 -0.420909
3180470000 0.0714364 -0.431183
3192468000 0.048038 -0.447495
3204466000 0.0151052 -0.45637
3216464000 -0.0108805 -0.461221
3228462000 -0.0402899 -0.468375
3240460000 -0.0721146 -0.469663
3252458000 -0.0997701 -0.467608
3264456000 -0.131223 -0.470512
3276454000 -0.164559 -0.467156
3288452000 -0.198313 -0.462705
3300450000 -0.233546 -0.454667
3312448000 -0.268034 -0.44101
3324446000 -0.296899 -0.424901
3336444000 -0.323902 -0.407096
3348442000 -0.343623 -0.391523
3360440000 -0.368792 -0.378154
3372438000 -0.390695 -0.361351
3384436000 -0.415482 -0.343598
3396434000 -0.435967 -0.317456
3408432000 -0.451178 -0.293844
3420430000 -0.461442 -0.270464
3432428000 -0.470575 -0.24626
3444426000 -0.473665 -0.221444
3456424000 -0.479387 -0.201091
3468422000 -0.474054 -0.187687
3480420000 -0.481669 -0.158424
3492418000 -0.482406 -0.137083
3504416000 -0.48632 -0.11491
3516414000 -0.48742 -0.0892608
3528412000 -0.486667 -0.0662621
3540410000 -0.489607 -0.0372235
3552408000 -0.483255 -0.00930932
3564406000 -0.485703 0.0155429
3576404000 -0.482882 0.049699
3588402000 -0.475916 0.0786295
3600400000 -0.469005 0.112104
3612398000 -0.452341 0.143932
3624396000 -0.435582 0.170693
3636394000 -0.415571 0.201067
3648392000 -0.385046 0.228094
3660390000 -0.349826 0.238186
3672388000 -0.314932 0.24658
3684386000 -0.282138 0.241287
3696384000 -0.250741 0.23006
3708382000 -0.222514 0.196096
3720380000 -0.219644 0.162853
3732378000 -0.226164 0.13308
3744376000 -0.245501 0.110724
3756374000 -0.274582 0.104821
3768372000 -0.292165 0.113815
3780370000 -0.308065 0.131135
3792368000 -0.31318 0.146276
3804366000 -0.315598 0.164616
3816364000 -0.314946 0.187647
3828362000 -0.308283 0.211936
3840360000 -0.296669 0.231375
3852358000 -0.288346 0.256164
3864356000 -0.267329 0.28069
3876354000 -0.243735 0.296881
3888352000 -0.224249 0.306801
3900350000 -0.213311 0.324833
3912348000 -0.187733 0.344544
3924346000 -0.164604 0.361997
3936344000 -0.137508 0.37204
3948342000 -0.110231 0.380489
3960340000 -0.0833682 0.387417
3972338000 -0.0568392 0.387925
3984336000 -0.0275127 0.387063
3996334000 -0.00403863 0.377862
4008332000 0.013657 0.371325
4020330000 0.0346259 0.370648
4032328000 0.0669205 0.362671
4044326000 0.0966947 0.342184
4056324000 0.117527 0.320524
4068322000 0.139782 0.294641
4080320000 0.152584 0.267868
4092318000 0.163298 0.243211
4104316000 0.170836 0.214252
4116314000 0.175724 0.193029
4128312000 0.17902 0.167847
4140310000 0.183322 0.145706
4152308000 0.186961 0.124262
4164306000 0.189198 0.0967174
4176304000 0.189823 0.0706006
4188302000 0.177853 0.0523628
4200300000 0.171896 0.0337931
4212298000 0.164482 0.0214978
4224296000 0.15806 0.0112254
4236294000 0.149747 -0.00320472
4248292000 0.143928 -0.0109593
4260290000 0.136176 -0.0230054
4272288000 0.130884 -0.0356252
4284286000 0.119937 -0.0490599
4296284000 0.10486 -0.0616912
4308282000 0.0967302 -0.0747604
4320280000 0.0676011 -0.0804826
4332278000 0.0547192 -0.0871254
4344276000 0.0366022 -0.0926135
4356274000 0.0170067 -0.0978715
4368272000 -0.00272017 -0.10365
4380270000 -0.0247632 -0.104192
4392268000 -0.0436732 -0.105899
4404266000 -0.0653217 -0.106041
4416264000 -0.0857621 -0.104016
4428262000 -0.104864 -0.102412
4440260000 -0.128982 -0.0907841
4452258000 -0.139036 -0.0823169
4464256000 -0.149527 -0.0672427
4476254000 -0.152951 -0.0566287
4488252000 -0.15466 -0.0484175
4500250000 -0.156445 -0.0423457
4512248000 -0.160869 -0.0358497
4524246000 -0.160534 -0.0291206
4536244000 -0.163425 -0.0186368
4548242000 -0.165589 -0.0112917
4560240000 -0.168795 0.00071038
4572238000 -0.166904 0.0172004
4584236000 -0.166871 0.0303058
4596234000 -0.161942 0.0384124
4608232000 -0.161071 0.0481624
4620230000 -0.166686 0.0605923
4632228000 -0.167378 0.076164
4644226000 -0.170274 0.0910744
4656224000 -0.174182 0.108291
4668222000 -0.169468 0.127387
4680220000 -0.167813 0.140527
4692218000 -0.17152 0.157674
4704216000 -0.159971 0.177972
4716214000 -0.151778 0.190129
4728212000 -0.138635 0.196081
4740210000 -0.130669 0.198766
4752208000 -0.124969 0.201816
4764206000 -0.113185 0.203167
4776204000 -0.101307 0.203634
4788202000 -0.0866648 0.196944
4800200000 -0.0786471 0.186245
4812198000 -0.070973 0.18038
4824196000 -0.0651768 0.174479
4836194000 -0.0555485 0.169094
4848192000 -0.0416075 0.164414
4860190000 -0.0248029 0.154625
4872188000 -0.0142251 0.143046
4884186000 -0.00483432 0.130408
4896184000 0.000942776 0.116822
4908182000 0.00175588 0.108664
4920180000 0.00845789 0.101652
4932178000 0.00941496 0.0951774
4944176000 0.0070686 0.0905784
4956174000 0.0065784 0.0895696
4968172000 0.00412705 0.0897845
4980170000 0.00500003 0.0910318
4992168000 -0.000298695 0.0903111
5004166000 -0.00468872 0.0871111
5016164000 -0.00832366 0.0856019
5028162000 -0.0220454 0.0785196
5040160000 -0.0402211 0.0822433
5052158000 -0.054455 0.0854373
5064156000 -0.0714395 0.0907744
5076154000 -0.0840333 0.0980441
5088152000 -0.0945157 0.107766
5100150000 -0.102239 0.112595
5112148000 -0.106831 0.116138
5124146000 -0.113196 0.11547
5136144000 -0.122181 0.119784
5148142000 -0.124857 0.128155
5160140000 -0.131248 0.128149
5172138000 -0.137236 0.137571
5184136000 -0.136432 0.147298
5196134000 -0.128467 0.156701
5208132000 -0.122114 0.158116
5220130000 -0.113513 0.16742
5232128000 -0.103578 0.17445
5244126000 -0.0939323 0.187154
5256124000 -0.0763772 0.202436
5268122000 -0.0519941 0.204061
5280120000 -0.0485059 0.217475
5292118000 -0.0382649 0.228439
5304116000 -0.0376649 0.238014
5316114000 -0.0360349 0.254094
5328112000 -0.0316275 0.262403
5340110000 -0.0383353 0.271569
5352108000 -0.0374192 0.288882
5364106000 -0.0308315 0.298579
5376104000 -0.0286438 0.304007
5388102000 -0.0225395 0.310131
5400100000 -0.0232534 0.314048
5412098000 -0.0148003 0.323643
5424096000 -0.0107831 0.326688
5436094000 -0.00362242 0.334043
5448092000 0.00781102 0.334959
5460090000 0.0153946 0.331678
5472088000 0.0198884 0.334971
5484086000 0.0341216 0.339707
5496084000 0.0501694 0.340268
5508082000 0.0677542 0.336928
5520080000 0.0817849 0.335001
5532078000 0.101453 0.334723
5544076000 0.126188 0.332329
5556074000 0.146744 0.327309
5568072000 0.168427 0.317208
5580070000 0.182763 0.311456
5592068000 0.202427 0.309744
5604066000 0.225103 0.305474
5616064000 0.243318 0.298715
5628062000 0.260435 0.290978
5640060000 0.274186 0.286011
5652058000 0.290914 0.280809
5664056000 0.30605 0.274508
5676054000 0.316934 0.264504
5688052000 0.328552 0.256354
5700050000 0.335675 0.248084
5712048000 0.34266 0.234578
5724046000 0.346649 0.221362
5736044000 0.345849 0.210139
5748042000 0.347238 0.196996
5760040000 0.348798 0.183526
5772038000 0.347556 0.165186
5784036000 0.340513 0.148821
5796034000 0.335788 0.134329
5808032000 0.330966 0.123895
5820030000 0.333405 0.107258
5832028000 0.331944 0.0964546
5844026000 0.336051 0.0833103
5856024000 0.344101 0.0690593
5868022000 0.349216 0.0558777
5880020000 0.354584 0.0447043
5892018000 0.363701 0.0353585
5904016000 0.372876 0.0205648
5916014000 0.381736 0.0118291
5928012000 0.392071 0.00787859
5940010000 0.405512 -0.00317643
5952008000 0.414907 -0.0157959
5964006000 0.418973 -0.0260837
5976004000 0.425285 -0.0335739
5988002000 0.43241 -0.0405572
6000000000 0.439926 -0.0555596
