# Hz S RI R 50
1000000 1.00255 -0.00886322
12998000 0.98145 -0.0816649
24996000 0.969064 -0.149597
36994000 0.947172 -0.201989
48992000 0.941885 -0.277549
60990000 0.920162 -0.344463
72988000 0.893649 -0.412323
84986000 0.857286 -0.481781
96984000 0.810984 -0.552038
108982000 0.749115 -0.625435
120980000 0.644627 -0.704576
132978000 0.372003 -0.754564
144976000 0.705711 -0.533507
156974000 0.441968 -0.651103
168972000 0.674322 -0.644452
180970000 0.572613 -0.777
192968000 0.481179 -0.831927
204966000 0.386208 -0.86843
216964000 0.282983 -0.868373
228962000 0.22188 -0.823437
240960000 0.214956 -0.842897
252958000 0.139687 -0.86983
264956000 0.0671401 -0.876674
276954000 0.00625918 -0.860723
288952000 -0.0615809 -0.833072
300950000 -0.084828 -0.813032
312948000 -0.145609 -0.830149
324946000 -0.240694 -0.801701
336944000 -0.294336 -0.736318
348942000 -0.32054 -0.694599
360940000 -0.389116 -0.637941
372938000 -0.40066 -0.537678
384936000 -0.367878 -0.47834
396934000 -0.31058 -0.447549
408932000 -0.263979 -0.473705
420930000 -0.274732 -0.519792
432928000 -0.309734 -0.554927
444926000 -0.35338 -0.585291
456924000 -0.432986 -0.579256
468922000 -0.501834 -0.565188
480920000 -0.575467 -0.511188
492918000 -0.619913 -0.446781
504916000 -0.651691 -0.360818
516914000 -0.638872 -0.28375
528912000 -0.618005 -0.225975
540910000 -0.589186 -0.19899
552908000 -0.583426 -0.181064
564906000 -0.577484 -0.148369
576904000 -0.546975 -0.13328
588902000 -0.549691 -0.133602
600900000 -0.529213 -0.117763
612898000 -0.529578 -0.140251
624896000 -0.557291 -0.140309
636894000 -0.574552 -0.139615
648892000 -0.608164 -0.134178
660890000 -0.658662 -0.130516
672888000 -0.702052 -0.0837652
684886000 -0.732281 -0.0384916
696884000 -0.760428 0.00381867
708882000 -0.784703 0.0533568
720880000 -0.811725 0.118942
732878000 -0.821143 0.19313
744876000 -0.817332 0.264398
756874000 -0.802915 0.337527
768872000 -0.778272 0.40095
780870000 -0.752884 0.463813
792868000 -0.719144 0.521015
804866000 -0.681331 0.575447
816864000 -0.639473 0.625146
828862000 -0.595413 0.670269
840860000 -0.547156 0.710629
852858000 -0.496057 0.74635
864856000 -0.445446 0.779202
876854000 -0.389869 0.809118
888852000 -0.329706 0.830188
900850000 -0.274066 0.850092
912848000 -0.214326 0.859648
924846000 -0.155672 0.865861
936844000 -0.100956 0.869556
948842000 -0.0466012 0.869918
960840000 0.0111478 0.865209
972838000 0.0620542 0.858602
984836000 0.118237 0.846192
996834000 0.16997 0.827527
1008832000 0.219016 0.807256
1020830000 0.268287 0.783111
1032828000 0.310467 0.755396
1044826000 0.352294 0.718167
1056824000 0.384149 0.681935
1068822000 0.404385 0.649303
1080820000 0.428099 0.619499
1092818000 0.441782 0.593168
1104816000 0.459022 0.568228
1116814000 0.474866 0.547146
1128812000 0.491522 0.528859
1140810000 0.506887 0.510791
1152808000 0.523681 0.496784
1164806000 0.544935 0.480603
1176804000 0.568165 0.468471
1188802000 0.600696 0.453623
1200800000 0.631503 0.431293
1212798000 0.662671 0.407184
1224796000 0.695189 0.377032
1236794000 0.72545 0.340174
1248792000 0.756432 0.298965
1260790000 0.780709 0.2492
1272788000 0.803748 0.197004
1284786000 0.817513 0.141163
1296784000 0.826547 0.0860215
1308782000 0.829531 0.0298925
1320780000 0.830205 -0.0268789
1332778000 0.826957 -0.0817302
1344776000 0.815645 -0.135164
1356774000 0.803563 -0.186121
1368772000 0.786826 -0.239055
1380770000 0.767304 -0.28572
1392768000 0.744778 -0.33135
1404766000 0.719924 -0.372048
1416764000 0.692284 -0.410486
1428762000 0.663879 -0.449282
1440760000 0.627683 -0.482483
1452758000 0.593385 -0.509084
1464756000 0.558446 -0.532409
1476754000 0.523526 -0.551321
1488752000 0.487499 -0.56813
1500750000 0.454936 -0.588119
1512748000 0.422339 -0.609291
1524746000 0.384303 -0.63005
1536744000 0.344558 -0.652148
1548742000 0.296148 -0.677247
1560740000 0.238348 -0.692926
1572738000 0.179046 -0.701706
1584736000 0.111582 -0.704967
1596734000 0.0436834 -0.69285
1608732000 -0.0202053 -0.669155
1620730000 -0.0830165 -0.631378
1632728000 -0.125383 -0.578503
1644726000 -0.154708 -0.521851
1656724000 -0.159716 -0.45606
1668722000 -0.139838 -0.395795
1680720000 -0.0900119 -0.357628
1692718000 -0.0327484 -0.353334
1704716000 0.0171792 -0.376122
1716714000 0.046356 -0.421842
1728712000 0.0572103 -0.476849
1740710000 0.0386734 -0.527973
1752708000 0.0141788 -0.575327
1764706000 -0.0250495 -0.607222
1776704000 -0.0754065 -0.641197
1788702000 -0.131806 -0.658404
1800700000 -0.192981 -0.666809
1812698000 -0.255832 -0.661124
1824696000 -0.321187 -0.648377
1836694000 -0.38955 -0.623703
1848692000 -0.453013 -0.588355
1860690000 -0.515036 -0.54622
1872688000 -0.57372 -0.496974
1884686000 -0.625047 -0.440015
1896684000 -0.670822 -0.37906
1908682000 -0.712673 -0.316544
1920680000 -0.748489 -0.245416
1932678000 -0.769445 -0.174833
1944676000 -0.787936 -0.106894
1956674000 -0.800567 -0.033341
1968672000 -0.802913 0.0400475
1980670000 -0.797455 0.11211
1992668000 -0.78304 0.185278
2004666000 -0.759924 0.253715
2016664000 -0.73058 0.324382
2028662000 -0.689973 0.392332
2040660000 -0.641519 0.455694
2052658000 -0.580442 0.513691
2064656000 -0.514819 0.566225
2076654000 -0.442114 0.614052
2088652000 -0.35828 0.654659
2100650000 -0.273067 0.680831
2112648000 -0.186308 0.701261
2124646000 -0.0932985 0.712282
2136644000 0.00075949 0.706006
2148642000 0.0843409 0.689669
2160640000 0.167537 0.666728
2172638000 0.247165 0.626925
2184636000 0.313666 0.578451
2196634000 0.368104 0.527502
2208632000 0.423555 0.469943
2220630000 0.462613 0.402348
2232628000 0.4927 0.326389
2244626000 0.506109 0.253422
2256624000 0.514512 0.176409
2268622000 0.505761 0.1043
2280620000 0.487011 0.0261249
2292618000 0.459378 -0.0421282
2304616000 0.410342 -0.111065
2316614000 0.362729 -0.148403
2328612000 0.314514 -0.196469
2340610000 0.241565 -0.228974
2352608000 0.169039 -0.233711
2364606000 0.114225 -0.218493
2376604000 0.0676067 -0.214913
2388602000 0.00661319 -0.197136
2400600000 -0.0415384 -0.151187
2412598000 -0.057742 -0.0874569
2424596000 -0.0742954 -0.0550719
2436594000 -0.084591 -0.00549868
2448592000 -0.0782136 0.0611109
2460590000 -0.0516895 0.118333
2472588000 -0.0141155 0.162423
2484586000 0.0341076 0.194092
2496584000 0.0645529 0.219245
2508582000 0.132007 0.257541
2520580000 0.196525 0.24956
2532578000 0.254386 0.244857
2544576000 0.305749 0.226705
2556574000 0.357594 0.191499
2568572000 0.391909 0.162315
2580570000 0.449897 0.119891
2592568000 0.478944 0.0466534
2604566000 0.487089 -0.0240641
2616564000 0.491286 -0.0814612
2628562000 0.497898 -0.150944
2640560000 0.48077 -0.233118
2652558000 0.450788 -0.301881
2664556000 0.412979 -0.365137
2676554000 0.364284 -0.429911
2688552000 0.302406 -0.480456
2700550000 0.235829 -0.512984
2712548000 0.168236 -0.541322
2724546000 0.0937724 -0.557011
2736544000 0.0229518 -0.55743
2748542000 -0.0535685 -0.546513
2760540000 -0.126722 -0.515012
2772538000 -0.187876 -0.475724
2784536000 -0.242898 -0.420997
2796534000 -0.285613 -0.356842
2808532000 -0.314837 -0.285806
2820530000 -0.330016 -0.216192
2832528000 -0.332308 -0.139004
2844526000 -0.313593 -0.0636934
2856524000 -0.289864 0.0011654
2868522000 -0.25128 0.0596645
2880520000 -0.201392 0.109993
2892518000 -0.147838 0.146562
2904516000 -0.0876303 0.172007
2916514000 -0.0327583 0.183057
2928512000 0.0229499 0.184969
2940510000 0.0827718 0.174728
2952508000 0.128641 0.155096
2964506000 0.171088 0.126709
2976504000 0.209677 0.0979035
2988502000 0.243002 0.0609388
3000500000 0.269735 0.0171492
3012498000 0.288751 -0.0286969
3024496000 0.296097 -0.0796923
3036494000 0.299694 -0.125535
3048492000 0.298495 -0.17125
3060490000 0.292935 -0.215576
3072488000 0.28115 -0.255967
3084486000 0.267347 -0.291343
3096484000 0.250443 -0.328403
3108482000 0.227722 -0.361014
3120480000 0.207971 -0.389973
3132478000 0.181291 -0.415586
3144476000 0.153051 -0.436933
3156474000 0.128091 -0.453804
3168472000 0.0996667 -0.472124
3180470000 0.0682061 -0.483928
3192468000 0.0403881 -0.49234
3204466000 0.00541479 -0.499476
3216464000 -0.0232401 -0.502002
3228462000 -0.0555525 -0.507163
3240460000 -0.0923004 -0.508261
3252458000 -0.123975 -0.50012
3264456000 -0.158758 -0.499268
3276454000 -0.192203 -0.489645
3288452000 -0.227337 -0.481464
3300450000 -0.257905 -0.467329
3312448000 -0.288335 -0.453988
3324446000 -0.315977 -0.440324
3336444000 -0.345781 -0.426515
3348442000 -0.373276 -0.407409
3360440000 -0.395516 -0.386642
3372438000 -0.419036 -0.369071
3384436000 -0.437304 -0.346408
3396434000 -0.455902 -0.326938
3408432000 -0.472282 -0.307923
3420430000 -0.48967 -0.284295
3432428000 -0.498299 -0.257496
3444426000 -0.50894 -0.236345
3456424000 -0.519079 -0.211991
3468422000 -0.522919 -0.197922
3480420000 -0.535977 -0.15702
3492418000 -0.536779 -0.125826
3504416000 -0.540108 -0.0975261
3516414000 -0.541426 -0.0601652
3528412000 -0.538506 -0.0286702
3540410000 -0.536133 0.00599372
3552408000 -0.529428 0.0441341
3564406000 -0.522085 0.0781015
3576404000 -0.509504 0.116264
3588402000 -0.490605 0.152756
3600400000 -0.470812 0.187426
3612398000 -0.445168 0.220315
3624396000 -0.415403 0.246274
3636394000 -0.380529 0.271793
3648392000 -0.33904 0.283792
3660390000 -0.300136 0.291258
3672388000 -0.256366 0.277939
3684386000 -0.226386 0.26184
3696384000 -0.200613 0.230452
3708382000 -0.193077 0.194585
3720380000 -0.202861 0.169054
3732378000 -0.20926 0.155636
3744376000 -0.222055 0.13726
3756374000 -0.2437 0.136486
3768372000 -0.253138 0.14932
3780370000 -0.252567 0.154137
3792368000 -0.261305 0.164122
3804366000 -0.256611 0.180992
3816364000 -0.251026 0.195687
3828362000 -0.239583 0.211596
3840360000 -0.22564 0.224781
3852358000 -0.215352 0.235612
3864356000 -0.198282 0.247424
3876354000 -0.181914 0.260081
3888352000 -0.165936 0.266985
3900350000 -0.147633 0.274086
3912348000 -0.135487 0.282714
3924346000 -0.115464 0.292047
3936344000 -0.0962563 0.292314
3948342000 -0.0842739 0.293029
3960340000 -0.0717514 0.29747
3972338000 -0.0512017 0.29999
3984336000 -0.035904 0.292412
3996334000 -0.0257211 0.290688
4008332000 -0.012539 0.285268
4020330000 -0.0037316 0.279005
4032328000 0.0110878 0.273292
4044326000 0.0221168 0.264482
4056324000 0.0326886 0.25711
4068322000 0.0427084 0.244436
4080320000 0.0528336 0.241276
4092318000 0.0661882 0.220619
4104316000 0.0698636 0.211263
4116314000 0.0741858 0.204515
4128312000 0.0884823 0.190238
4140310000 0.0956033 0.172949
4152308000 0.100274 0.160001
4164306000 0.102524 0.150681
4176304000 0.115715 0.139329
4188302000 0.125698 0.128105
4200300000 0.130373 0.110491
4212298000 0.135704 0.0972315
4224296000 0.135453 0.0824115
4236294000 0.136671 0.0771599
4248292000 0.144938 0.061202
4260290000 0.138415 0.0427329
4272288000 0.130675 0.0358362
4284286000 0.134192 0.026593
4296284000 0.135134 0.0109899
4308282000 0.125727 -0.0120354
4320280000 0.110864 -0.0212148
4332278000 0.0980249 -0.0293785
4344276000 0.0910792 -0.0412974
4356274000 0.0782581 -0.0543535
4368272000 0.0595329 -0.0645553
4380270000 0.0439444 -0.0751391
4392268000 0.0302751 -0.0823514
4404266000 0.00661188 -0.0947858
4416264000 -0.00952749 -0.101343
4428262000 -0.0342181 -0.104255
4440260000 -0.0446273 -0.103565
4452258000 -0.0610274 -0.110616
4464256000 -0.0803774 -0.113038
4476254000 -0.0936919 -0.11076
4488252000 -0.110333 -0.112902
4500250000 -0.129607 -0.104337
4512248000 -0.13792 -0.0939921
4524246000 -0.148596 -0.087526
4536244000 -0.160629 -0.0752289
4548242000 -0.170527 -0.0658066
4560240000 -0.178041 -0.0526039
4572238000 -0.187655 -0.0338263
4584236000 -0.189291 -0.0117716
4596234000 -0.191616 0.0011241
4608232000 -0.192248 0.0212166
4620230000 -0.195342 0.0381838
4632228000 -0.195839 0.0562885
4644226000 -0.198184 0.076978
4656224000 -0.198872 0.0946907
4668222000 -0.197094 0.11649
4680220000 -0.190511 0.134647
4692218000 -0.186161 0.148641
4704216000 -0.18097 0.163663
4716214000 -0.180005 0.17677
4728212000 -0.171134 0.192054
4740210000 -0.159179 0.195895
4752208000 -0.152312 0.202249
4764206000 -0.141706 0.208019
4776204000 -0.129812 0.209177
4788202000 -0.116994 0.208371
4800200000 -0.104919 0.202313
4812198000 -0.0985214 0.199123
4824196000 -0.084423 0.197183
4836194000 -0.0703229 0.193196
4848192000 -0.0557814 0.186955
4860190000 -0.0397445 0.177581
4872188000 -0.0287329 0.1673
4884186000 -0.0147375 0.159677
4896184000 -0.00200468 0.148256
4908182000 0.00657459 0.135335
4920180000 0.00618779 0.124004
4932178000 0.0111411 0.121381
4944176000 0.0151014 0.119901
4956174000 0.0213031 0.113482
4968172000 0.0191501 0.107624
4980170000 0.0175784 0.106821
4992168000 0.0154753 0.103025
5004166000 0.00979451 0.0991633
5016164000 0.00114338 0.098692
5028162000 -0.006589 0.0978858
5040160000 -0.0174723 0.097025
5052158000 -0.0293864 0.0966245
5064156000 -0.0421612 0.0956527
5076154000 -0.060141 0.0973876
5088152000 -0.0719448 0.103673
5100150000 -0.0803731 0.106616
5112148000 -0.0893216 0.109034
5124146000 -0.0952601 0.111293
5136144000 -0.102207 0.114597
5148142000 -0.107822 0.114808
5160140000 -0.113608 0.116449
5172138000 -0.122236 0.118781
5184136000 -0.125809 0.131055
5196134000 -0.119308 0.135586
5208132000 -0.116905 0.140166
5220130000 -0.111371 0.149484
5232128000 -0.10153 0.158981
5244126000 -0.091072 0.169815
5256124000 -0.0756846 0.176962
5268122000 -0.0653832 0.181785
5280120000 -0.0631543 0.207496
5292118000 -0.0526238 0.221495
5304116000 -0.0460175 0.236683
5316114000 -0.0411869 0.249693
5328112000 -0.0404236 0.259039
5340110000 -0.0388719 0.270153
5352108000 -0.042804 0.277837
5364106000 -0.0434778 0.292161
5376104000 -0.037322 0.304697
5388102000 -0.0306791 0.306927
5400100000 -0.026722 0.316287
5412098000 -0.0170503 0.321908
5424096000 -0.0127492 0.32621
5436094000 -0.00416731 0.328625
5448092000 0.00351421 0.32829
5460090000 0.0106444 0.330064
5472088000 0.0210154 0.329952
5484086000 0.0317753 0.328703
5496084000 0.043541 0.32807
5508082000 0.0583091 0.327649
5520080000 0.0733021 0.32686
5532078000 0.0909117 0.323311
5544076000 0.107151 0.321759
5556074000 0.124557 0.320236
5568072000 0.145687 0.318837
5580070000 0.164625 0.317103
5592068000 0.188243 0.313995
5604066000 0.204875 0.307287
5616064000 0.221614 0.306868
5628062000 0.237115 0.305189
5640060000 0.25799 0.304598
5652058000 0.275868 0.29757
5664056000 0.288787 0.295485
5676054000 0.307391 0.287386
5688052000 0.314665 0.283628
5700050000 0.329482 0.27673
5712048000 0.338231 0.265323
5724046000 0.344317 0.252848
5736044000 0.347436 0.24548
5748042000 0.356033 0.234736
5760040000 0.361809 0.220036
5772038000 0.367579 0.201175
5784036000 0.366502 0.185169
5796034000 0.374362 0.167183
5808032000 0.376215 0.141999
5820030000 0.375108 0.117435
5832028000 0.374145 0.101123
5844026000 0.379757 0.0816302
5856024000 0.385351 0.0572908
5868022000 0.386112 0.0389462
5880020000 0.388409 0.0291272
5892018000 0.39808 0.0103354
5904016000 0.402986 -0.00965351
5916014000 0.40213 -0.0192515
5928012000 0.407717 -0.0271057
5940010000 0.416696 -0.0344601
5952008000 0.425495 -0.0509916
5964006000 0.422825 -0.0604237
5976004000 0.424894 -0.0668854
5988002000 0.431224 -0.0747575
6000000000 0.432155 -0.0882252
