# Hz S RI R 50
1000000 1.0017 -0.0093751
12998000 0.981309 -0.081309
24996000 0.969078 -0.149361
36994000 0.947774 -0.201311
48992000 0.942033 -0.276932
60990000 0.920477 -0.343764
72988000 0.893936 -0.411386
84986000 0.857901 -0.480872
96984000 0.812001 -0.550602
108982000 0.750737 -0.623771
120980000 0.648118 -0.70219
132978000 0.389969 -0.754618
144976000 0.701564 -0.52949
156974000 0.443052 -0.650262
168972000 0.676098 -0.640675
180970000 0.573461 -0.776005
192968000 0.481236 -0.831027
204966000 0.386535 -0.867199
216964000 0.282154 -0.866611
228962000 0.222909 -0.819514
240960000 0.218251 -0.840981
252958000 0.14168 -0.869286
264956000 0.0691464 -0.874557
276954000 0.00918159 -0.855921
288952000 -0.0532561 -0.82931
300950000 -0.0776077 -0.811252
312948000 -0.137723 -0.830752
324946000 -0.234541 -0.801635
336944000 -0.284309 -0.740022
348942000 -0.314766 -0.698387
360940000 -0.380778 -0.639419
372938000 -0.38946 -0.539696
384936000 -0.355728 -0.481139
396934000 -0.286344 -0.460901
408932000 -0.25415 -0.504604
420930000 -0.275343 -0.543628
432928000 -0.312242 -0.576423
444926000 -0.357729 -0.605482
456924000 -0.439667 -0.600814
468922000 -0.513654 -0.58595
480920000 -0.589237 -0.526692
492918000 -0.630701 -0.458946
504916000 -0.659871 -0.380833
516914000 -0.654409 -0.304883
528912000 -0.639784 -0.254269
540910000 -0.619023 -0.217208
552908000 -0.614704 -0.205576
564906000 -0.625789 -0.178231
576904000 -0.621669 -0.145015
588902000 -0.634183 -0.114186
600900000 -0.617127 -0.0678387
612898000 -0.593447 -0.0448983
624896000 -0.568408 -0.029369
636894000 -0.560401 -0.0351942
648892000 -0.554714 -0.0470713
660890000 -0.597532 -0.0744791
672888000 -0.637768 -0.0472627
684886000 -0.670591 -0.0196277
696884000 -0.703371 0.0139269
708882000 -0.733791 0.0544611
720880000 -0.762858 0.112832
732878000 -0.776725 0.177481
744876000 -0.780076 0.239384
756874000 -0.773975 0.307377
768872000 -0.763609 0.373085
780870000 -0.741024 0.442226
792868000 -0.709348 0.499186
804866000 -0.671695 0.554029
816864000 -0.633692 0.604107
828862000 -0.591411 0.649055
840860000 -0.546278 0.689681
852858000 -0.499741 0.724994
864856000 -0.451188 0.761771
876854000 -0.396825 0.793107
888852000 -0.341608 0.815582
900850000 -0.28325 0.83691
912848000 -0.226896 0.850751
924846000 -0.167918 0.859685
936844000 -0.111114 0.865857
948842000 -0.0553317 0.867058
960840000 0.00292596 0.862028
972838000 0.0528815 0.855418
984836000 0.108808 0.844501
996834000 0.159531 0.82845
1008832000 0.210154 0.809144
1020830000 0.259436 0.786785
1032828000 0.30385 0.757542
1044826000 0.343762 0.724231
1056824000 0.377855 0.687272
1068822000 0.400271 0.656972
1080820000 0.427352 0.62656
1092818000 0.44325 0.598443
1104816000 0.460918 0.569538
1116814000 0.474107 0.546122
1128812000 0.487212 0.528927
1140810000 0.503096 0.514923
1152808000 0.523199 0.500057
1164806000 0.545418 0.483396
1176804000 0.568976 0.470656
1188802000 0.601001 0.454004
1200800000 0.631222 0.43249
1212798000 0.66141 0.407947
1224796000 0.692987 0.377959
1236794000 0.724068 0.342574
1248792000 0.75495 0.300371
1260790000 0.780378 0.251133
1272788000 0.803643 0.199044
1284786000 0.81628 0.144564
1296784000 0.826692 0.0887525
1308782000 0.83098 0.031689
1320780000 0.830632 -0.0246229
1332778000 0.828235 -0.0803674
1344776000 0.816948 -0.133822
1356774000 0.805429 -0.185018
1368772000 0.788306 -0.238765
1380770000 0.766981 -0.285603
1392768000 0.74468 -0.329646
1404766000 0.720339 -0.370167
1416764000 0.694082 -0.409381
1428762000 0.665223 -0.448925
1440760000 0.629783 -0.481778
1452758000 0.59546 -0.509724
1464756000 0.559035 -0.533987
1476754000 0.522113 -0.552202
1488752000 0.48754 -0.567253
1500750000 0.459721 -0.588205
1512748000 0.421166 -0.609336
1524746000 0.384365 -0.6288
1536744000 0.345282 -0.652749
1548742000 0.29568 -0.678116
1560740000 0.238845 -0.694108
1572738000 0.177355 -0.70269
1584736000 0.109751 -0.705586
1596734000 0.0408942 -0.693692
1608732000 -0.0228796 -0.668489
1620730000 -0.0852031 -0.631058
1632728000 -0.1306 -0.577414
1644726000 -0.158712 -0.518591
1656724000 -0.164401 -0.451217
1668722000 -0.14493 -0.388256
1680720000 -0.0920364 -0.348601
1692718000 -0.0335848 -0.341099
1704716000 0.0250063 -0.363741
1716714000 0.0552891 -0.412338
1728712000 0.0709875 -0.468318
1740710000 0.0527614 -0.526826
1752708000 0.0249227 -0.576493
1764706000 -0.0128146 -0.610537
1776704000 -0.0647198 -0.647514
1788702000 -0.124183 -0.664368
1800700000 -0.186761 -0.670871
1812698000 -0.249651 -0.669302
1824696000 -0.318133 -0.656974
1836694000 -0.38813 -0.631454
1848692000 -0.453248 -0.595384
1860690000 -0.516867 -0.551326
1872688000 -0.573421 -0.502905
1884686000 -0.626981 -0.444426
1896684000 -0.673841 -0.383475
1908682000 -0.71519 -0.319771
1920680000 -0.750462 -0.248546
1932678000 -0.77212 -0.176623
1944676000 -0.79052 -0.107396
1956674000 -0.802074 -0.0335263
1968672000 -0.803153 0.0389692
1980670000 -0.799504 0.111383
1992668000 -0.782453 0.184375
2004666000 -0.759223 0.253409
2016664000 -0.730254 0.322576
2028662000 -0.688917 0.390057
2040660000 -0.640415 0.452884
2052658000 -0.58053 0.512
2064656000 -0.513562 0.563778
2076654000 -0.440595 0.610942
2088652000 -0.357185 0.649887
2100650000 -0.272293 0.675018
2112648000 -0.184773 0.694072
2124646000 -0.0931733 0.703523
2136644000 -0.00269445 0.697301
2148642000 0.0805273 0.681162
2160640000 0.161605 0.658961
2172638000 0.241136 0.619577
2184636000 0.307471 0.571806
2196634000 0.358612 0.518615
2208632000 0.410087 0.461448
2220630000 0.4481 0.393306
2232628000 0.473202 0.32136
2244626000 0.484011 0.251893
2256624000 0.490972 0.181779
2268622000 0.48272 0.112052
2280620000 0.465425 0.0397958
2292618000 0.439741 -0.0271778
2304616000 0.39223 -0.0874094
2316614000 0.349787 -0.129682
2328612000 0.297223 -0.168144
2340610000 0.229422 -0.190757
2352608000 0.170869 -0.189417
2364606000 0.127371 -0.183532
2376604000 0.0830268 -0.177443
2388602000 0.0337452 -0.157489
2400600000 -0.00607571 -0.125484
2412598000 -0.0221078 -0.0703004
2424596000 -0.0326849 -0.0440664
2436594000 -0.044605 0.0028998
2448592000 -0.0315663 0.0604372
2460590000 -0.00851308 0.102782
2472588000 0.0236654 0.138426
2484586000 0.0662716 0.167092
2496584000 0.0999862 0.184454
2508582000 0.149623 0.211671
2520580000 0.206279 0.209366
2532578000 0.252814 0.200546
2544576000 0.293736 0.187953
2556574000 0.346124 0.165722
2568572000 0.379795 0.129448
2580570000 0.425743 0.089021
2592568000 0.452113 0.0275168
2604566000 0.46048 -0.0351183
2616564000 0.462009 -0.094624
2628562000 0.467494 -0.156742
2640560000 0.451558 -0.230733
2652558000 0.422289 -0.29488
2664556000 0.386486 -0.355378
2676554000 0.339618 -0.412537
2688552000 0.284714 -0.456888
2700550000 0.221185 -0.490351
2712548000 0.158351 -0.513444
2724546000 0.0887874 -0.528737
2736544000 0.022212 -0.528217
2748542000 -0.0484863 -0.515942
2760540000 -0.114305 -0.486024
2772538000 -0.167073 -0.452544
2784536000 -0.220821 -0.399377
2796534000 -0.256933 -0.343583
2808532000 -0.284448 -0.277232
2820530000 -0.295968 -0.215922
2832528000 -0.299964 -0.144289
2844526000 -0.280237 -0.0772476
2856524000 -0.260354 -0.0219018
2868522000 -0.224253 0.0330636
2880520000 -0.182725 0.0745252
2892518000 -0.135796 0.110317
2904516000 -0.0844793 0.133032
2916514000 -0.039086 0.143603
2928512000 0.00923903 0.14959
2940510000 0.0633522 0.144564
2952508000 0.105265 0.126286
2964506000 0.141707 0.106486
2976504000 0.178453 0.0827605
2988502000 0.209862 0.0498027
3000500000 0.235769 0.0142262
3012498000 0.254657 -0.0280028
3024496000 0.263582 -0.0736384
3036494000 0.269858 -0.114055
3048492000 0.271017 -0.157825
3060490000 0.267407 -0.197145
3072488000 0.259482 -0.233479
3084486000 0.248009 -0.268453
3096484000 0.236234 -0.303059
3108482000 0.217444 -0.335256
3120480000 0.200383 -0.362623
3132478000 0.17838 -0.389504
3144476000 0.152177 -0.409625
3156474000 0.131431 -0.425925
3168472000 0.107582 -0.447692
3180470000 0.0764027 -0.46093
3192468000 0.0523731 -0.470743
3204466000 0.0195327 -0.480613
3216464000 -0.00927529 -0.486041
3228462000 -0.04132 -0.491073
3240460000 -0.0748146 -0.492608
3252458000 -0.105899 -0.488462
3264456000 -0.139488 -0.487283
3276454000 -0.172465 -0.481012
3288452000 -0.203598 -0.473655
3300450000 -0.234151 -0.464774
3312448000 -0.263275 -0.454738
3324446000 -0.293644 -0.444233
3336444000 -0.324772 -0.432572
3348442000 -0.352716 -0.414434
3360440000 -0.376106 -0.397982
3372438000 -0.401208 -0.38124
3384436000 -0.421098 -0.361136
3396434000 -0.441431 -0.342892
3408432000 -0.460741 -0.323924
3420430000 -0.478814 -0.301354
3432428000 -0.487995 -0.276682
3444426000 -0.50389 -0.255151
3456424000 -0.514362 -0.230415
3468422000 -0.519869 -0.216622
3480420000 -0.53333 -0.174948
3492418000 -0.536422 -0.145234
3504416000 -0.544527 -0.116396
3516414000 -0.545773 -0.0794226
3528412000 -0.545359 -0.0476983
3540410000 -0.545719 -0.0130177
3552408000 -0.539885 0.0266456
3564406000 -0.53496 0.0624203
3576404000 -0.524292 0.102111
3588402000 -0.507651 0.139298
3600400000 -0.490068 0.175381
3612398000 -0.466109 0.212835
3624396000 -0.435465 0.244231
3636394000 -0.399619 0.272431
3648392000 -0.358753 0.288013
3660390000 -0.313518 0.297151
3672388000 -0.268714 0.285913
3684386000 -0.234033 0.269685
3696384000 -0.204759 0.235743
3708382000 -0.196678 0.196071
3720380000 -0.208558 0.170341
3732378000 -0.214705 0.152559
3744376000 -0.233665 0.133769
3756374000 -0.256566 0.13625
3768372000 -0.266373 0.149171
3780370000 -0.268538 0.157943
3792368000 -0.27646 0.169464
3804366000 -0.271984 0.189437
3816364000 -0.265026 0.204801
3828362000 -0.253925 0.222205
3840360000 -0.239835 0.237526
3852358000 -0.228145 0.25033
3864356000 -0.210847 0.264352
3876354000 -0.19124 0.278255
3888352000 -0.174056 0.288315
3900350000 -0.153382 0.297263
3912348000 -0.138249 0.307557
3924346000 -0.112919 0.316856
3936344000 -0.0929335 0.316896
3948342000 -0.0765183 0.319005
3960340000 -0.0599004 0.320898
3972338000 -0.0394973 0.320101
3984336000 -0.0204857 0.315362
3996334000 -0.00805853 0.309359
4008332000 0.00519262 0.304764
4020330000 0.0196732 0.297283
4032328000 0.0369371 0.288737
4044326000 0.0509588 0.275585
4056324000 0.0624651 0.264234
4068322000 0.0759403 0.250102
4080320000 0.0847965 0.238442
4092318000 0.0965518 0.216132
4104316000 0.101777 0.20159
4116314000 0.100631 0.190009
4128312000 0.113877 0.176991
4140310000 0.121444 0.154829
4152308000 0.124484 0.140343
4164306000 0.124412 0.127929
4176304000 0.133177 0.116687
4188302000 0.144061 0.103314
4200300000 0.147958 0.0820209
4212298000 0.146388 0.0652618
4224296000 0.14399 0.0493764
4236294000 0.139234 0.0392007
4248292000 0.139052 0.0234634
4260290000 0.129538 0.0124558
4272288000 0.121265 0.00433467
4284286000 0.119351 -0.0052901
4296284000 0.114911 -0.0172878
4308282000 0.104603 -0.0359748
4320280000 0.0878899 -0.0468901
4332278000 0.0705706 -0.0516395
4344276000 0.0606916 -0.0589419
4356274000 0.0481439 -0.0679781
4368272000 0.0256652 -0.0759239
4380270000 0.0074752 -0.0814707
4392268000 -0.00581215 -0.0837519
4404266000 -0.0276981 -0.0900805
4416264000 -0.0430228 -0.0902933
4428262000 -0.0609414 -0.0925442
4440260000 -0.0733446 -0.0931671
4452258000 -0.0886166 -0.093461
4464256000 -0.106554 -0.0936819
4476254000 -0.11842 -0.0901073
4488252000 -0.131821 -0.0885506
4500250000 -0.149444 -0.0779424
4512248000 -0.15238 -0.0642643
4524246000 -0.158108 -0.0576356
4536244000 -0.167932 -0.0456485
4548242000 -0.174476 -0.0334858
4560240000 -0.175919 -0.0191676
4572238000 -0.181772 -0.00554558
4584236000 -0.18013 0.0159217
4596234000 -0.180373 0.0276661
4608232000 -0.182066 0.0442215
4620230000 -0.183086 0.0624377
4632228000 -0.181644 0.0816934
4644226000 -0.176141 0.102404
4656224000 -0.17241 0.112528
4668222000 -0.170883 0.131037
4680220000 -0.161738 0.146671
4692218000 -0.157942 0.155347
4704216000 -0.153483 0.168635
4716214000 -0.151953 0.176888
4728212000 -0.145156 0.188533
4740210000 -0.133947 0.193372
4752208000 -0.123593 0.195048
4764206000 -0.116435 0.194259
4776204000 -0.110382 0.194295
4788202000 -0.0996759 0.193149
4800200000 -0.0893663 0.18781
4812198000 -0.0821257 0.183043
4824196000 -0.0701822 0.178039
4836194000 -0.0604409 0.172962
4848192000 -0.0456625 0.165853
4860190000 -0.0322239 0.153708
4872188000 -0.0261346 0.143187
4884186000 -0.0164191 0.134679
4896184000 -0.00799727 0.126649
4908182000 -0.00100457 0.115553
4920180000 -0.00252158 0.108066
4932178000 0.00117529 0.106147
4944176000 0.00400212 0.105386
4956174000 0.00841634 0.101695
4968172000 0.00738573 0.0974377
4980170000 0.00537778 0.0970875
4992168000 0.000702736 0.0953449
5004166000 -0.00475732 0.0947792
5016164000 -0.0111217 0.0972002
5028162000 -0.0177552 0.0975924
5040160000 -0.0250083 0.096112
5052158000 -0.0363716 0.0927745
5064156000 -0.052843 0.0920789
5076154000 -0.0715142 0.0943554
5088152000 -0.0843407 0.102425
5100150000 -0.0935453 0.106377
5112148000 -0.101826 0.111597
5124146000 -0.107773 0.116155
5136144000 -0.112826 0.12093
5148142000 -0.116188 0.122538
5160140000 -0.119522 0.125062
5172138000 -0.125704 0.125239
5184136000 -0.129216 0.136541
5196134000 -0.123551 0.139348
5208132000 -0.121915 0.142733
5220130000 -0.118308 0.152617
5232128000 -0.111528 0.164845
5244126000 -0.0987961 0.1803
5256124000 -0.0805339 0.188715
5268122000 -0.0652198 0.192927
5280120000 -0.0629568 0.213456
5292118000 -0.0551031 0.229122
5304116000 -0.0468035 0.24486
5316114000 -0.0431509 0.257187
5328112000 -0.041271 0.266272
5340110000 -0.0453276 0.278758
5352108000 -0.0428953 0.293548
5364106000 -0.0378569 0.304485
5376104000 -0.0323205 0.313953
5388102000 -0.0269743 0.316318
5400100000 -0.0234521 0.325067
5412098000 -0.0123818 0.332839
5424096000 -0.00197085 0.33331
5436094000 0.00490302 0.335335
5448092000 0.0131458 0.335231
5460090000 0.0202171 0.33353
5472088000 0.0311083 0.334204
5484086000 0.0422854 0.329394
5496084000 0.050675 0.328141
5508082000 0.0642905 0.330459
5520080000 0.082147 0.331638
5532078000 0.103515 0.325615
5544076000 0.119615 0.320938
5556074000 0.136762 0.317059
5568072000 0.156494 0.314475
5580070000 0.175934 0.310632
5592068000 0.19626 0.305688
5604066000 0.209616 0.299276
5616064000 0.22832 0.299539
5628062000 0.241981 0.296357
5640060000 0.260349 0.296741
5652058000 0.279697 0.291772
5664056000 0.295153 0.288862
5676054000 0.310573 0.276356
5688052000 0.316508 0.271566
5700050000 0.328381 0.266208
5712048000 0.337245 0.254621
5724046000 0.342119 0.243941
5736044000 0.344566 0.237343
5748042000 0.352871 0.228732
5760040000 0.359781 0.21356
5772038000 0.364785 0.194224
5784036000 0.362495 0.178403
5796034000 0.370267 0.161795
5808032000 0.373283 0.135733
5820030000 0.373267 0.110005
5832028000 0.370639 0.0911703
5844026000 0.372809 0.0710065
5856024000 0.372799 0.0513612
5868022000 0.376466 0.0353102
5880020000 0.378869 0.0257517
5892018000 0.386462 0.00781669
5904016000 0.390938 -0.0109223
5916014000 0.393564 -0.0207261
5928012000 0.400535 -0.0262511
5940010000 0.407483 -0.0367305
5952008000 0.41293 -0.0498399
5964006000 0.41385 -0.0595392
5976004000 0.414944 -0.0652119
5988002000 0.418036 -0.0721836
6000000000 0.419467 -0.0816122
