# Hz S RI R 50
1000000 1.00174 -0.00423906
12998000 0.976383 -0.112225
24996000 0.956704 -0.20666
36994000 0.93197 -0.296898
48992000 0.900129 -0.389978
60990000 0.857367 -0.478046
72988000 0.804743 -0.563
84986000 0.741665 -0.642893
96984000 0.669392 -0.715997
108982000 0.587667 -0.781961
120980000 0.49715 -0.839682
132978000 0.386328 -0.881547
144976000 0.282069 -0.913674
156974000 0.280811 -0.879394
168972000 0.154994 -0.946743
180970000 0.0555319 -0.961239
192968000 -0.0499536 -0.962076
204966000 -0.151647 -0.950307
216964000 -0.250467 -0.925881
228962000 -0.345348 -0.890721
240960000 -0.431811 -0.841851
252958000 -0.503097 -0.786502
264956000 -0.573376 -0.740404
276954000 -0.647546 -0.684822
288952000 -0.720543 -0.61281
300950000 -0.780946 -0.529506
312948000 -0.831358 -0.43877
324946000 -0.867002 -0.33717
336944000 -0.885931 -0.234425
348942000 -0.893481 -0.136064
360940000 -0.885129 -0.0350411
372938000 -0.850206 0.0457479
384936000 -0.840213 0.103733
396934000 -0.829923 0.177832
408932000 -0.805037 0.2483
420930000 -0.790784 0.312074
432928000 -0.776563 0.389947
444926000 -0.739513 0.469377
456924000 -0.695163 0.543392
468922000 -0.643028 0.618125
480920000 -0.574514 0.684454
492918000 -0.498889 0.73754
504916000 -0.422873 0.779553
516914000 -0.344412 0.817411
528912000 -0.264642 0.848656
540910000 -0.172702 0.874214
552908000 -0.0750075 0.879897
564906000 0.0152843 0.874005
576904000 0.111952 0.8513
588902000 0.18709 0.810409
600900000 0.249781 0.774145
612898000 0.306952 0.742043
624896000 0.374903 0.702186
636894000 0.424555 0.642351
648892000 0.452345 0.588659
660890000 0.464197 0.564052
672888000 0.502398 0.555774
684886000 0.564515 0.537111
696884000 0.625835 0.490768
708882000 0.675933 0.433321
720880000 0.71751 0.373776
732878000 0.753365 0.306429
744876000 0.779258 0.24055
756874000 0.795524 0.166433
768872000 0.808972 0.104651
780870000 0.825572 0.0345615
792868000 0.834221 -0.0447083
804866000 0.831726 -0.129413
816864000 0.813023 -0.214186
828862000 0.77906 -0.29494
840860000 0.738799 -0.364887
852858000 0.698836 -0.425934
864856000 0.650899 -0.489205
876854000 0.602191 -0.549379
888852000 0.546102 -0.604329
900850000 0.486773 -0.655017
912848000 0.418364 -0.705506
924846000 0.338462 -0.747876
936844000 0.252232 -0.776798
948842000 0.169694 -0.796492
960840000 0.0821836 -0.807671
972838000 -0.00854302 -0.807106
984836000 -0.0887351 -0.790863
996834000 -0.164473 -0.776113
1008832000 -0.241655 -0.754729
1020830000 -0.316821 -0.7313
1032828000 -0.396339 -0.697257
1044826000 -0.472494 -0.651836
1056824000 -0.542911 -0.59461
1068822000 -0.607571 -0.531426
1080820000 -0.66524 -0.457209
1092818000 -0.713288 -0.377138
1104816000 -0.749986 -0.291273
1116814000 -0.782465 -0.199777
1128812000 -0.800694 -0.10099
1140810000 -0.806188 -0.00183918
1152808000 -0.796215 0.100015
1164806000 -0.774964 0.197872
1176804000 -0.73813 0.294057
1188802000 -0.693852 0.378648
1200800000 -0.640516 0.455333
1212798000 -0.580366 0.527715
1224796000 -0.51027 0.588367
1236794000 -0.427781 0.642511
1248792000 -0.340518 0.677712
1260790000 -0.251064 0.697745
1272788000 -0.161634 0.703546
1284786000 -0.0770451 0.689808
1296784000 0.000381029 0.663968
1308782000 0.0634996 0.626686
1320780000 0.116457 0.580589
1332778000 0.149134 0.533035
1344776000 0.165211 0.501031
1356774000 0.181483 0.478291
1368772000 0.200983 0.472083
1380770000 0.232201 0.468394
1392768000 0.271874 0.454717
1404766000 0.312511 0.441208
1416764000 0.360596 0.414575
1428762000 0.394333 0.380715
1440760000 0.425363 0.350685
1452758000 0.45926 0.31605
1464756000 0.48209 0.276396
1476754000 0.503909 0.243538
1488752000 0.521215 0.203253
1500750000 0.534736 0.162313
1512748000 0.534137 0.124738
1524746000 0.538547 0.0922385
1536744000 0.536616 0.0559389
1548742000 0.528136 0.0307672
1560740000 0.525733 0.0104966
1572738000 0.527393 -0.00752387
1584736000 0.540925 -0.0276431
1596734000 0.556487 -0.0558843
1608732000 0.572906 -0.0918544
1620730000 0.58885 -0.139712
1632728000 0.598301 -0.198978
1644726000 0.594247 -0.268125
1656724000 0.5772 -0.333941
1668722000 0.551463 -0.401253
1680720000 0.515081 -0.460819
1692718000 0.468651 -0.515879
1704716000 0.417854 -0.560288
1716714000 0.366201 -0.598951
1728712000 0.311158 -0.633907
1740710000 0.252856 -0.662261
1752708000 0.190626 -0.685483
1764706000 0.124191 -0.700963
1776704000 0.0554177 -0.710348
1788702000 -0.0184905 -0.708378
1800700000 -0.0911209 -0.696239
1812698000 -0.163626 -0.672597
1824696000 -0.232166 -0.640193
1836694000 -0.298412 -0.599519
1848692000 -0.361033 -0.552801
1860690000 -0.421237 -0.50007
1872688000 -0.478427 -0.436899
1884686000 -0.524081 -0.368976
1896684000 -0.561428 -0.299033
1908682000 -0.600201 -0.224833
1920680000 -0.626772 -0.139936
1932678000 -0.642186 -0.0518861
1944676000 -0.640688 0.0400274
1956674000 -0.623702 0.127029
1968672000 -0.595996 0.211657
1980670000 -0.552267 0.291332
1992668000 -0.498586 0.363552
2004666000 -0.428915 0.42646
2016664000 -0.348968 0.475458
2028662000 -0.262991 0.51348
2040660000 -0.168719 0.534996
2052658000 -0.0761019 0.53656
2064656000 0.0133293 0.53028
2076654000 0.105905 0.509845
2088652000 0.186381 0.469924
2100650000 0.256074 0.422656
2112648000 0.312625 0.366632
2124646000 0.355608 0.30591
2136644000 0.387577 0.241278
2148642000 0.410102 0.18203
2160640000 0.416758 0.116981
2172638000 0.410393 0.0612939
2184636000 0.401873 0.0171851
2196634000 0.390235 -0.0316709
2208632000 0.365147 -0.0812444
2220630000 0.333395 -0.11427
2232628000 0.301643 -0.152158
2244626000 0.255335 -0.175706
2256624000 0.214782 -0.185363
2268622000 0.176085 -0.19729
2280620000 0.136928 -0.194422
2292618000 0.0985993 -0.182824
2304616000 0.075478 -0.173163
2316614000 0.0474192 -0.152721
2328612000 0.02604 -0.136116
2340610000 0.011523 -0.102971
2352608000 0.0171938 -0.0809948
2364606000 0.00883435 -0.0582802
2376604000 0.0230329 -0.0245182
2388602000 0.0524981 -0.00655175
2400600000 0.067637 0.00126348
2412598000 0.0979075 0.0144437
2424596000 0.121761 0.0217791
2436594000 0.156959 0.0218774
2448592000 0.189545 0.0126688
2460590000 0.216354 0.00414635
2472588000 0.247181 -0.010997
2484586000 0.277724 -0.0312847
2496584000 0.299236 -0.0659325
2508582000 0.310573 -0.0941733
2520580000 0.318821 -0.126865
2532578000 0.322004 -0.160806
2544576000 0.323017 -0.193978
2556574000 0.31516 -0.228784
2568572000 0.302416 -0.264005
2580570000 0.290865 -0.303754
2592568000 0.271314 -0.341872
2604566000 0.236994 -0.383145
2616564000 0.206761 -0.406649
2628562000 0.17094 -0.438957
2640560000 0.132904 -0.460087
2652558000 0.0920998 -0.487087
2664556000 0.0479978 -0.499776
2676554000 0.00962327 -0.513324
2688552000 -0.0307533 -0.523405
2700550000 -0.0746293 -0.527398
2712548000 -0.120914 -0.52823
2724546000 -0.164671 -0.522779
2736544000 -0.206128 -0.51117
2748542000 -0.245366 -0.487137
2760540000 -0.277073 -0.469724
2772538000 -0.312547 -0.446299
2784536000 -0.340188 -0.418659
2796534000 -0.379312 -0.393313
2808532000 -0.409585 -0.353807
2820530000 -0.432854 -0.313263
2832528000 -0.457793 -0.277333
2844526000 -0.481312 -0.22682
2856524000 -0.499226 -0.175231
2868522000 -0.502895 -0.120388
2880520000 -0.509243 -0.0694322
2892518000 -0.508719 -0.0127515
2904516000 -0.497748 0.0388745
2916514000 -0.486148 0.0897674
2928512000 -0.470116 0.138565
2940510000 -0.448926 0.189047
2952508000 -0.417562 0.234391
2964506000 -0.385325 0.270736
2976504000 -0.352792 0.311427
2988502000 -0.305406 0.343654
3000500000 -0.26379 0.365603
3012498000 -0.218395 0.387912
3024496000 -0.164452 0.406972
3036494000 -0.113953 0.414871
3048492000 -0.0573577 0.418206
3060490000 -0.00523727 0.415818
3072488000 0.055325 0.412895
3084486000 0.116715 0.39386
3096484000 0.170992 0.367973
3108482000 0.223609 0.334843
3120480000 0.263884 0.296297
3132478000 0.306838 0.261599
3144476000 0.343973 0.213898
3156474000 0.369332 0.170806
3168472000 0.397187 0.122624
3180470000 0.414405 0.0734174
3192468000 0.42717 0.025143
3204466000 0.434224 -0.0222125
3216464000 0.438005 -0.0755311
3228462000 0.433688 -0.124718
3240460000 0.42556 -0.17322
3252458000 0.40647 -0.221997
3264456000 0.389308 -0.263205
3276454000 0.365471 -0.307955
3288452000 0.335571 -0.35131
3300450000 0.300881 -0.38858
3312448000 0.265226 -0.421045
3324446000 0.226094 -0.45326
3336444000 0.187153 -0.484706
3348442000 0.143919 -0.50862
3360440000 0.0953764 -0.530167
3372438000 0.0491105 -0.544017
3384436000 0.00358546 -0.55576
3396434000 -0.0419463 -0.559753
3408432000 -0.0882401 -0.565777
3420430000 -0.130158 -0.560886
3432428000 -0.171371 -0.558479
3444426000 -0.212549 -0.549966
3456424000 -0.250819 -0.536111
3468422000 -0.279134 -0.52745
3480420000 -0.327184 -0.503594
3492418000 -0.365057 -0.479546
3504416000 -0.395961 -0.45046
3516414000 -0.426937 -0.419086
3528412000 -0.453942 -0.385851
3540410000 -0.483031 -0.35394
3552408000 -0.507709 -0.313808
3564406000 -0.531399 -0.27165
3576404000 -0.54729 -0.226419
3588402000 -0.562736 -0.18589
3600400000 -0.577971 -0.13518
3612398000 -0.583916 -0.0876052
3624396000 -0.584089 -0.0381148
3636394000 -0.582045 0.00731575
3648392000 -0.579871 0.0528661
3660390000 -0.570956 0.0996029
3672388000 -0.557873 0.14563
3684386000 -0.536716 0.184857
3696384000 -0.516622 0.220499
3708382000 -0.491169 0.254055
3720380000 -0.465936 0.288867
3732378000 -0.433941 0.315738
3744376000 -0.400419 0.343082
3756374000 -0.363484 0.36611
3768372000 -0.322038 0.388625
3780370000 -0.277981 0.40395
3792368000 -0.229993 0.419779
3804366000 -0.178982 0.423739
3816364000 -0.131852 0.427993
3828362000 -0.078917 0.427898
3840360000 -0.0256659 0.419633
3852358000 0.0213065 0.408428
3864356000 0.0739578 0.396467
3876354000 0.122619 0.369525
3888352000 0.167921 0.342727
3900350000 0.208644 0.307903
3912348000 0.241524 0.267658
3924346000 0.265745 0.230402
3936344000 0.291303 0.186188
3948342000 0.30646 0.137613
3960340000 0.314252 0.0924469
3972338000 0.319069 0.0464357
3984336000 0.321357 0.00414601
3996334000 0.31204 -0.0486735
4008332000 0.299864 -0.0928769
4020330000 0.285035 -0.138095
4032328000 0.263267 -0.187575
4044326000 0.23223 -0.230725
4056324000 0.200188 -0.261245
4068322000 0.167967 -0.30259
4080320000 0.122444 -0.333123
4092318000 0.080887 -0.355345
4104316000 0.0385069 -0.372471
4116314000 -0.00150142 -0.384648
4128312000 -0.0452009 -0.397224
4140310000 -0.0830608 -0.40113
4152308000 -0.124363 -0.407002
4164306000 -0.161331 -0.401844
4176304000 -0.198666 -0.396364
4188302000 -0.234623 -0.385906
4200300000 -0.274328 -0.365142
4212298000 -0.309987 -0.33736
4224296000 -0.343027 -0.310099
4236294000 -0.378295 -0.282491
4248292000 -0.405792 -0.244447
4260290000 -0.427783 -0.204867
4272288000 -0.447522 -0.174042
4284286000 -0.462554 -0.133953
4296284000 -0.475001 -0.0979658
4308282000 -0.484377 -0.0608515
4320280000 -0.490991 -0.0236764
4332278000 -0.492776 0.0111714
4344276000 -0.494159 0.0437476
4356274000 -0.492763 0.078873
4368272000 -0.490168 0.112031
4380270000 -0.480957 0.142302
4392268000 -0.471623 0.167579
4404266000 -0.458643 0.192347
4416264000 -0.444785 0.213253
4428262000 -0.431939 0.236056
4440260000 -0.41475 0.251219
4452258000 -0.395667 0.270105
4464256000 -0.371587 0.282272
4476254000 -0.348446 0.292529
4488252000 -0.326596 0.301736
4500250000 -0.305502 0.310453
4512248000 -0.278803 0.322098
4524246000 -0.255814 0.328298
4536244000 -0.229524 0.333993
4548242000 -0.201849 0.338304
4560240000 -0.175491 0.344145
4572238000 -0.148691 0.346526
4584236000 -0.12503 0.346047
4596234000 -0.1004 0.348816
4608232000 -0.0767423 0.348875
4620230000 -0.051498 0.345693
4632228000 -0.0308491 0.343169
4644226000 -0.0128152 0.336516
4656224000 0.00939491 0.328186
4668222000 0.0265055 0.315139
4680220000 0.0379335 0.30258
4692218000 0.0516707 0.289651
4704216000 0.0652566 0.27191
4716214000 0.0711089 0.251557
4728212000 0.0704592 0.232493
4740210000 0.0777544 0.215973
4752208000 0.0840912 0.18853
4764206000 0.081143 0.159574
4776204000 0.075402 0.134693
4788202000 0.071598 0.111788
4800200000 0.0631628 0.0788985
4812198000 0.0494452 0.0542056
4824196000 0.0347794 0.0303033
4836194000 0.0191206 0.00441044
4848192000 -0.0037138 -0.0112765
4860190000 -0.0244498 -0.0244883
4872188000 -0.0463544 -0.034325
4884186000 -0.0654528 -0.0353164
4896184000 -0.0874411 -0.0344722
4908182000 -0.107014 -0.028305
4920180000 -0.121945 -0.0198515
4932178000 -0.138721 -0.00768873
4944176000 -0.156402 0.0119944
4956174000 -0.16749 0.0346042
4968172000 -0.181593 0.0591579
4980170000 -0.18567 0.0862132
4992168000 -0.187679 0.116798
5004166000 -0.187787 0.141531
5016164000 -0.186179 0.167675
5028162000 -0.179756 0.190644
5040160000 -0.172367 0.212414
5052158000 -0.165028 0.226948
5064156000 -0.157633 0.24299
5076154000 -0.144122 0.254594
5088152000 -0.1293 0.260635
5100150000 -0.120188 0.263646
5112148000 -0.110177 0.266758
5124146000 -0.0885353 0.26576
5136144000 -0.0730216 0.256806
5148142000 -0.0592801 0.247359
5160140000 -0.0413128 0.234492
5172138000 -0.02993 0.217454
5184136000 -0.0186296 0.198084
5196134000 -0.00827344 0.176921
5208132000 -0.00262282 0.153537
5220130000 0.000925564 0.131423
5232128000 0.00342417 0.114333
5244126000 -0.000119932 0.0970429
5256124000 -0.00676453 0.0831265
5268122000 -0.016665 0.0721518
5280120000 -0.0326839 0.0803427
5292118000 -0.0516874 0.0829835
5304116000 -0.0748954 0.0935076
5316114000 -0.0987536 0.108572
5328112000 -0.123248 0.127206
5340110000 -0.148037 0.148948
5352108000 -0.167779 0.174496
5364106000 -0.187308 0.198541
5376104000 -0.200315 0.231494
5388102000 -0.204573 0.262213
5400100000 -0.204939 0.291234
5412098000 -0.204447 0.318408
5424096000 -0.197476 0.347388
5436094000 -0.182785 0.376504
5448092000 -0.163087 0.395613
5460090000 -0.140999 0.411967
5472088000 -0.117613 0.424734
5484086000 -0.0907997 0.436533
5496084000 -0.0599576 0.444351
5508082000 -0.0248301 0.44783
5520080000 0.00863128 0.443333
5532078000 0.0415342 0.436894
5544076000 0.0766598 0.430446
5556074000 0.110067 0.418966
5568072000 0.143778 0.403572
5580070000 0.173333 0.386008
5592068000 0.202538 0.368499
5604066000 0.226473 0.346321
5616064000 0.248658 0.325198
5628062000 0.263055 0.301654
5640060000 0.276363 0.280263
5652058000 0.284888 0.256529
5664056000 0.28633 0.235316
5676054000 0.288193 0.212585
5688052000 0.280102 0.19334
5700050000 0.269208 0.1773
5712048000 0.256469 0.162542
5724046000 0.23879 0.148036
5736044000 0.218251 0.136349
5748042000 0.196817 0.127776
5760040000 0.174598 0.120078
5772038000 0.150604 0.116957
5784036000 0.130664 0.115867
5796034000 0.113247 0.117958
5808032000 0.096268 0.122372
5820030000 0.0859663 0.128649
5832028000 0.0783786 0.134975
5844026000 0.0759011 0.141742
5856024000 0.0768198 0.151623
5868022000 0.0831587 0.164794
5880020000 0.0952772 0.17625
5892018000 0.113525 0.185005
5904016000 0.13481 0.191734
5916014000 0.157966 0.197122
5928012000 0.183984 0.202292
5940010000 0.208821 0.205059
5952008000 0.23291 0.203934
5964006000 0.255509 0.20076
5976004000 0.283002 0.194427
5988002000 0.300586 0.18829
6000000000 0.32438 0.174505
