# Hz S RI R 50
1000000 1.00704 -0.0118569
12998000 0.977442 -0.113213
24996000 0.957621 -0.20749
36994000 0.932769 -0.299877
48992000 0.900417 -0.391735
60990000 0.857601 -0.479322
72988000 0.805021 -0.56414
84986000 0.741812 -0.643985
96984000 0.669287 -0.717248
108982000 0.587148 -0.783823
120980000 0.492238 -0.841752
132978000 0.403015 -0.858245
144976000 0.272749 -0.916009
156974000 0.29202 -0.89558
168972000 0.160374 -0.956533
180970000 0.0485389 -0.96798
192968000 -0.05549 -0.959357
204966000 -0.148314 -0.948569
216964000 -0.246961 -0.927298
228962000 -0.341489 -0.893519
240960000 -0.426739 -0.849324
252958000 -0.506576 -0.800038
264956000 -0.583574 -0.745126
276954000 -0.655305 -0.681122
288952000 -0.720586 -0.610798
300950000 -0.779018 -0.529552
312948000 -0.82951 -0.443582
324946000 -0.870459 -0.345993
336944000 -0.897672 -0.239959
348942000 -0.905598 -0.13328
360940000 -0.897193 -0.0281582
372938000 -0.86013 0.0660158
384936000 -0.821268 0.122964
396934000 -0.814833 0.185855
408932000 -0.78877 0.248858
420930000 -0.772378 0.31708
432928000 -0.740917 0.380958
444926000 -0.714867 0.436722
456924000 -0.684344 0.506838
468922000 -0.643696 0.574651
480920000 -0.592419 0.644229
492918000 -0.529351 0.706784
504916000 -0.459477 0.760046
516914000 -0.383208 0.809887
528912000 -0.294975 0.849413
540910000 -0.203928 0.871747
552908000 -0.114166 0.886955
564906000 -0.0189782 0.890891
576904000 0.0751198 0.878951
588902000 0.166316 0.854371
600900000 0.244724 0.809537
612898000 0.304312 0.773579
624896000 0.368704 0.745017
636894000 0.438175 0.703881
648892000 0.503767 0.650821
660890000 0.559511 0.58431
672888000 0.597637 0.513988
684886000 0.613685 0.439632
696884000 0.610827 0.390614
708882000 0.625775 0.366112
720880000 0.655118 0.337807
732878000 0.688164 0.304018
744876000 0.726209 0.259908
756874000 0.765892 0.20224
768872000 0.795417 0.132319
780870000 0.815152 0.0577806
792868000 0.825817 -0.0208532
804866000 0.826904 -0.102991
816864000 0.816455 -0.1868
828862000 0.794213 -0.26871
840860000 0.758536 -0.345353
852858000 0.721397 -0.42034
864856000 0.668536 -0.489005
876854000 0.612976 -0.551712
888852000 0.549994 -0.606175
900850000 0.482355 -0.652365
912848000 0.419651 -0.692443
924846000 0.34926 -0.729752
936844000 0.276194 -0.763044
948842000 0.200964 -0.791069
960840000 0.1195 -0.816714
972838000 0.0246429 -0.829594
984836000 -0.0703385 -0.825788
996834000 -0.163031 -0.80835
1008832000 -0.246899 -0.778048
1020830000 -0.324365 -0.746211
1032828000 -0.396823 -0.705811
1044826000 -0.469006 -0.6646
1056824000 -0.541596 -0.610415
1068822000 -0.606963 -0.548014
1080820000 -0.665769 -0.477474
1092818000 -0.718948 -0.396362
1104816000 -0.759728 -0.30691
1116814000 -0.789873 -0.212979
1128812000 -0.806422 -0.11331
1140810000 -0.80598 -0.015608
1152808000 -0.798952 0.0817697
1164806000 -0.776871 0.175868
1176804000 -0.746907 0.264101
1188802000 -0.709838 0.349645
1200800000 -0.662359 0.430359
1212798000 -0.603656 0.504894
1224796000 -0.534538 0.568098
1236794000 -0.454448 0.620624
1248792000 -0.371752 0.652363
1260790000 -0.291911 0.673757
1272788000 -0.211978 0.683963
1284786000 -0.137035 0.6826
1296784000 -0.0597551 0.670225
1308782000 0.00614249 0.646985
1320780000 0.0639759 0.615128
1332778000 0.111768 0.578319
1344776000 0.14513 0.5419
1356774000 0.161562 0.516912
1368772000 0.191129 0.502837
1380770000 0.222237 0.490188
1392768000 0.254311 0.4864
1404766000 0.301899 0.477013
1416764000 0.356884 0.457399
1428762000 0.41029 0.420626
1440760000 0.451152 0.379199
1452758000 0.487209 0.329046
1464756000 0.508348 0.282566
1476754000 0.530481 0.230065
1488752000 0.53703 0.179005
1500750000 0.533813 0.130498
1512748000 0.519186 0.0872996
1524746000 0.493268 0.0651615
1536744000 0.479804 0.0597078
1548742000 0.488845 0.0541551
1560740000 0.497306 0.037866
1572738000 0.507577 0.0282079
1584736000 0.529598 0.00604491
1596734000 0.550959 -0.0236442
1608732000 0.570911 -0.0633781
1620730000 0.586484 -0.112215
1632728000 0.600453 -0.169187
1644726000 0.60588 -0.23761
1656724000 0.592416 -0.314553
1668722000 0.564489 -0.384462
1680720000 0.52942 -0.448018
1692718000 0.481927 -0.507295
1704716000 0.42872 -0.555476
1716714000 0.373629 -0.595043
1728712000 0.317376 -0.629333
1740710000 0.258884 -0.658572
1752708000 0.19489 -0.680626
1764706000 0.127841 -0.698194
1776704000 0.0536102 -0.703254
1788702000 -0.0179566 -0.69773
1800700000 -0.0868826 -0.68272
1812698000 -0.153054 -0.658708
1824696000 -0.216825 -0.631493
1836694000 -0.280972 -0.596436
1848692000 -0.344755 -0.553444
1860690000 -0.403834 -0.499699
1872688000 -0.455776 -0.446859
1884686000 -0.507458 -0.383796
1896684000 -0.549368 -0.317921
1908682000 -0.588677 -0.245071
1920680000 -0.61688 -0.164408
1932678000 -0.630987 -0.0819133
1944676000 -0.636991 -0.000124896
1956674000 -0.630419 0.0795602
1968672000 -0.617466 0.16062
1980670000 -0.589623 0.242297
1992668000 -0.549287 0.321061
2004666000 -0.48864 0.392336
2016664000 -0.416682 0.449355
2028662000 -0.340136 0.492278
2040660000 -0.262128 0.532079
2052658000 -0.169306 0.558223
2064656000 -0.0736918 0.566961
2076654000 0.0195454 0.558857
2088652000 0.106199 0.539837
2100650000 0.189565 0.509409
2112648000 0.267474 0.467165
2124646000 0.332328 0.411593
2136644000 0.383969 0.346418
2148642000 0.420662 0.277007
2160640000 0.442192 0.215717
2172638000 0.452475 0.147722
2184636000 0.452453 0.089427
2196634000 0.446745 0.0330365
2208632000 0.430037 -0.0267656
2220630000 0.397736 -0.0808575
2232628000 0.35898 -0.116843
2244626000 0.328167 -0.149441
2256624000 0.2827 -0.177667
2268622000 0.239037 -0.194198
2280620000 0.201924 -0.200923
2292618000 0.159488 -0.205621
2304616000 0.122621 -0.197368
2316614000 0.0963283 -0.191197
2328612000 0.0633633 -0.179934
2340610000 0.0359319 -0.155422
2352608000 0.0217865 -0.131598
2364606000 0.00999311 -0.0987878
2376604000 0.0165192 -0.0670356
2388602000 0.0367359 -0.0367648
2400600000 0.0566459 -0.0294548
2412598000 0.0729017 -0.0198742
2424596000 0.0898175 -0.0137589
2436594000 0.114155 0.00614534
2448592000 0.145869 -0.000847478
2460590000 0.16756 0.000188876
2472588000 0.19958 -0.00415448
2484586000 0.229426 -0.013965
2496584000 0.260557 -0.0461362
2508582000 0.268793 -0.06522
2520580000 0.280277 -0.0912932
2532578000 0.2935 -0.1193
2544576000 0.295078 -0.156765
2556574000 0.287804 -0.180837
2568572000 0.287806 -0.209524
2580570000 0.278959 -0.249302
2592568000 0.263185 -0.281456
2604566000 0.250353 -0.324653
2616564000 0.210442 -0.356177
2628562000 0.186697 -0.380263
2640560000 0.155511 -0.413256
2652558000 0.115863 -0.437033
2664556000 0.0755117 -0.451481
2676554000 0.0442813 -0.470496
2688552000 0.00197231 -0.482721
2700550000 -0.0372326 -0.492196
2712548000 -0.0776736 -0.493388
2724546000 -0.116226 -0.498215
2736544000 -0.162466 -0.489834
2748542000 -0.202098 -0.474485
2760540000 -0.236743 -0.462325
2772538000 -0.280468 -0.438965
2784536000 -0.311739 -0.408985
2796534000 -0.344078 -0.374626
2808532000 -0.369417 -0.341662
2820530000 -0.394971 -0.303618
2832528000 -0.409758 -0.265266
2844526000 -0.432971 -0.233592
2856524000 -0.455983 -0.180216
2868522000 -0.464934 -0.132139
2880520000 -0.471699 -0.0810013
2892518000 -0.477106 -0.0285266
2904516000 -0.470321 0.0254617
2916514000 -0.460265 0.0725373
2928512000 -0.445067 0.12485
2940510000 -0.422887 0.17042
2952508000 -0.397397 0.211621
2964506000 -0.374626 0.250702
2976504000 -0.338022 0.295228
2988502000 -0.296721 0.325039
3000500000 -0.256693 0.358282
3012498000 -0.204149 0.375655
3024496000 -0.152975 0.392857
3036494000 -0.0995691 0.402474
3048492000 -0.041069 0.403183
3060490000 0.00497476 0.392199
3072488000 0.0587617 0.385832
3084486000 0.106245 0.372374
3096484000 0.161689 0.357556
3108482000 0.214006 0.327166
3120480000 0.258326 0.29641
3132478000 0.30449 0.256587
3144476000 0.342127 0.216449
3156474000 0.367953 0.169495
3168472000 0.401128 0.125324
3180470000 0.416025 0.0707475
3192468000 0.429538 0.0297146
3204466000 0.436537 -0.024555
3216464000 0.441454 -0.0721902
3228462000 0.436201 -0.119454
3240460000 0.434369 -0.167648
3252458000 0.413817 -0.221284
3264456000 0.393098 -0.266548
3276454000 0.366414 -0.304282
3288452000 0.338072 -0.345624
3300450000 0.304062 -0.378933
3312448000 0.274546 -0.410417
3324446000 0.240108 -0.443498
3336444000 0.202057 -0.474645
3348442000 0.156891 -0.502636
3360440000 0.111577 -0.525928
3372438000 0.0653292 -0.542001
3384436000 0.0186401 -0.553358
3396434000 -0.0264696 -0.559601
3408432000 -0.0688137 -0.562942
3420430000 -0.11183 -0.565177
3432428000 -0.154261 -0.559681
3444426000 -0.194694 -0.554415
3456424000 -0.238058 -0.543276
3468422000 -0.261243 -0.52785
3480420000 -0.309408 -0.507162
3492418000 -0.344558 -0.487018
3504416000 -0.376351 -0.458643
3516414000 -0.406129 -0.433371
3528412000 -0.439583 -0.401463
3540410000 -0.46568 -0.364595
3552408000 -0.490018 -0.325679
3564406000 -0.512759 -0.287062
3576404000 -0.534523 -0.246367
3588402000 -0.548629 -0.202946
3600400000 -0.565212 -0.157475
3612398000 -0.574004 -0.109377
3624396000 -0.578753 -0.0635128
3636394000 -0.584033 -0.0149998
3648392000 -0.580336 0.0316134
3660390000 -0.57121 0.0802043
3672388000 -0.559092 0.129022
3684386000 -0.53686 0.164736
3696384000 -0.52079 0.201381
3708382000 -0.500202 0.235689
3720380000 -0.473759 0.271557
3732378000 -0.442343 0.302535
3744376000 -0.411373 0.328945
3756374000 -0.37016 0.355049
3768372000 -0.333696 0.373238
3780370000 -0.290564 0.394027
3792368000 -0.244481 0.407868
3804366000 -0.194988 0.417338
3816364000 -0.140499 0.420437
3828362000 -0.0943849 0.421098
3840360000 -0.0386125 0.415215
3852358000 0.00867344 0.401473
3864356000 0.0546681 0.385046
3876354000 0.10103 0.367137
3888352000 0.144031 0.34447
3900350000 0.180704 0.316456
3912348000 0.220739 0.286094
3924346000 0.255718 0.245339
3936344000 0.276517 0.200536
3948342000 0.294718 0.159748
3960340000 0.310524 0.109731
3972338000 0.317072 0.0631382
3984336000 0.315143 0.0151079
3996334000 0.309963 -0.0317968
4008332000 0.296956 -0.0752906
4020330000 0.285755 -0.122766
4032328000 0.263317 -0.168694
4044326000 0.237806 -0.208213
4056324000 0.205796 -0.253575
4068322000 0.169559 -0.283712
4080320000 0.132297 -0.312476
4092318000 0.0897554 -0.339469
4104316000 0.0513142 -0.356708
4116314000 0.00910804 -0.368872
4128312000 -0.0296313 -0.384308
4140310000 -0.0681239 -0.389924
4152308000 -0.110487 -0.394767
4164306000 -0.141003 -0.391594
4176304000 -0.179816 -0.393634
4188302000 -0.222895 -0.378165
4200300000 -0.257861 -0.360594
4212298000 -0.293371 -0.337393
4224296000 -0.333423 -0.308318
4236294000 -0.364893 -0.273513
4248292000 -0.385474 -0.241505
4260290000 -0.415427 -0.20726
4272288000 -0.428791 -0.17178
4284286000 -0.448428 -0.13705
4296284000 -0.465129 -0.101527
4308282000 -0.476085 -0.0621646
4320280000 -0.480737 -0.0217104
4332278000 -0.486849 0.0121187
4344276000 -0.48403 0.0506683
4356274000 -0.480054 0.0840865
4368272000 -0.476757 0.115411
4380270000 -0.467245 0.143696
4392268000 -0.453803 0.171219
4404266000 -0.44301 0.194068
4416264000 -0.427887 0.21957
4428262000 -0.409504 0.235236
4440260000 -0.396845 0.251885
4452258000 -0.37379 0.268223
4464256000 -0.352016 0.27626
4476254000 -0.332816 0.290825
4488252000 -0.310684 0.301144
4500250000 -0.282624 0.310913
4512248000 -0.256832 0.317357
4524246000 -0.229038 0.325148
4536244000 -0.200784 0.324122
4548242000 -0.182207 0.326872
4560240000 -0.153497 0.334594
4572238000 -0.123566 0.333843
4584236000 -0.101413 0.327763
4596234000 -0.0831391 0.331522
4608232000 -0.0570657 0.332057
4620230000 -0.0360156 0.323803
4632228000 -0.0186199 0.321158
4644226000 -3.97341e-05 0.316789
4656224000 0.013684 0.309719
4668222000 0.0319032 0.303617
4680220000 0.0474327 0.290219
4692218000 0.0604191 0.277019
4704216000 0.0686764 0.258327
4716214000 0.0758537 0.244369
4728212000 0.0819974 0.224471
4740210000 0.0877088 0.203759
4752208000 0.0905458 0.179416
4764206000 0.0907101 0.154974
4776204000 0.0921449 0.130723
4788202000 0.0865026 0.100894
4800200000 0.0797496 0.0711984
4812198000 0.0694707 0.0458462
4824196000 0.0597261 0.0193388
4836194000 0.0433031 -0.00504747
4848192000 0.0288569 -0.0290388
4860190000 0.00725905 -0.0486776
4872188000 -0.01623 -0.060239
4884186000 -0.0363945 -0.0684871
4896184000 -0.0609987 -0.0726233
4908182000 -0.0848235 -0.0727486
4920180000 -0.107781 -0.064614
4932178000 -0.128833 -0.0534941
4944176000 -0.14841 -0.0372718
4956174000 -0.165627 -0.0180537
4968172000 -0.185783 0.00526887
4980170000 -0.198608 0.0342036
4992168000 -0.208576 0.0641375
5004166000 -0.213291 0.0972282
5016164000 -0.217055 0.124042
5028162000 -0.220006 0.154114
5040160000 -0.217847 0.184694
5052158000 -0.207654 0.206942
5064156000 -0.201744 0.227651
5076154000 -0.190275 0.250823
5088152000 -0.172071 0.26184
5100150000 -0.161076 0.272066
5112148000 -0.141912 0.2814
5124146000 -0.123715 0.282571
5136144000 -0.103523 0.280172
5148142000 -0.0830206 0.276947
5160140000 -0.0630536 0.270724
5172138000 -0.0427928 0.257924
5184136000 -0.0214437 0.246728
5196134000 0.00135746 0.227048
5208132000 0.0202647 0.202377
5220130000 0.0335613 0.180409
5232128000 0.0503572 0.157045
5244126000 0.0548237 0.128675
5256124000 0.0563323 0.110871
5268122000 0.0561704 0.0855239
5280120000 0.0417564 0.0785982
5292118000 0.0208458 0.0762976
5304116000 0.00646308 0.0773108
5316114000 -0.0189121 0.0763742
5328112000 -0.0491003 0.0852349
5340110000 -0.0744798 0.0971434
5352108000 -0.0962957 0.112591
5364106000 -0.122854 0.123772
5376104000 -0.14398 0.147906
5388102000 -0.158392 0.167355
5400100000 -0.174253 0.191166
5412098000 -0.182848 0.219771
5424096000 -0.187261 0.243706
5436094000 -0.187671 0.270486
5448092000 -0.179796 0.295604
5460090000 -0.16709 0.315013
5472088000 -0.153666 0.336278
5484086000 -0.133608 0.350587
5496084000 -0.110632 0.367841
5508082000 -0.0806461 0.378125
5520080000 -0.0506911 0.385135
5532078000 -0.0183503 0.384537
5544076000 0.0158855 0.385118
5556074000 0.0483789 0.379311
5568072000 0.0820157 0.371377
5580070000 0.112811 0.361732
5592068000 0.143185 0.349306
5604066000 0.171146 0.334522
5616064000 0.197032 0.317844
5628062000 0.217573 0.298342
5640060000 0.23184 0.279728
5652058000 0.249212 0.260621
5664056000 0.259073 0.239209
5676054000 0.263442 0.213052
5688052000 0.261765 0.193188
5700050000 0.254802 0.173904
5712048000 0.248719 0.154394
5724046000 0.232877 0.134771
5736044000 0.214567 0.11691
5748042000 0.192172 0.0991122
5760040000 0.168683 0.086075
5772038000 0.142697 0.0753992
5784036000 0.116106 0.0683561
5796034000 0.0897524 0.0657987
5808032000 0.0666214 0.0681801
5820030000 0.0484948 0.0726921
5832028000 0.0317925 0.0782656
5844026000 0.0169009 0.0895115
5856024000 0.0152766 0.102147
5868022000 0.0108961 0.114392
5880020000 0.0121192 0.13344
5892018000 0.020572 0.152959
5904016000 0.0356376 0.171378
5916014000 0.0536449 0.190325
5928012000 0.0786847 0.209149
5940010000 0.106968 0.225375
5952008000 0.134499 0.234741
5964006000 0.1609 0.243177
5976004000 0.192853 0.247541
5988002000 0.221815 0.246101
6000000000 0.247757 0.23989
