# Hz S RI R 50
1000000 1.0054 -0.00964014
12998000 0.977857 -0.113086
24996000 0.957929 -0.207886
36994000 0.934333 -0.29876
48992000 0.900857 -0.392123
60990000 0.857677 -0.480379
72988000 0.803858 -0.565752
84986000 0.74048 -0.645465
96984000 0.666817 -0.719095
108982000 0.581844 -0.784123
120980000 0.491928 -0.836772
132978000 0.384269 -0.878037
144976000 0.297644 -0.884625
156974000 0.287254 -0.888028
168972000 0.158219 -0.956956
180970000 0.0465801 -0.9641
192968000 -0.0543668 -0.958986
204966000 -0.14921 -0.943328
216964000 -0.23957 -0.925306
228962000 -0.331479 -0.899631
240960000 -0.425389 -0.863027
252958000 -0.514164 -0.812604
264956000 -0.596305 -0.753654
276954000 -0.671659 -0.683481
288952000 -0.738346 -0.602997
300950000 -0.790697 -0.516021
312948000 -0.839498 -0.429072
324946000 -0.878876 -0.323934
336944000 -0.899167 -0.212179
348942000 -0.89273 -0.0979455
360940000 -0.863522 -0.00226859
372938000 -0.826659 0.0759609
384936000 -0.77473 0.136607
396934000 -0.749807 0.157532
408932000 -0.767788 0.190742
420930000 -0.789893 0.248493
432928000 -0.784614 0.345063
444926000 -0.758648 0.432108
456924000 -0.716173 0.516039
468922000 -0.665058 0.592365
480920000 -0.606523 0.663132
492918000 -0.535001 0.730381
504916000 -0.4524 0.78462
516914000 -0.364466 0.82658
528912000 -0.276019 0.855672
540910000 -0.182371 0.87614
552908000 -0.0869628 0.881796
564906000 0.00646673 0.870542
576904000 0.0923321 0.850895
588902000 0.171286 0.821419
600900000 0.246908 0.784218
612898000 0.311132 0.732577
624896000 0.349543 0.67766
636894000 0.380893 0.640769
648892000 0.399457 0.623185
660890000 0.449445 0.620593
672888000 0.509209 0.601948
684886000 0.576149 0.566866
696884000 0.643645 0.519755
708882000 0.699727 0.45765
720880000 0.746114 0.38724
732878000 0.782161 0.310943
744876000 0.806136 0.231779
756874000 0.827432 0.155173
768872000 0.831693 0.0721591
780870000 0.830331 -0.00674276
792868000 0.819593 -0.083146
804866000 0.80034 -0.152263
816864000 0.781163 -0.222786
828862000 0.750489 -0.291516
840860000 0.715939 -0.35409
852858000 0.675992 -0.408457
864856000 0.640291 -0.465415
876854000 0.597462 -0.521186
888852000 0.554829 -0.579566
900850000 0.498226 -0.638554
912848000 0.431195 -0.693825
924846000 0.350953 -0.737965
936844000 0.269497 -0.769324
948842000 0.184308 -0.787643
960840000 0.103425 -0.802327
972838000 0.0238036 -0.804232
984836000 -0.0572957 -0.810786
996834000 -0.146932 -0.802261
1008832000 -0.235124 -0.778742
1020830000 -0.313915 -0.748711
1032828000 -0.390172 -0.716398
1044826000 -0.470273 -0.670103
1056824000 -0.54173 -0.614173
1068822000 -0.609354 -0.552011
1080820000 -0.669931 -0.475745
1092818000 -0.718861 -0.392837
1104816000 -0.757805 -0.305711
1116814000 -0.787901 -0.210909
1128812000 -0.805533 -0.111271
1140810000 -0.806167 -0.0115378
1152808000 -0.795098 0.0874541
1164806000 -0.771641 0.184079
1176804000 -0.732958 0.272782
1188802000 -0.690784 0.351821
1200800000 -0.640832 0.425816
1212798000 -0.582213 0.489773
1224796000 -0.519756 0.54557
1236794000 -0.446014 0.59459
1248792000 -0.372763 0.625681
1260790000 -0.30052 0.64535
1272788000 -0.226818 0.660098
1284786000 -0.161189 0.658313
1296784000 -0.0954604 0.657436
1308782000 -0.0337551 0.648163
1320780000 0.0231696 0.628696
1332778000 0.0781875 0.610467
1344776000 0.127592 0.590178
1356774000 0.178868 0.562981
1368772000 0.226422 0.534497
1380770000 0.267656 0.495049
1392768000 0.299562 0.457957
1404766000 0.321289 0.426109
1416764000 0.346193 0.399841
1428762000 0.361547 0.378669
1440760000 0.388858 0.363596
1452758000 0.42318 0.350677
1464756000 0.467605 0.319862
1476754000 0.487115 0.278245
1488752000 0.5116 0.249404
1500750000 0.531662 0.214244
1512748000 0.549359 0.179999
1524746000 0.566366 0.142826
1536744000 0.579709 0.102299
1548742000 0.591177 0.0641563
1560740000 0.59948 0.0198626
1572738000 0.603085 -0.0289732
1584736000 0.600258 -0.0777359
1596734000 0.595325 -0.127044
1608732000 0.576634 -0.183247
1620730000 0.551996 -0.224138
1632728000 0.526806 -0.264792
1644726000 0.503476 -0.298553
1656724000 0.484643 -0.336815
1668722000 0.460978 -0.371314
1680720000 0.442823 -0.403836
1692718000 0.421512 -0.445616
1704716000 0.391854 -0.48524
1716714000 0.359791 -0.523762
1728712000 0.323485 -0.561644
1740710000 0.281043 -0.597559
1752708000 0.229888 -0.632037
1764706000 0.175303 -0.657383
1776704000 0.112849 -0.681779
1788702000 0.044948 -0.695466
1800700000 -0.0291665 -0.703457
1812698000 -0.10571 -0.696848
1824696000 -0.187289 -0.67811
1836694000 -0.270243 -0.646082
1848692000 -0.347194 -0.598529
1860690000 -0.420804 -0.541565
1872688000 -0.481533 -0.474625
1884686000 -0.535836 -0.401078
1896684000 -0.577806 -0.323535
1908682000 -0.613736 -0.242288
1920680000 -0.634356 -0.158142
1932678000 -0.646593 -0.0770711
1944676000 -0.650629 0.00758709
1956674000 -0.642483 0.0907856
1968672000 -0.623564 0.172583
1980670000 -0.594772 0.253186
1992668000 -0.550631 0.326922
2004666000 -0.497727 0.396203
2016664000 -0.434201 0.460313
2028662000 -0.354786 0.516704
2040660000 -0.26305 0.559367
2052658000 -0.166051 0.585957
2064656000 -0.0640015 0.598999
2076654000 0.0403017 0.594524
2088652000 0.145231 0.569701
2100650000 0.242869 0.524607
2112648000 0.323913 0.46072
2124646000 0.386994 0.387632
2136644000 0.43013 0.309365
2148642000 0.453397 0.231345
2160640000 0.463078 0.156749
2172638000 0.459045 0.0882193
2184636000 0.442873 0.0233681
2196634000 0.414349 -0.0310798
2208632000 0.380707 -0.0733925
2220630000 0.343572 -0.107063
2232628000 0.307457 -0.134769
2244626000 0.273413 -0.153367
2256624000 0.231544 -0.174478
2268622000 0.193293 -0.177061
2280620000 0.159279 -0.181581
2292618000 0.11826 -0.177909
2304616000 0.0869017 -0.164482
2316614000 0.0615402 -0.143653
2328612000 0.0390451 -0.121484
2340610000 0.033345 -0.0993678
2352608000 0.0200971 -0.0738981
2364606000 0.0300616 -0.0448737
2376604000 0.0324558 -0.0167924
2388602000 0.0633947 0.00563763
2400600000 0.0912951 0.0170377
2412598000 0.116278 0.0185849
2424596000 0.147399 0.0250718
2436594000 0.18188 0.0153329
2448592000 0.213588 0.00657342
2460590000 0.240677 -0.0139569
2472588000 0.260426 -0.0312473
2484586000 0.279638 -0.0585307
2496584000 0.297886 -0.0756927
2508582000 0.31035 -0.109003
2520580000 0.315487 -0.147137
2532578000 0.307605 -0.178276
2544576000 0.305191 -0.211076
2556574000 0.293111 -0.243823
2568572000 0.275653 -0.273906
2580570000 0.250246 -0.309784
2592568000 0.226183 -0.33165
2604566000 0.203733 -0.365745
2616564000 0.163409 -0.386173
2628562000 0.131615 -0.399434
2640560000 0.105087 -0.422033
2652558000 0.0696643 -0.436719
2664556000 0.0295978 -0.447513
2676554000 -0.00688865 -0.461732
2688552000 -0.0419881 -0.460606
2700550000 -0.074276 -0.462474
2712548000 -0.109465 -0.465243
2724546000 -0.144707 -0.459935
2736544000 -0.178552 -0.451239
2748542000 -0.213908 -0.438117
2760540000 -0.240625 -0.421405
2772538000 -0.272107 -0.406011
2784536000 -0.304304 -0.382543
2796534000 -0.333339 -0.351863
2808532000 -0.360332 -0.317769
2820530000 -0.383015 -0.289535
2832528000 -0.404039 -0.248205
2844526000 -0.425628 -0.206002
2856524000 -0.433779 -0.159587
2868522000 -0.443406 -0.11927
2880520000 -0.452177 -0.0660579
2892518000 -0.44744 -0.0220382
2904516000 -0.450188 0.0268343
2916514000 -0.434895 0.0734915
2928512000 -0.422944 0.117205
2940510000 -0.408964 0.165305
2952508000 -0.380723 0.209445
2964506000 -0.351909 0.249289
2976504000 -0.320953 0.283941
2988502000 -0.277927 0.319413
3000500000 -0.237715 0.341376
3012498000 -0.190833 0.361235
3024496000 -0.141464 0.377661
3036494000 -0.09228 0.383835
3048492000 -0.0351665 0.388297
3060490000 0.014198 0.378235
3072488000 0.0649143 0.372222
3084486000 0.118492 0.3545
3096484000 0.165938 0.334259
3108482000 0.218745 0.301987
3120480000 0.250799 0.271226
3132478000 0.293294 0.237755
3144476000 0.33207 0.202115
3156474000 0.361285 0.160561
3168472000 0.390436 0.11455
3180470000 0.415684 0.0683609
3192468000 0.4261 0.0138164
3204466000 0.434737 -0.0336275
3216464000 0.441302 -0.0896691
3228462000 0.43178 -0.147733
3240460000 0.414465 -0.194148
3252458000 0.397164 -0.244562
3264456000 0.366374 -0.286695
3276454000 0.338472 -0.326164
3288452000 0.30027 -0.364102
3300450000 0.262081 -0.389913
3312448000 0.225483 -0.41587
3324446000 0.188432 -0.439305
3336444000 0.146712 -0.457434
3348442000 0.107033 -0.472326
3360440000 0.07094 -0.481361
3372438000 0.0342288 -0.499239
3384436000 -0.0105202 -0.506131
3396434000 -0.0488758 -0.502436
3408432000 -0.0834922 -0.500154
3420430000 -0.110485 -0.500281
3432428000 -0.143809 -0.493733
3444426000 -0.169497 -0.48884
3456424000 -0.195056 -0.483068
3468422000 -0.218813 -0.485046
3480420000 -0.258591 -0.46473
3492418000 -0.285739 -0.452657
3504416000 -0.313024 -0.438876
3516414000 -0.343671 -0.418943
3528412000 -0.371279 -0.399687
3540410000 -0.397293 -0.373199
3552408000 -0.42182 -0.349219
3564406000 -0.451991 -0.320447
3576404000 -0.475831 -0.289472
3588402000 -0.505254 -0.254747
3600400000 -0.525372 -0.21295
3612398000 -0.54344 -0.171843
3624396000 -0.558109 -0.128892
3636394000 -0.568746 -0.0817928
3648392000 -0.577809 -0.0441755
3660390000 -0.584739 0.00737938
3672388000 -0.58242 0.0575223
3684386000 -0.5751 0.0995651
3696384000 -0.563981 0.144185
3708382000 -0.549238 0.184217
3720380000 -0.53287 0.225882
3732378000 -0.511836 0.265316
3744376000 -0.484524 0.306351
3756374000 -0.451224 0.342795
3768372000 -0.410261 0.379645
3780370000 -0.363742 0.40865
3792368000 -0.315415 0.436891
3804366000 -0.257174 0.45543
3816364000 -0.199278 0.470096
3828362000 -0.136566 0.477856
3840360000 -0.0760453 0.474297
3852358000 -0.0192305 0.47168
3864356000 0.0435429 0.460081
3876354000 0.10524 0.437769
3888352000 0.154164 0.40653
3900350000 0.206291 0.378103
3912348000 0.25105 0.337211
3924346000 0.288715 0.297928
3936344000 0.319327 0.245986
3948342000 0.347835 0.199383
3960340000 0.367843 0.14223
3972338000 0.377916 0.0827606
3984336000 0.379155 0.025641
3996334000 0.374835 -0.0324839
4008332000 0.362326 -0.0912568
4020330000 0.344312 -0.147011
4032328000 0.314551 -0.206641
4044326000 0.27595 -0.253759
4056324000 0.238644 -0.293882
4068322000 0.195868 -0.328619
4080320000 0.154269 -0.364146
4092318000 0.104471 -0.396398
4104316000 0.0477687 -0.411483
4116314000 0.000800088 -0.424257
4128312000 -0.04648 -0.430606
4140310000 -0.0937837 -0.434572
4152308000 -0.14126 -0.434327
4164306000 -0.181996 -0.417205
4176304000 -0.216105 -0.407578
4188302000 -0.251419 -0.387534
4200300000 -0.287074 -0.369436
4212298000 -0.32609 -0.341868
4224296000 -0.359655 -0.310253
4236294000 -0.391358 -0.2719
4248292000 -0.415126 -0.237484
4260290000 -0.440906 -0.197709
4272288000 -0.456801 -0.159378
4284286000 -0.467659 -0.117861
4296284000 -0.482686 -0.0835027
4308282000 -0.48599 -0.0404668
4320280000 -0.491211 -0.00291225
4332278000 -0.487717 0.028849
4344276000 -0.491912 0.0637505
4356274000 -0.488617 0.10303
4368272000 -0.479769 0.135822
4380270000 -0.469027 0.164956
4392268000 -0.452534 0.193137
4404266000 -0.435727 0.214865
4416264000 -0.41658 0.236064
4428262000 -0.398516 0.255001
4440260000 -0.374292 0.269483
4452258000 -0.354637 0.273816
4464256000 -0.33633 0.283088
4476254000 -0.314432 0.294117
4488252000 -0.292379 0.30382
4500250000 -0.259437 0.310308
4512248000 -0.234704 0.311635
4524246000 -0.212166 0.309995
4536244000 -0.190303 0.312115
4548242000 -0.167654 0.314569
4560240000 -0.147198 0.314927
4572238000 -0.126428 0.316834
4584236000 -0.104488 0.321142
4596234000 -0.083974 0.321127
4608232000 -0.0606219 0.325372
4620230000 -0.0371698 0.321571
4632228000 -0.0155522 0.319413
4644226000 0.00224747 0.31054
4656224000 0.0182082 0.301547
4668222000 0.0316163 0.294806
4680220000 0.0445677 0.283726
4692218000 0.0571573 0.272113
4704216000 0.0704975 0.255371
4716214000 0.0763568 0.237002
4728212000 0.0851433 0.21507
4740210000 0.0830167 0.193538
4752208000 0.0893128 0.170319
4764206000 0.0877766 0.142759
4776204000 0.0834162 0.116632
4788202000 0.0742309 0.0874403
4800200000 0.059195 0.0647952
4812198000 0.0485763 0.0460232
4824196000 0.0381175 0.0309218
4836194000 0.03514 0.00969128
4848192000 0.0225638 -0.015869
4860190000 0.00930211 -0.0377233
4872188000 -0.0127629 -0.0550429
4884186000 -0.0348344 -0.0669723
4896184000 -0.0594048 -0.0723076
4908182000 -0.0875629 -0.0759496
4920180000 -0.117209 -0.0636314
4932178000 -0.136223 -0.0480757
4944176000 -0.15744 -0.0268323
4956174000 -0.171494 -0.000207818
4968172000 -0.179869 0.0217666
4980170000 -0.191217 0.045577
4992168000 -0.201301 0.0744904
5004166000 -0.203235 0.10344
5016164000 -0.204636 0.131977
5028162000 -0.205061 0.157914
5040160000 -0.201477 0.181994
5052158000 -0.197088 0.204404
5064156000 -0.189389 0.222179
5076154000 -0.180121 0.242276
5088152000 -0.16625 0.252652
5100150000 -0.152392 0.257854
5112148000 -0.143181 0.264779
5124146000 -0.12511 0.273097
5136144000 -0.106062 0.268341
5148142000 -0.0871882 0.267631
5160140000 -0.0666111 0.258321
5172138000 -0.0518004 0.248597
5184136000 -0.0304956 0.238758
5196134000 -0.0126759 0.219572
5208132000 0.00837924 0.204739
5220130000 0.0248793 0.180398
5232128000 0.0359732 0.157852
5244126000 0.0445887 0.135766
5256124000 0.043772 0.117842
5268122000 0.0534794 0.103126
5280120000 0.0403726 0.0907173
5292118000 0.0240537 0.0887925
5304116000 0.0111952 0.089874
5316114000 -0.00810987 0.0876242
5328112000 -0.0309746 0.0918916
5340110000 -0.0564891 0.0916389
5352108000 -0.0907121 0.100709
5364106000 -0.116404 0.119922
5376104000 -0.139344 0.13849
5388102000 -0.15662 0.157514
5400100000 -0.175666 0.184451
5412098000 -0.188492 0.209563
5424096000 -0.192687 0.242764
5436094000 -0.191379 0.269002
5448092000 -0.183296 0.296027
5460090000 -0.168497 0.314589
5472088000 -0.152668 0.330337
5484086000 -0.139676 0.345757
5496084000 -0.117181 0.36376
5508082000 -0.0912349 0.376287
5520080000 -0.0612563 0.387338
5532078000 -0.0285001 0.394398
5544076000 0.0104142 0.399008
5556074000 0.0512691 0.393863
5568072000 0.0878571 0.379377
5580070000 0.117268 0.370775
5592068000 0.151491 0.3571
5604066000 0.182513 0.341099
5616064000 0.208251 0.321501
5628062000 0.230842 0.299647
5640060000 0.247101 0.277273
5652058000 0.258623 0.253999
5664056000 0.26581 0.233916
5676054000 0.273352 0.209293
5688052000 0.273129 0.185952
5700050000 0.264938 0.161708
5712048000 0.256819 0.143676
5724046000 0.244616 0.118272
5736044000 0.222251 0.0951401
5748042000 0.19353 0.0745793
5760040000 0.164034 0.061155
5772038000 0.132533 0.0530157
5784036000 0.102207 0.0485316
5796034000 0.0744751 0.0475057
5808032000 0.047649 0.0511338
5820030000 0.0231896 0.0552576
5832028000 -0.00090585 0.0684044
5844026000 -0.0172876 0.0865549
5856024000 -0.0260332 0.10823
5868022000 -0.0272685 0.139159
5880020000 -0.0167495 0.167741
5892018000 0.00557835 0.19185
5904016000 0.0267549 0.210432
5916014000 0.0574544 0.232412
5928012000 0.0900131 0.246283
5940010000 0.124495 0.255883
5952008000 0.157406 0.260841
5964006000 0.190218 0.263943
5976004000 0.222322 0.264276
5988002000 0.258087 0.25553
6000000000 0.284028 0.239712
