# Hz S RI R 50
1000000 1.00847 -0.0101297
12998000 0.976322 -0.11285
24996000 0.956713 -0.206999
36994000 0.930379 -0.298769
48992000 0.899559 -0.390827
60990000 0.857149 -0.478638
72988000 0.803943 -0.563922
84986000 0.740976 -0.643637
96984000 0.66857 -0.716838
108982000 0.586851 -0.782836
120980000 0.495985 -0.840422
132978000 0.384227 -0.882972
144976000 0.279593 -0.915761
156974000 0.283949 -0.883297
168972000 0.154639 -0.948729
180970000 0.0541614 -0.961186
192968000 -0.0510566 -0.963108
204966000 -0.153849 -0.95099
216964000 -0.253114 -0.925646
228962000 -0.345898 -0.889519
240960000 -0.433817 -0.840235
252958000 -0.504484 -0.787823
264956000 -0.5735 -0.736781
276954000 -0.646784 -0.682095
288952000 -0.719202 -0.611842
300950000 -0.779597 -0.523356
312948000 -0.822068 -0.435041
324946000 -0.857292 -0.337557
336944000 -0.877362 -0.236569
348942000 -0.88413 -0.141592
360940000 -0.875083 -0.0449291
372938000 -0.846995 0.0316683
384936000 -0.839606 0.0911985
396934000 -0.837388 0.164684
408932000 -0.808067 0.246769
420930000 -0.78343 0.305286
432928000 -0.773975 0.372646
444926000 -0.744802 0.449645
456924000 -0.707591 0.525345
468922000 -0.655762 0.60381
480920000 -0.59535 0.672991
492918000 -0.521047 0.734327
504916000 -0.441141 0.781116
516914000 -0.361526 0.821087
528912000 -0.277551 0.855055
540910000 -0.186043 0.881753
552908000 -0.0839423 0.889787
564906000 0.0145419 0.881938
576904000 0.110172 0.850363
588902000 0.176922 0.804898
600900000 0.230063 0.775198
612898000 0.289476 0.755739
624896000 0.361524 0.722034
636894000 0.420879 0.669641
648892000 0.462313 0.615374
660890000 0.486436 0.579826
672888000 0.524257 0.556589
684886000 0.577292 0.527577
696884000 0.632401 0.485047
708882000 0.684731 0.425563
720880000 0.722955 0.362036
732878000 0.754851 0.293756
744876000 0.776667 0.226735
756874000 0.793442 0.155671
768872000 0.79925 0.0900063
780870000 0.811845 0.0232426
792868000 0.82041 -0.0508088
804866000 0.815361 -0.13281
816864000 0.79611 -0.21444
828862000 0.761599 -0.291345
840860000 0.723326 -0.357908
852858000 0.681481 -0.41766
864856000 0.632152 -0.475779
876854000 0.587103 -0.522305
888852000 0.542364 -0.574834
900850000 0.492293 -0.625021
912848000 0.430438 -0.682293
924846000 0.356723 -0.726252
936844000 0.275651 -0.759452
948842000 0.195889 -0.787259
960840000 0.111525 -0.801224
972838000 0.0232676 -0.807955
984836000 -0.0556379 -0.799334
996834000 -0.135091 -0.792978
1008832000 -0.216954 -0.774633
1020830000 -0.294795 -0.755349
1032828000 -0.377505 -0.725011
1044826000 -0.457744 -0.683098
1056824000 -0.532963 -0.63001
1068822000 -0.604785 -0.568221
1080820000 -0.668857 -0.492644
1092818000 -0.720662 -0.411062
1104816000 -0.763154 -0.323496
1116814000 -0.796273 -0.22912
1128812000 -0.81729 -0.130859
1140810000 -0.826411 -0.0308545
1152808000 -0.820639 0.0727743
1164806000 -0.802246 0.173099
1176804000 -0.769725 0.272015
1188802000 -0.727219 0.361432
1200800000 -0.676468 0.441344
1212798000 -0.615433 0.517524
1224796000 -0.54607 0.58177
1236794000 -0.466056 0.638474
1248792000 -0.379595 0.679277
1260790000 -0.289389 0.702493
1272788000 -0.201005 0.713887
1284786000 -0.113783 0.705504
1296784000 -0.0334618 0.686092
1308782000 0.0369759 0.653572
1320780000 0.0950077 0.611619
1332778000 0.135026 0.568052
1344776000 0.162985 0.533474
1356774000 0.189624 0.503509
1368772000 0.21076 0.483307
1380770000 0.237842 0.469466
1392768000 0.273072 0.455694
1404766000 0.30885 0.438275
1416764000 0.354835 0.41451
1428762000 0.387919 0.377469
1440760000 0.413988 0.346753
1452758000 0.445921 0.312913
1464756000 0.463757 0.273866
1476754000 0.48179 0.243045
1488752000 0.497576 0.206809
1500750000 0.508709 0.169655
1512748000 0.506827 0.136281
1524746000 0.509467 0.111334
1536744000 0.511936 0.0801534
1548742000 0.506709 0.0616909
1560740000 0.512072 0.0462904
1572738000 0.518905 0.027023
1584736000 0.539083 0.00996794
1596734000 0.562815 -0.0223343
1608732000 0.582258 -0.063697
1620730000 0.60163 -0.116301
1632728000 0.608671 -0.179684
1644726000 0.605875 -0.248724
1656724000 0.591344 -0.317857
1668722000 0.565208 -0.388064
1680720000 0.525111 -0.44892
1692718000 0.481479 -0.503351
1704716000 0.43293 -0.55208
1716714000 0.379837 -0.594454
1728712000 0.324671 -0.62995
1740710000 0.265828 -0.661204
1752708000 0.202542 -0.687027
1764706000 0.134612 -0.702257
1776704000 0.0642114 -0.715032
1788702000 -0.0112069 -0.714386
1800700000 -0.0868221 -0.700294
1812698000 -0.158919 -0.67811
1824696000 -0.230003 -0.645254
1836694000 -0.294791 -0.603575
1848692000 -0.356543 -0.557913
1860690000 -0.417256 -0.507344
1872688000 -0.475695 -0.446494
1884686000 -0.523218 -0.378738
1896684000 -0.560023 -0.308529
1908682000 -0.598144 -0.238185
1920680000 -0.625637 -0.157715
1932678000 -0.644201 -0.0732546
1944676000 -0.646941 0.0131472
1956674000 -0.637898 0.0986094
1968672000 -0.615821 0.182354
1980670000 -0.582912 0.26336
1992668000 -0.53636 0.336661
2004666000 -0.474475 0.404959
2016664000 -0.402903 0.457786
2028662000 -0.324424 0.504719
2040660000 -0.236854 0.536075
2052658000 -0.145227 0.552061
2064656000 -0.0540246 0.554343
2076654000 0.0359366 0.546466
2088652000 0.121243 0.522415
2100650000 0.199212 0.485961
2112648000 0.265378 0.437992
2124646000 0.319677 0.387067
2136644000 0.363843 0.33087
2148642000 0.401096 0.278182
2160640000 0.429652 0.215158
2172638000 0.441042 0.154241
2184636000 0.446529 0.0985396
2196634000 0.442924 0.0386067
2208632000 0.426163 -0.0183742
2220630000 0.406274 -0.0645789
2232628000 0.379093 -0.115451
2244626000 0.337406 -0.156913
2256624000 0.292928 -0.182815
2268622000 0.252331 -0.208386
2280620000 0.205939 -0.224634
2292618000 0.151622 -0.225877
2304616000 0.116149 -0.216224
2316614000 0.0729657 -0.205297
2328612000 0.0415442 -0.182953
2340610000 0.0179713 -0.155882
2352608000 0.00357657 -0.130438
2364606000 -0.0163433 -0.0958016
2376604000 -0.00968151 -0.0535621
2388602000 0.0142089 -0.020962
2400600000 0.037375 0.000352949
2412598000 0.0705268 0.0208201
2424596000 0.104862 0.0288469
2436594000 0.138848 0.0271369
2448592000 0.173999 0.0191508
2460590000 0.200884 0.00690209
2472588000 0.22637 -0.00237
2484586000 0.257085 -0.0238495
2496584000 0.275449 -0.0534314
2508582000 0.289354 -0.0772361
2520580000 0.298331 -0.109466
2532578000 0.300544 -0.139157
2544576000 0.303059 -0.170634
2556574000 0.29922 -0.199229
2568572000 0.286248 -0.233948
2580570000 0.279638 -0.268326
2592568000 0.265922 -0.307015
2604566000 0.232198 -0.349663
2616564000 0.201526 -0.370628
2628562000 0.169475 -0.401528
2640560000 0.130214 -0.423963
2652558000 0.091828 -0.443868
2664556000 0.0536744 -0.456721
2676554000 0.0187307 -0.468529
2688552000 -0.0205797 -0.47697
2700550000 -0.058114 -0.478345
2712548000 -0.0968082 -0.480156
2724546000 -0.131619 -0.476472
2736544000 -0.168753 -0.469918
2748542000 -0.206148 -0.452597
2760540000 -0.235653 -0.43852
2772538000 -0.270018 -0.421597
2784536000 -0.29982 -0.396571
2796534000 -0.33921 -0.371173
2808532000 -0.36408 -0.332432
2820530000 -0.385764 -0.29529
2832528000 -0.40467 -0.261377
2844526000 -0.426389 -0.220202
2856524000 -0.444263 -0.173978
2868522000 -0.4488 -0.128942
2880520000 -0.45906 -0.0795416
2892518000 -0.458917 -0.0292156
2904516000 -0.451544 0.0179477
2916514000 -0.442563 0.0630991
2928512000 -0.432684 0.107072
2940510000 -0.419882 0.154872
2952508000 -0.391448 0.204345
2964506000 -0.3603 0.238101
2976504000 -0.336036 0.274003
2988502000 -0.295707 0.312798
3000500000 -0.253444 0.33853
3012498000 -0.210102 0.351768
3024496000 -0.164115 0.376317
3036494000 -0.117083 0.386796
3048492000 -0.0615605 0.393132
3060490000 -0.0154617 0.391312
3072488000 0.0426648 0.392752
3084486000 0.101794 0.378924
3096484000 0.156647 0.355082
3108482000 0.20419 0.325596
3120480000 0.245841 0.295818
3132478000 0.28994 0.263281
3144476000 0.329133 0.222568
3156474000 0.359341 0.182148
3168472000 0.390376 0.138823
3180470000 0.415138 0.0874265
3192468000 0.426852 0.0399837
3204466000 0.439435 -0.00795901
3216464000 0.445788 -0.0611019
3228462000 0.441293 -0.112758
3240460000 0.434618 -0.159275
3252458000 0.418991 -0.207871
3264456000 0.405878 -0.251586
3276454000 0.383062 -0.297828
3288452000 0.353962 -0.342791
3300450000 0.321572 -0.380691
3312448000 0.288699 -0.415346
3324446000 0.25047 -0.450221
3336444000 0.214446 -0.483727
3348442000 0.171358 -0.510589
3360440000 0.124816 -0.537827
3372438000 0.0758964 -0.558336
3384436000 0.0259732 -0.57266
3396434000 -0.0229233 -0.581237
3408432000 -0.0716376 -0.584815
3420430000 -0.118455 -0.583005
3432428000 -0.162861 -0.577103
3444426000 -0.20757 -0.565991
3456424000 -0.245394 -0.54907
3468422000 -0.2728 -0.541235
3480420000 -0.323216 -0.516086
3492418000 -0.362127 -0.49076
3504416000 -0.391823 -0.462787
3516414000 -0.42723 -0.434245
3528412000 -0.453305 -0.397681
3540410000 -0.48391 -0.362668
3552408000 -0.509554 -0.318395
3564406000 -0.53162 -0.277135
3576404000 -0.547685 -0.228411
3588402000 -0.560133 -0.18689
3600400000 -0.574914 -0.136216
3612398000 -0.576047 -0.0853702
3624396000 -0.575561 -0.0388737
3636394000 -0.572541 0.00846522
3648392000 -0.564418 0.051843
3660390000 -0.556516 0.0912976
3672388000 -0.542337 0.134662
3684386000 -0.524086 0.174012
3696384000 -0.503109 0.208587
3708382000 -0.478618 0.240287
3720380000 -0.451423 0.271352
3732378000 -0.420401 0.293285
3744376000 -0.39243 0.318992
3756374000 -0.356095 0.339938
3768372000 -0.319861 0.360032
3780370000 -0.279044 0.378082
3792368000 -0.23373 0.391643
3804366000 -0.185214 0.395873
3816364000 -0.141611 0.39716
3828362000 -0.0944722 0.398709
3840360000 -0.0462177 0.390401
3852358000 -0.00520739 0.383251
3864356000 0.043526 0.37477
3876354000 0.0884258 0.352846
3888352000 0.128607 0.333824
3900350000 0.168294 0.307034
3912348000 0.200625 0.273652
3924346000 0.229742 0.245676
3936344000 0.256332 0.203797
3948342000 0.275917 0.167748
3960340000 0.290487 0.121271
3972338000 0.30026 0.0792775
3984336000 0.307648 0.0386459
3996334000 0.30504 -0.0131096
4008332000 0.296652 -0.0573827
4020330000 0.285913 -0.102847
4032328000 0.26953 -0.151788
4044326000 0.245194 -0.19551
4056324000 0.217674 -0.232071
4068322000 0.18782 -0.274852
4080320000 0.146399 -0.308137
4092318000 0.107022 -0.332666
4104316000 0.069532 -0.354485
4116314000 0.0297548 -0.373266
4128312000 -0.0142305 -0.390656
4140310000 -0.0521987 -0.39791
4152308000 -0.0943816 -0.407863
4164306000 -0.13544 -0.409439
4176304000 -0.176192 -0.405434
4188302000 -0.214631 -0.39573
4200300000 -0.260791 -0.37876
4212298000 -0.29623 -0.347444
4224296000 -0.332763 -0.320492
4236294000 -0.369801 -0.291857
4248292000 -0.39883 -0.255259
4260290000 -0.426293 -0.215315
4272288000 -0.445757 -0.180791
4284286000 -0.463509 -0.139805
4296284000 -0.477078 -0.0987485
4308282000 -0.485745 -0.0587265
4320280000 -0.491336 -0.0213767
4332278000 -0.492046 0.0159673
4344276000 -0.494141 0.049757
4356274000 -0.493216 0.0887643
4368272000 -0.488537 0.123149
4380270000 -0.476315 0.158284
4392268000 -0.460972 0.184303
4404266000 -0.446112 0.210859
4416264000 -0.430613 0.231489
4428262000 -0.413103 0.253895
4440260000 -0.391035 0.270038
4452258000 -0.36831 0.28561
4464256000 -0.341108 0.295029
4476254000 -0.31521 0.302095
4488252000 -0.290226 0.307156
4500250000 -0.268383 0.310426
4512248000 -0.243448 0.318922
4524246000 -0.218936 0.323047
4536244000 -0.192631 0.324544
4548242000 -0.166642 0.327173
4560240000 -0.139855 0.329187
4572238000 -0.112911 0.324711
4584236000 -0.0941167 0.320303
4596234000 -0.072523 0.319795
4608232000 -0.052657 0.318325
4620230000 -0.0309664 0.315182
4632228000 -0.0159397 0.309692
4644226000 -0.000839469 0.302929
4656224000 0.0157364 0.295426
4668222000 0.0282981 0.285482
4680220000 0.0378936 0.275419
4692218000 0.0477737 0.267262
4704216000 0.0587798 0.256055
4716214000 0.070597 0.238376
4728212000 0.0677582 0.21828
4740210000 0.0766533 0.207478
4752208000 0.083652 0.181404
4764206000 0.0812085 0.155122
4776204000 0.0770293 0.132674
4788202000 0.0789565 0.111008
4800200000 0.0726986 0.0793627
4812198000 0.0629242 0.0562235
4824196000 0.0539834 0.0325769
4836194000 0.0454432 0.00396019
4848192000 0.0253659 -0.0159643
4860190000 0.00848597 -0.0355026
4872188000 -0.0113576 -0.0513818
4884186000 -0.0310444 -0.0599493
4896184000 -0.055393 -0.0648399
4908182000 -0.0762512 -0.063333
4920180000 -0.0950391 -0.060875
4932178000 -0.116732 -0.0523923
4944176000 -0.139541 -0.0346719
4956174000 -0.152071 -0.0164284
4968172000 -0.173138 0.0023038
4980170000 -0.185885 0.027911
4992168000 -0.197899 0.0592765
5004166000 -0.204113 0.0848333
5016164000 -0.212643 0.111987
5028162000 -0.213827 0.144734
5040160000 -0.211652 0.171541
5052158000 -0.2085 0.193544
5064156000 -0.203244 0.217844
5076154000 -0.190374 0.235877
5088152000 -0.177272 0.248627
5100150000 -0.167292 0.260855
5112148000 -0.156813 0.270342
5124146000 -0.136023 0.278509
5136144000 -0.116323 0.278807
5148142000 -0.0974389 0.278607
5160140000 -0.0713989 0.274805
5172138000 -0.0502726 0.263066
5184136000 -0.0300371 0.249792
5196134000 -0.00731477 0.234088
5208132000 0.0113549 0.210378
5220130000 0.0297835 0.188076
5232128000 0.0432082 0.164692
5244126000 0.0523059 0.14224
5256124000 0.0576793 0.120848
5268122000 0.05756 0.0984755
5280120000 0.0493927 0.0951787
5292118000 0.0351802 0.0857015
5304116000 0.0168249 0.082441
5316114000 -0.00599486 0.0835757
5328112000 -0.0300521 0.0875335
5340110000 -0.0594182 0.0952461
5352108000 -0.0832146 0.105732
5364106000 -0.112248 0.115908
5376104000 -0.136736 0.139697
5388102000 -0.153334 0.160667
5400100000 -0.169975 0.186149
5412098000 -0.180325 0.2096
5424096000 -0.188841 0.238206
5436094000 -0.183684 0.266649
5448092000 -0.176818 0.29018
5460090000 -0.166888 0.306814
5472088000 -0.154271 0.327685
5484086000 -0.136257 0.345706
5496084000 -0.112102 0.360879
5508082000 -0.0834965 0.371414
5520080000 -0.0548509 0.377303
5532078000 -0.0245686 0.379442
5544076000 0.00955536 0.382303
5556074000 0.042603 0.378272
5568072000 0.076377 0.371762
5580070000 0.108735 0.362086
5592068000 0.141814 0.350361
5604066000 0.170188 0.333768
5616064000 0.195249 0.315749
5628062000 0.217341 0.297589
5640060000 0.231803 0.278143
5652058000 0.244663 0.25771
5664056000 0.251922 0.238976
5676054000 0.260598 0.218238
5688052000 0.258046 0.196506
5700050000 0.253871 0.178732
5712048000 0.244726 0.16071
5724046000 0.232352 0.142441
5736044000 0.214755 0.122454
5748042000 0.193063 0.108109
5760040000 0.171858 0.0952305
5772038000 0.147039 0.0832461
5784036000 0.122756 0.0767204
5796034000 0.100244 0.0725059
5808032000 0.0768106 0.0733414
5820030000 0.0595963 0.075519
5832028000 0.0452301 0.0785896
5844026000 0.033502 0.0851271
5856024000 0.0252555 0.0939788
5868022000 0.022579 0.108374
5880020000 0.0232129 0.12356
5892018000 0.0320004 0.138349
5904016000 0.0431671 0.154957
5916014000 0.059558 0.171505
5928012000 0.0784622 0.188346
5940010000 0.0997276 0.202505
5952008000 0.126052 0.217612
5964006000 0.149528 0.227094
5976004000 0.178337 0.235535
5988002000 0.203026 0.239491
6000000000 0.232127 0.240215
