# Hz S RI R 50
1000000 1.00336 -0.00957748
12998000 0.97749 -0.113085
24996000 0.957647 -0.207392
36994000 0.932404 -0.299562
48992000 0.900555 -0.391664
60990000 0.857486 -0.479674
72988000 0.804849 -0.564312
84986000 0.741432 -0.644568
96984000 0.668857 -0.717687
108982000 0.586805 -0.784152
120980000 0.491357 -0.842261
132978000 0.403103 -0.858017
144976000 0.271089 -0.914121
156974000 0.289609 -0.896417
168972000 0.160396 -0.956327
180970000 0.0483767 -0.968259
192968000 -0.0554072 -0.96012
204966000 -0.148254 -0.949236
216964000 -0.246782 -0.929258
228962000 -0.342451 -0.89606
240960000 -0.43054 -0.850319
252958000 -0.507746 -0.798795
264956000 -0.583359 -0.744587
276954000 -0.655404 -0.682321
288952000 -0.723081 -0.612014
300950000 -0.782033 -0.530065
312948000 -0.832345 -0.443042
324946000 -0.873082 -0.345392
336944000 -0.901223 -0.240286
348942000 -0.910999 -0.13348
360940000 -0.905397 -0.0258436
372938000 -0.870886 0.0741617
384936000 -0.827117 0.13883
396934000 -0.813144 0.203815
408932000 -0.778655 0.266777
420930000 -0.752745 0.32782
432928000 -0.723584 0.378975
444926000 -0.705732 0.433175
456924000 -0.676809 0.504729
468922000 -0.638009 0.573633
480920000 -0.583619 0.64168
492918000 -0.520465 0.70286
504916000 -0.452095 0.754748
516914000 -0.377031 0.804791
528912000 -0.29061 0.843723
540910000 -0.199029 0.866197
552908000 -0.107969 0.881481
564906000 -0.0138618 0.883164
576904000 0.0813593 0.869604
588902000 0.173859 0.842012
600900000 0.251321 0.791659
612898000 0.30612 0.750628
624896000 0.359982 0.717583
636894000 0.417857 0.682608
648892000 0.482921 0.636098
660890000 0.533263 0.574979
672888000 0.568052 0.509275
684886000 0.581273 0.444652
696884000 0.578344 0.407233
708882000 0.599592 0.399782
720880000 0.644567 0.377719
732878000 0.695007 0.341587
744876000 0.745327 0.287729
756874000 0.786421 0.218296
768872000 0.814785 0.141834
780870000 0.830182 0.0617678
792868000 0.840119 -0.0162385
804866000 0.842349 -0.10384
816864000 0.827867 -0.18919
828862000 0.805232 -0.272193
840860000 0.767403 -0.349818
852858000 0.729029 -0.426218
864856000 0.675306 -0.495942
876854000 0.618415 -0.558241
888852000 0.55292 -0.614893
900850000 0.481957 -0.659459
912848000 0.41761 -0.696836
924846000 0.348015 -0.732334
936844000 0.277014 -0.765056
948842000 0.202724 -0.793749
960840000 0.120083 -0.821535
972838000 0.0243388 -0.835679
984836000 -0.073259 -0.830002
996834000 -0.165562 -0.811625
1008832000 -0.249124 -0.780566
1020830000 -0.327282 -0.749168
1032828000 -0.401184 -0.706805
1044826000 -0.471994 -0.664204
1056824000 -0.543546 -0.608898
1068822000 -0.606638 -0.546675
1080820000 -0.666157 -0.477726
1092818000 -0.718338 -0.397304
1104816000 -0.760768 -0.310669
1116814000 -0.793609 -0.215953
1128812000 -0.811518 -0.113333
1140810000 -0.811961 -0.0134252
1152808000 -0.803503 0.0845409
1164806000 -0.780033 0.180433
1176804000 -0.748465 0.269044
1188802000 -0.710297 0.354897
1200800000 -0.660854 0.435626
1212798000 -0.602565 0.510246
1224796000 -0.531045 0.574173
1236794000 -0.449195 0.625236
1248792000 -0.366166 0.655368
1260790000 -0.286612 0.676053
1272788000 -0.205294 0.687781
1284786000 -0.127416 0.686567
1296784000 -0.0480332 0.672751
1308782000 0.0251211 0.643969
1320780000 0.0815707 0.598327
1332778000 0.124979 0.554618
1344776000 0.145648 0.512312
1356774000 0.151256 0.491806
1368772000 0.172847 0.486544
1380770000 0.203938 0.4835
1392768000 0.238131 0.478676
1404766000 0.282792 0.474381
1416764000 0.335696 0.458966
1428762000 0.390932 0.430863
1440760000 0.43909 0.391094
1452758000 0.479022 0.34183
1464756000 0.5031 0.2924
1476754000 0.524135 0.240313
1488752000 0.52948 0.190392
1500750000 0.525486 0.1463
1512748000 0.51558 0.106806
1524746000 0.49314 0.0864022
1536744000 0.486535 0.0822653
1548742000 0.503619 0.0783582
1560740000 0.52123 0.0574952
1572738000 0.535878 0.0381129
1584736000 0.556803 0.00501781
1596734000 0.57309 -0.0323667
1608732000 0.589526 -0.0768083
1620730000 0.599265 -0.126721
1632728000 0.605353 -0.185723
1644726000 0.606569 -0.25177
1656724000 0.589219 -0.323636
1668722000 0.564053 -0.390037
1680720000 0.527803 -0.453087
1692718000 0.482626 -0.509665
1704716000 0.431658 -0.558895
1716714000 0.377088 -0.600337
1728712000 0.318898 -0.636063
1740710000 0.258938 -0.665352
1752708000 0.193385 -0.688018
1764706000 0.12468 -0.703167
1776704000 0.0523953 -0.707173
1788702000 -0.019638 -0.700437
1800700000 -0.0860552 -0.683926
1812698000 -0.150628 -0.662475
1824696000 -0.214633 -0.638424
1836694000 -0.281111 -0.605552
1848692000 -0.347889 -0.564022
1860690000 -0.411115 -0.509451
1872688000 -0.466732 -0.453335
1884686000 -0.518624 -0.386138
1896684000 -0.559489 -0.314381
1908682000 -0.594606 -0.240612
1920680000 -0.618666 -0.162413
1932678000 -0.634293 -0.0812668
1944676000 -0.639102 -0.000244516
1956674000 -0.635073 0.0792618
1968672000 -0.621188 0.16167
1980670000 -0.592614 0.24412
1992668000 -0.549655 0.321299
2004666000 -0.491956 0.390746
2016664000 -0.420858 0.447926
2028662000 -0.346555 0.492085
2040660000 -0.267792 0.53331
2052658000 -0.17658 0.559088
2064656000 -0.0801953 0.569247
2076654000 0.0121106 0.561162
2088652000 0.0987405 0.543602
2100650000 0.18331 0.513317
2112648000 0.258108 0.472649
2124646000 0.323536 0.420331
2136644000 0.378535 0.356319
2148642000 0.411514 0.283971
2160640000 0.431442 0.227308
2172638000 0.44398 0.168569
2184636000 0.450477 0.110384
2196634000 0.446235 0.0558705
2208632000 0.440855 -0.000289666
2220630000 0.409426 -0.0588319
2232628000 0.376145 -0.0927492
2244626000 0.354917 -0.124769
2256624000 0.318806 -0.16375
2268622000 0.270425 -0.189167
2280620000 0.23299 -0.194681
2292618000 0.199548 -0.203386
2304616000 0.161158 -0.209702
2316614000 0.127084 -0.204024
2328612000 0.101513 -0.195929
2340610000 0.0683423 -0.184922
2352608000 0.0513079 -0.159543
2364606000 0.0469086 -0.142275
2376604000 0.0366209 -0.125875
2388602000 0.0364308 -0.0972239
2400600000 0.0483315 -0.0866785
2412598000 0.0504238 -0.0738942
2424596000 0.0589822 -0.0580212
2436594000 0.0814817 -0.0345109
2448592000 0.104369 -0.0352898
2460590000 0.122239 -0.0266889
2472588000 0.150852 -0.0244358
2484586000 0.174403 -0.029578
2496584000 0.197946 -0.0404226
2508582000 0.21684 -0.0503813
2520580000 0.233152 -0.0704509
2532578000 0.250949 -0.0898294
2544576000 0.26257 -0.121313
2556574000 0.257382 -0.150824
2568572000 0.257293 -0.171688
2580570000 0.265811 -0.205023
2592568000 0.248884 -0.242461
2604566000 0.236213 -0.275034
2616564000 0.216088 -0.303271
2628562000 0.196306 -0.337879
2640560000 0.1708 -0.365504
2652558000 0.144761 -0.397452
2664556000 0.101693 -0.421713
2676554000 0.0758614 -0.437694
2688552000 0.0433619 -0.46219
2700550000 0.00188776 -0.473825
2712548000 -0.0414516 -0.481056
2724546000 -0.0748274 -0.488092
2736544000 -0.118044 -0.487058
2748542000 -0.159601 -0.484215
2760540000 -0.198241 -0.471601
2772538000 -0.236122 -0.4569
2784536000 -0.276392 -0.440531
2796534000 -0.316711 -0.405277
2808532000 -0.342224 -0.376061
2820530000 -0.376449 -0.346604
2832528000 -0.407867 -0.301589
2844526000 -0.428257 -0.263951
2856524000 -0.4489 -0.216425
2868522000 -0.466488 -0.167001
2880520000 -0.477109 -0.115747
2892518000 -0.485554 -0.0650523
2904516000 -0.489965 -0.00818222
2916514000 -0.477592 0.0455289
2928512000 -0.46345 0.0986146
2940510000 -0.450772 0.145838
2952508000 -0.428533 0.192919
2964506000 -0.39911 0.237697
2976504000 -0.36988 0.278608
2988502000 -0.331769 0.31425
3000500000 -0.289483 0.352252
3012498000 -0.242002 0.371853
3024496000 -0.196496 0.398303
3036494000 -0.137397 0.412689
3048492000 -0.0820678 0.419111
3060490000 -0.031018 0.416197
3072488000 0.0319803 0.421803
3084486000 0.0867532 0.406121
3096484000 0.145889 0.393367
3108482000 0.204285 0.362947
3120480000 0.256618 0.332887
3132478000 0.301234 0.291834
3144476000 0.344114 0.253264
3156474000 0.378701 0.204385
3168472000 0.411264 0.162023
3180470000 0.44012 0.107919
3192468000 0.457717 0.0549965
3204466000 0.467992 -0.000995578
3216464000 0.474053 -0.0596322
3228462000 0.466424 -0.11195
3240460000 0.463621 -0.15943
3252458000 0.447759 -0.216441
3264456000 0.4267 -0.266991
3276454000 0.397269 -0.312694
3288452000 0.367359 -0.356469
3300450000 0.330954 -0.39464
3312448000 0.300888 -0.427316
3324446000 0.262248 -0.464618
3336444000 0.219739 -0.499995
3348442000 0.170697 -0.528136
3360440000 0.121978 -0.549958
3372438000 0.0733062 -0.567627
3384436000 0.024837 -0.582097
3396434000 -0.0281713 -0.58817
3408432000 -0.0700995 -0.5869
3420430000 -0.116642 -0.589083
3432428000 -0.1608 -0.583413
3444426000 -0.201622 -0.578988
3456424000 -0.249953 -0.567974
3468422000 -0.277791 -0.551936
3480420000 -0.3276 -0.524876
3492418000 -0.36497 -0.501246
3504416000 -0.397307 -0.473052
3516414000 -0.429461 -0.441652
3528412000 -0.46035 -0.40825
3540410000 -0.488652 -0.371134
3552408000 -0.515293 -0.329034
3564406000 -0.540039 -0.287845
3576404000 -0.558245 -0.242833
3588402000 -0.577045 -0.195742
3600400000 -0.590745 -0.145614
3612398000 -0.595397 -0.0950245
3624396000 -0.599561 -0.0447415
3636394000 -0.597277 0.00590668
3648392000 -0.594551 0.0541966
3660390000 -0.580426 0.106078
3672388000 -0.563895 0.14897
3684386000 -0.543301 0.187091
3696384000 -0.524591 0.224604
3708382000 -0.499135 0.261145
3720380000 -0.471451 0.296292
3732378000 -0.435073 0.327046
3744376000 -0.401414 0.349612
3756374000 -0.361952 0.378827
3768372000 -0.317077 0.398406
3780370000 -0.269913 0.411725
3792368000 -0.223239 0.425051
3804366000 -0.173269 0.432199
3816364000 -0.115506 0.435326
3828362000 -0.0621355 0.427745
3840360000 -0.0119714 0.415143
3852358000 0.0396374 0.402422
3864356000 0.0843832 0.378573
3876354000 0.127021 0.358948
3888352000 0.17254 0.33233
3900350000 0.21195 0.296255
3912348000 0.241012 0.260325
3924346000 0.271188 0.220513
3936344000 0.290258 0.17524
3948342000 0.30763 0.130511
3960340000 0.316446 0.0804398
3972338000 0.317337 0.0340694
3984336000 0.313677 -0.0167581
3996334000 0.302596 -0.0620899
4008332000 0.286691 -0.10528
4020330000 0.268344 -0.149746
4032328000 0.243001 -0.193037
4044326000 0.211357 -0.228916
4056324000 0.18128 -0.264292
4068322000 0.145127 -0.296023
4080320000 0.103093 -0.322377
4092318000 0.0644771 -0.342934
4104316000 0.0204191 -0.362215
4116314000 -0.0177679 -0.365816
4128312000 -0.0571026 -0.378025
4140310000 -0.0941399 -0.380932
4152308000 -0.132389 -0.381964
4164306000 -0.166801 -0.376691
4176304000 -0.202751 -0.368206
4188302000 -0.235211 -0.356851
4200300000 -0.273562 -0.337526
4212298000 -0.301654 -0.309253
4224296000 -0.333514 -0.283572
4236294000 -0.362886 -0.252892
4248292000 -0.386669 -0.221488
4260290000 -0.40946 -0.185507
4272288000 -0.4276 -0.15441
4284286000 -0.44525 -0.112392
4296284000 -0.451311 -0.0761751
4308282000 -0.459013 -0.0439256
4320280000 -0.463899 -0.00730441
4332278000 -0.465439 0.0266853
4344276000 -0.4621 0.0597132
4356274000 -0.459601 0.0912564
4368272000 -0.454291 0.119744
4380270000 -0.447019 0.145339
4392268000 -0.433297 0.170699
4404266000 -0.424725 0.191446
4416264000 -0.40861 0.212874
4428262000 -0.392735 0.227807
4440260000 -0.377854 0.24151
4452258000 -0.361284 0.25746
4464256000 -0.338191 0.265919
4476254000 -0.318424 0.27427
4488252000 -0.298339 0.284316
4500250000 -0.272115 0.289652
4512248000 -0.25295 0.297082
4524246000 -0.229354 0.304057
4536244000 -0.205768 0.3075
4548242000 -0.179542 0.309886
4560240000 -0.159523 0.312008
4572238000 -0.136602 0.316473
4584236000 -0.111639 0.318576
4596234000 -0.0919108 0.317084
4608232000 -0.0700101 0.31657
4620230000 -0.0526811 0.317896
4632228000 -0.0275936 0.315114
4644226000 -0.0139644 0.306112
4656224000 -0.00184927 0.306631
4668222000 0.0169844 0.298019
4680220000 0.0271731 0.287033
4692218000 0.0395188 0.275454
4704216000 0.048776 0.265543
4716214000 0.0607296 0.252905
4728212000 0.0674856 0.23347
4740210000 0.071718 0.214907
4752208000 0.0768592 0.194193
4764206000 0.0823495 0.169164
4776204000 0.0819162 0.144429
4788202000 0.0785765 0.115092
4800200000 0.0742342 0.0886242
4812198000 0.06353 0.0643656
4824196000 0.0567768 0.0418729
4836194000 0.0480743 0.0137334
4848192000 0.0307895 -0.0107862
4860190000 0.0117715 -0.0258548
4872188000 -0.00375173 -0.041409
4884186000 -0.0263752 -0.0508294
4896184000 -0.0428583 -0.0560124
4908182000 -0.0663459 -0.0624536
4920180000 -0.0889752 -0.0581742
4932178000 -0.10986 -0.0460702
4944176000 -0.126922 -0.0356148
4956174000 -0.148406 -0.015533
4968172000 -0.161078 0.00668567
4980170000 -0.176698 0.0274759
4992168000 -0.190836 0.0514954
5004166000 -0.199905 0.084561
5016164000 -0.203861 0.11292
5028162000 -0.208254 0.138397
5040160000 -0.206104 0.168456
5052158000 -0.200241 0.188522
5064156000 -0.195742 0.208413
5076154000 -0.187323 0.229118
5088152000 -0.176691 0.242532
5100150000 -0.165436 0.253479
5112148000 -0.151594 0.264661
5124146000 -0.132448 0.268628
5136144000 -0.113915 0.26656
5148142000 -0.0974181 0.265325
5160140000 -0.0755357 0.263318
5172138000 -0.0566372 0.252415
5184136000 -0.03587 0.23966
5196134000 -0.0154172 0.223584
5208132000 0.00429342 0.202871
5220130000 0.0183178 0.182025
5232128000 0.0333894 0.158777
5244126000 0.0397639 0.137601
5256124000 0.0410332 0.11905
5268122000 0.0439421 0.101415
5280120000 0.0352324 0.0964359
5292118000 0.0187742 0.0873902
5304116000 0.000202647 0.0906769
5316114000 -0.0159947 0.0937521
5328112000 -0.0444832 0.0948317
5340110000 -0.070324 0.10839
5352108000 -0.0926922 0.120923
5364106000 -0.116708 0.132359
5376104000 -0.138568 0.15187
5388102000 -0.155317 0.173293
5400100000 -0.168182 0.195967
5412098000 -0.180051 0.223193
5424096000 -0.183273 0.250601
5436094000 -0.179252 0.27312
5448092000 -0.176785 0.296122
5460090000 -0.162887 0.319947
5472088000 -0.148064 0.337819
5484086000 -0.129884 0.354363
5496084000 -0.104021 0.370004
5508082000 -0.0750882 0.378854
5520080000 -0.0442713 0.383827
5532078000 -0.0144166 0.384815
5544076000 0.0189807 0.387896
5556074000 0.0560261 0.383583
5568072000 0.0901269 0.370883
5580070000 0.119045 0.360902
5592068000 0.152685 0.348889
5604066000 0.179497 0.331078
5616064000 0.2034 0.313533
5628062000 0.223254 0.293898
5640060000 0.240239 0.275406
5652058000 0.256008 0.25337
5664056000 0.261975 0.230933
5676054000 0.268009 0.207872
5688052000 0.269243 0.185059
5700050000 0.260304 0.161969
5712048000 0.248801 0.14175
5724046000 0.233237 0.124681
5736044000 0.213925 0.102953
5748042000 0.186257 0.0878644
5760040000 0.163866 0.0760841
5772038000 0.137117 0.065945
5784036000 0.107625 0.0594241
5796034000 0.0832327 0.0597027
5808032000 0.0572315 0.05802
5820030000 0.0333754 0.0669556
5832028000 0.0193944 0.0747709
5844026000 0.00381004 0.0841795
5856024000 -0.00587941 0.102592
5868022000 -0.00638601 0.121811
5880020000 -0.00375983 0.144816
5892018000 0.010003 0.166243
5904016000 0.0270376 0.184499
5916014000 0.048511 0.207029
5928012000 0.0774854 0.223707
5940010000 0.104848 0.238131
5952008000 0.138886 0.248322
5964006000 0.167813 0.255819
5976004000 0.198173 0.259827
5988002000 0.227819 0.257203
6000000000 0.257033 0.252974
