# Hz S RI R 50
1000000 1.00066 -0.0116706
12998000 0.976572 -0.11246
24996000 0.956979 -0.206865
36994000 0.930349 -0.298301
48992000 0.89983 -0.390717
60990000 0.857224 -0.478541
72988000 0.804182 -0.563762
84986000 0.741181 -0.643575
96984000 0.668507 -0.716943
108982000 0.58624 -0.783215
120980000 0.494623 -0.840817
132978000 0.377559 -0.880785
144976000 0.270057 -0.910143
156974000 0.283113 -0.900612
168972000 0.15419 -0.950382
180970000 0.0538163 -0.96149
192968000 -0.0504204 -0.963212
204966000 -0.153135 -0.950745
216964000 -0.252239 -0.925047
228962000 -0.344253 -0.888876
240960000 -0.429796 -0.839614
252958000 -0.50137 -0.791323
264956000 -0.573798 -0.73973
276954000 -0.646356 -0.683565
288952000 -0.718084 -0.613645
300950000 -0.778176 -0.526637
312948000 -0.822919 -0.438992
324946000 -0.857812 -0.340991
336944000 -0.877705 -0.240426
348942000 -0.885447 -0.147091
360940000 -0.879196 -0.0530981
372938000 -0.858665 0.0235524
384936000 -0.853731 0.0912895
396934000 -0.847075 0.169895
408932000 -0.816572 0.251619
420930000 -0.793786 0.313132
432928000 -0.780906 0.38726
444926000 -0.745609 0.465491
456924000 -0.70177 0.541905
468922000 -0.647318 0.616809
480920000 -0.583058 0.684331
492918000 -0.504188 0.742473
504916000 -0.422259 0.785892
516914000 -0.339098 0.818595
528912000 -0.260634 0.841539
540910000 -0.176727 0.864667
552908000 -0.0826512 0.874272
564906000 0.0109355 0.871904
576904000 0.105445 0.844588
588902000 0.176601 0.804699
600900000 0.233076 0.7748
612898000 0.296414 0.749436
624896000 0.365462 0.709036
636894000 0.418741 0.655363
648892000 0.454847 0.602581
660890000 0.474065 0.567514
672888000 0.510267 0.552568
684886000 0.56501 0.52784
696884000 0.62297 0.485129
708882000 0.671687 0.426823
720880000 0.710741 0.36769
732878000 0.744074 0.302233
744876000 0.766845 0.23689
756874000 0.784969 0.168597
768872000 0.796315 0.107563
780870000 0.8136 0.0389788
792868000 0.82293 -0.0348419
804866000 0.825171 -0.11692
816864000 0.809452 -0.201218
828862000 0.779312 -0.280944
840860000 0.743886 -0.35423
852858000 0.70319 -0.421308
864856000 0.651477 -0.485584
876854000 0.60082 -0.539596
888852000 0.547714 -0.593188
900850000 0.49227 -0.64396
912848000 0.424404 -0.696072
924846000 0.348694 -0.737678
936844000 0.266505 -0.768109
948842000 0.186143 -0.791542
960840000 0.102449 -0.803653
972838000 0.015186 -0.808425
984836000 -0.0639079 -0.799098
996834000 -0.143906 -0.792505
1008832000 -0.225821 -0.773166
1020830000 -0.303701 -0.751924
1032828000 -0.386955 -0.718538
1044826000 -0.465369 -0.673995
1056824000 -0.53935 -0.618882
1068822000 -0.607155 -0.55558
1080820000 -0.667392 -0.480179
1092818000 -0.716793 -0.400751
1104816000 -0.759454 -0.314373
1116814000 -0.791529 -0.219415
1128812000 -0.811188 -0.120985
1140810000 -0.817818 -0.0210807
1152808000 -0.808498 0.0813475
1164806000 -0.788656 0.178703
1176804000 -0.754868 0.275394
1188802000 -0.712114 0.360737
1200800000 -0.661992 0.439448
1212798000 -0.599191 0.514871
1224796000 -0.528431 0.575867
1236794000 -0.448906 0.628507
1248792000 -0.36198 0.662147
1260790000 -0.276708 0.679699
1272788000 -0.193934 0.687279
1284786000 -0.114608 0.677035
1296784000 -0.0425764 0.659816
1308782000 0.0198341 0.630151
1320780000 0.0758726 0.594622
1332778000 0.113865 0.551995
1344776000 0.137665 0.522976
1356774000 0.16252 0.497721
1368772000 0.180814 0.484796
1380770000 0.208809 0.482254
1392768000 0.249669 0.474404
1404766000 0.294874 0.460601
1416764000 0.342679 0.434119
1428762000 0.378933 0.400529
1440760000 0.41228 0.374546
1452758000 0.451245 0.336704
1464756000 0.474018 0.293656
1476754000 0.492687 0.259207
1488752000 0.510849 0.221051
1500750000 0.523006 0.18133
1512748000 0.523334 0.145872
1524746000 0.529671 0.117874
1536744000 0.531965 0.0799235
1548742000 0.526787 0.0572153
1560740000 0.528642 0.0357051
1572738000 0.533351 0.016989
1584736000 0.55043 -0.00547921
1596734000 0.569771 -0.0391246
1608732000 0.584115 -0.0803871
1620730000 0.597486 -0.13418
1632728000 0.601075 -0.193068
1644726000 0.595488 -0.259405
1656724000 0.578999 -0.324716
1668722000 0.553048 -0.390779
1680720000 0.516595 -0.448276
1692718000 0.47269 -0.502201
1704716000 0.425363 -0.549306
1716714000 0.373273 -0.5892
1728712000 0.320184 -0.624192
1740710000 0.262678 -0.655184
1752708000 0.200306 -0.680244
1764706000 0.133197 -0.695211
1776704000 0.064677 -0.705678
1788702000 -0.0098613 -0.704775
1800700000 -0.078238 -0.690955
1812698000 -0.150806 -0.673194
1824696000 -0.220405 -0.641949
1836694000 -0.283676 -0.603513
1848692000 -0.345781 -0.561328
1860690000 -0.407423 -0.513695
1872688000 -0.466763 -0.454218
1884686000 -0.515411 -0.389325
1896684000 -0.555919 -0.321014
1908682000 -0.596627 -0.251168
1920680000 -0.626539 -0.172043
1932678000 -0.649539 -0.086613
1944676000 -0.654969 0.00144993
1956674000 -0.648807 0.0885148
1968672000 -0.629366 0.175282
1980670000 -0.596925 0.258219
1992668000 -0.549082 0.336411
2004666000 -0.487994 0.405644
2016664000 -0.413362 0.462389
2028662000 -0.332794 0.50922
2040660000 -0.244505 0.540429
2052658000 -0.153626 0.556319
2064656000 -0.0624697 0.561333
2076654000 0.0290872 0.554938
2088652000 0.115819 0.531679
2100650000 0.195784 0.497027
2112648000 0.264978 0.449694
2124646000 0.319923 0.39614
2136644000 0.365442 0.339871
2148642000 0.403335 0.286701
2160640000 0.428785 0.224319
2172638000 0.44358 0.165175
2184636000 0.448579 0.10953
2196634000 0.449394 0.051453
2208632000 0.437636 -0.00462638
2220630000 0.419589 -0.056871
2232628000 0.39253 -0.108295
2244626000 0.354797 -0.152628
2256624000 0.310193 -0.181202
2268622000 0.27086 -0.211092
2280620000 0.221884 -0.230326
2292618000 0.167488 -0.232142
2304616000 0.133083 -0.228835
2316614000 0.0860487 -0.219298
2328612000 0.0527477 -0.200872
2340610000 0.0275234 -0.173674
2352608000 0.0121114 -0.152972
2364606000 -0.0117357 -0.121182
2376604000 -0.00980681 -0.0802544
2388602000 0.00550476 -0.0501977
2400600000 0.0215511 -0.0288838
2412598000 0.0446576 -0.00489259
2424596000 0.0702527 0.0133205
2436594000 0.104465 0.023232
2448592000 0.139755 0.0202581
2460590000 0.168042 0.0211023
2472588000 0.203234 0.014626
2484586000 0.238458 -0.00372567
2496584000 0.2604 -0.0333975
2508582000 0.278256 -0.0521787
2520580000 0.294307 -0.0829329
2532578000 0.302751 -0.116189
2544576000 0.307735 -0.148145
2556574000 0.30718 -0.181059
2568572000 0.2969 -0.217682
2580570000 0.290956 -0.252232
2592568000 0.279871 -0.293142
2604566000 0.24881 -0.33682
2616564000 0.22252 -0.362943
2628562000 0.191763 -0.398315
2640560000 0.151777 -0.426131
2652558000 0.109424 -0.451089
2664556000 0.0705666 -0.465668
2676554000 0.0324736 -0.481671
2688552000 -0.0103766 -0.488639
2700550000 -0.0479725 -0.492654
2712548000 -0.0901865 -0.497275
2724546000 -0.129975 -0.494418
2736544000 -0.170846 -0.486918
2748542000 -0.210104 -0.466698
2760540000 -0.241186 -0.451896
2772538000 -0.277505 -0.431734
2784536000 -0.306401 -0.404585
2796534000 -0.346767 -0.378922
2808532000 -0.374338 -0.339819
2820530000 -0.396986 -0.302161
2832528000 -0.419346 -0.266487
2844526000 -0.441593 -0.219606
2856524000 -0.458288 -0.174097
2868522000 -0.463131 -0.121892
2880520000 -0.471349 -0.0721959
2892518000 -0.471309 -0.0188967
2904516000 -0.461757 0.0311255
2916514000 -0.44712 0.0769184
2928512000 -0.436853 0.12074
2940510000 -0.420124 0.169873
2952508000 -0.39127 0.216144
2964506000 -0.360787 0.25202
2976504000 -0.332949 0.292295
2988502000 -0.286084 0.330162
3000500000 -0.239443 0.354894
3012498000 -0.194287 0.364912
3024496000 -0.143768 0.38232
3036494000 -0.0981157 0.38865
3048492000 -0.042855 0.389864
3060490000 0.00310036 0.387706
3072488000 0.0593692 0.383624
3084486000 0.116518 0.367909
3096484000 0.168166 0.343233
3108482000 0.214395 0.312382
3120480000 0.255681 0.280707
3132478000 0.297552 0.244174
3144476000 0.333746 0.200331
3156474000 0.356058 0.160048
3168472000 0.384474 0.115178
3180470000 0.401143 0.0676432
3192468000 0.410968 0.0245908
3204466000 0.41988 -0.0183116
3216464000 0.42757 -0.0687496
3228462000 0.421295 -0.117023
3240460000 0.414586 -0.159168
3252458000 0.400596 -0.204565
3264456000 0.388359 -0.243814
3276454000 0.367607 -0.288394
3288452000 0.341054 -0.331135
3300450000 0.310407 -0.367766
3312448000 0.281548 -0.399509
3324446000 0.244261 -0.436674
3336444000 0.211308 -0.467653
3348442000 0.170569 -0.497095
3360440000 0.122814 -0.523037
3372438000 0.0783943 -0.540884
3384436000 0.0313198 -0.556736
3396434000 -0.0166829 -0.565178
3408432000 -0.0628169 -0.56909
3420430000 -0.105537 -0.569353
3432428000 -0.146353 -0.567058
3444426000 -0.189213 -0.560516
3456424000 -0.22763 -0.547016
3468422000 -0.256266 -0.541619
3480420000 -0.306618 -0.519599
3492418000 -0.348044 -0.497155
3504416000 -0.376837 -0.470043
3516414000 -0.414021 -0.443291
3528412000 -0.443455 -0.408301
3540410000 -0.473152 -0.374281
3552408000 -0.499721 -0.334148
3564406000 -0.527234 -0.292925
3576404000 -0.543682 -0.244812
3588402000 -0.560621 -0.204142
3600400000 -0.576067 -0.151942
3612398000 -0.581265 -0.102653
3624396000 -0.581813 -0.0548204
3636394000 -0.583523 -0.0107673
3648392000 -0.580685 0.0369715
3660390000 -0.572714 0.0831033
3672388000 -0.560854 0.128731
3684386000 -0.542265 0.171518
3696384000 -0.521862 0.208606
3708382000 -0.496347 0.243375
3720380000 -0.469666 0.277142
3732378000 -0.43784 0.304312
3744376000 -0.405681 0.331861
3756374000 -0.368343 0.354562
3768372000 -0.327243 0.378121
3780370000 -0.283566 0.394804
3792368000 -0.236677 0.408981
3804366000 -0.186547 0.413371
3816364000 -0.139061 0.416684
3828362000 -0.0893975 0.417625
3840360000 -0.0374665 0.410703
3852358000 0.00906643 0.401765
3864356000 0.0625773 0.389414
3876354000 0.109005 0.3638
3888352000 0.154031 0.339426
3900350000 0.193716 0.30559
3912348000 0.223843 0.267333
3924346000 0.250665 0.233508
3936344000 0.273931 0.19016
3948342000 0.289805 0.14801
3960340000 0.30018 0.102039
3972338000 0.307049 0.0583584
3984336000 0.309854 0.0144731
3996334000 0.300177 -0.0340954
4008332000 0.288278 -0.07662
4020330000 0.276166 -0.117732
4032328000 0.258611 -0.166003
4044326000 0.231765 -0.209121
4056324000 0.200466 -0.24183
4068322000 0.168512 -0.281149
4080320000 0.126294 -0.311017
4092318000 0.0883326 -0.33105
4104316000 0.0500182 -0.349673
4116314000 0.013797 -0.362458
4128312000 -0.0263 -0.380557
4140310000 -0.0641561 -0.386089
4152308000 -0.104593 -0.395438
4164306000 -0.143552 -0.392736
4176304000 -0.181495 -0.389188
4188302000 -0.215772 -0.377172
4200300000 -0.258253 -0.359755
4212298000 -0.291069 -0.331772
4224296000 -0.323307 -0.306402
4236294000 -0.360018 -0.282139
4248292000 -0.389605 -0.245106
4260290000 -0.412014 -0.205189
4272288000 -0.432175 -0.174683
4284286000 -0.448219 -0.13658
4296284000 -0.462427 -0.0998031
4308282000 -0.470858 -0.061634
4320280000 -0.479034 -0.0257102
4332278000 -0.480981 0.0106172
4344276000 -0.483005 0.0441748
4356274000 -0.483324 0.0809321
4368272000 -0.479289 0.113511
4380270000 -0.46706 0.145353
4392268000 -0.456487 0.170308
4404266000 -0.443288 0.195949
4416264000 -0.430424 0.216144
4428262000 -0.415137 0.238192
4440260000 -0.395972 0.255489
4452258000 -0.376549 0.272381
4464256000 -0.350102 0.284002
4476254000 -0.325837 0.291938
4488252000 -0.303619 0.299234
4500250000 -0.282706 0.306741
4512248000 -0.256543 0.317147
4524246000 -0.230322 0.322819
4536244000 -0.203895 0.325959
4548242000 -0.178249 0.329754
4560240000 -0.149632 0.332794
4572238000 -0.124884 0.328958
4584236000 -0.103975 0.3273
4596234000 -0.0816004 0.328815
4608232000 -0.0601609 0.328184
4620230000 -0.0370021 0.32615
4632228000 -0.0205403 0.322111
4644226000 -0.00283187 0.317732
4656224000 0.0166218 0.308649
4668222000 0.0303696 0.300339
4680220000 0.0431854 0.290177
4692218000 0.0573598 0.279099
4704216000 0.0703308 0.265594
4716214000 0.082394 0.246336
4728212000 0.0817656 0.22385
4740210000 0.088756 0.211091
4752208000 0.0987759 0.18383
4764206000 0.0971359 0.152905
4776204000 0.092105 0.127505
4788202000 0.0914846 0.103371
4800200000 0.0835745 0.0714195
4812198000 0.0732392 0.0454757
4824196000 0.0625256 0.0189627
4836194000 0.0491873 -0.00999382
4848192000 0.0284992 -0.0314685
4860190000 0.00833044 -0.0516512
4872188000 -0.0156671 -0.0660179
4884186000 -0.0373646 -0.0728807
4896184000 -0.0637405 -0.0762936
4908182000 -0.0877107 -0.0737576
4920180000 -0.109463 -0.0685558
4932178000 -0.131222 -0.0561695
4944176000 -0.153126 -0.0364143
4956174000 -0.168561 -0.01518
4968172000 -0.187544 0.00873664
4980170000 -0.199256 0.0362966
4992168000 -0.207856 0.0691596
5004166000 -0.212512 0.0967979
5016164000 -0.217028 0.128293
5028162000 -0.213096 0.157502
5040160000 -0.208667 0.183631
5052158000 -0.202528 0.20505
5064156000 -0.196972 0.225763
5076154000 -0.183757 0.242854
5088152000 -0.170402 0.255736
5100150000 -0.159347 0.265689
5112148000 -0.147403 0.276537
5124146000 -0.125296 0.281679
5136144000 -0.103881 0.277495
5148142000 -0.0858862 0.274611
5160140000 -0.0620235 0.268361
5172138000 -0.0423609 0.254305
5184136000 -0.0243021 0.240318
5196134000 -0.00540518 0.222922
5208132000 0.0114828 0.200641
5220130000 0.0267463 0.179748
5232128000 0.0407703 0.15761
5244126000 0.048148 0.136346
5256124000 0.0535806 0.115377
5268122000 0.0527379 0.0929697
5280120000 0.0434434 0.0903976
5292118000 0.0286929 0.082744
5304116000 0.010222 0.0801537
5316114000 -0.0121789 0.0817211
5328112000 -0.0372165 0.0872604
5340110000 -0.0655542 0.095207
5352108000 -0.0910454 0.1079
5364106000 -0.119193 0.120484
5376104000 -0.143128 0.142811
5388102000 -0.15929 0.165514
5400100000 -0.173526 0.190099
5412098000 -0.182942 0.215539
5424096000 -0.189874 0.242429
5436094000 -0.18707 0.271253
5448092000 -0.179415 0.297713
5460090000 -0.166527 0.315252
5472088000 -0.153153 0.334495
5484086000 -0.133604 0.352616
5496084000 -0.109433 0.367747
5508082000 -0.0790435 0.379061
5520080000 -0.0477024 0.383825
5532078000 -0.0169846 0.384769
5544076000 0.0178073 0.385611
5556074000 0.0509693 0.380478
5568072000 0.0851001 0.372908
5580070000 0.117057 0.362045
5592068000 0.149311 0.350039
5604066000 0.177394 0.332747
5616064000 0.205116 0.3136
5628062000 0.223897 0.292417
5640060000 0.239667 0.271813
5652058000 0.252479 0.250564
5664056000 0.259402 0.230802
5676054000 0.263544 0.205715
5688052000 0.260549 0.184609
5700050000 0.253703 0.166139
5712048000 0.242934 0.147583
5724046000 0.227645 0.130369
5736044000 0.208218 0.111554
5748042000 0.185742 0.0972511
5760040000 0.161438 0.0851775
5772038000 0.134854 0.0770436
5784036000 0.109891 0.0718045
5796034000 0.0876601 0.0697385
5808032000 0.0627362 0.0707522
5820030000 0.0441824 0.0768683
5832028000 0.0297661 0.0830868
5844026000 0.0197576 0.0920833
5856024000 0.0127232 0.104624
5868022000 0.012934 0.120938
5880020000 0.0162655 0.13793
5892018000 0.0281075 0.153023
5904016000 0.0415876 0.170222
5916014000 0.0610252 0.185571
5928012000 0.0812191 0.202017
5940010000 0.105898 0.215586
5952008000 0.132616 0.228219
5964006000 0.159658 0.237595
5976004000 0.191313 0.24379
5988002000 0.2166 0.246305
6000000000 0.246248 0.242915
