# Hz S RI R 50
1000000 1.00367 -0.00045296 -0.000411367 -0.0015729 -0.000485067 0.000232992 0.996643 -0.0149232
12998000 0.983479 -0.0731653 3.59445e-05 -4.5525e-05 3.06326e-05 5.41334e-05 0.985355 -0.068405
24996000 0.97316 -0.132872 -4.96113e-05 -3.99824e-05 -2.26554e-05 1.13546e-05 0.97477 -0.133264
36994000 0.96409 -0.190414 2.27362e-05 4.27041e-05 -1.27758e-05 -3.08887e-05 0.96574 -0.192064
48992000 0.951003 -0.249008 -3.41533e-05 5.49716e-05 1.49837e-05 1.05985e-05 0.951881 -0.252384
60990000 0.934276 -0.306644 3.08732e-05 4.17095e-05 2.58804e-06 2.81014e-05 0.934339 -0.31137
72988000 0.913713 -0.363049 -3.72506e-06 6.34231e-05 7.74409e-06 2.58337e-05 0.912474 -0.368588
84986000 0.889807 -0.4182 2.04055e-05 5.65147e-05 1.7461e-05 2.9529e-05 0.886973 -0.42394
96984000 0.862206 -0.471566 4.06322e-05 6.4514e-05 4.25292e-05 5.52035e-05 0.858639 -0.477154
108982000 0.831304 -0.522791 5.60913e-05 9.6305e-05 3.35274e-05 4.13993e-05 0.827359 -0.527212
120980000 0.798007 -0.571343 3.77916e-05 6.2425e-05 7.45079e-05 6.32746e-05 0.793486 -0.574831
132978000 0.761728 -0.617634 7.08436e-05 0.000107793 7.97152e-05 0.000129637 0.757619 -0.620106
144976000 0.723713 -0.661574 0.000346209 0.000345989 0.000287881 0.000348822 0.719727 -0.662353
156974000 0.682775 -0.701938 0.00133744 0.000618469 0.00136457 0.000602227 0.679282 -0.701741
168972000 0.643095 -0.73721 -0.000584697 -0.000657995 -0.000572483 -0.000622543 0.640168 -0.736178
180970000 0.601215 -0.770596 -0.000321921 -0.000182138 -0.000330993 -0.000208607 0.598269 -0.768858
192968000 0.558135 -0.800667 -0.000336781 -7.08438e-05 -0.000298638 -7.69517e-05 0.555328 -0.799051
204966000 0.514972 -0.828378 -0.000287891 7.97233e-05 -0.00023031 -1.80189e-06 0.512573 -0.825936
216964000 0.47164 -0.852182 -0.000124511 -1.94435e-08 -0.000158265 6.24459e-05 0.468874 -0.850685
228962000 0.42869 -0.873758 -7.34817e-05 5.62248e-05 -0.000114945 6.14479e-05 0.425469 -0.872791
240960000 0.385123 -0.892878 -9.31745e-05 0.000117476 -5.47654e-05 2.64412e-05 0.380769 -0.892297
252958000 0.341134 -0.910124 -0.00012732 6.46019e-05 -9.23506e-05 3.87971e-05 0.335876 -0.910745
264956000 0.298734 -0.924315 -7.83197e-05 -1.3477e-05 -6.61313e-05 -4.66889e-06 0.291462 -0.92558
276954000 0.256599 -0.936353 -8.23281e-05 8.84235e-05 -8.87701e-05 2.76851e-05 0.246238 -0.939396
288952000 0.21416 -0.947426 -0.000104398 0.000139847 -0.000148619 0.000166189 0.20105 -0.950505
300950000 0.172309 -0.955907 3.13562e-05 0.000244604 2.22268e-05 0.000176164 0.156319 -0.959484
312948000 0.131753 -0.962412 0.000133646 9.5578e-05 7.27263e-05 0.000104676 0.111358 -0.96687
324946000 0.0889245 -0.966833 9.46983e-05 4.77082e-05 8.86409e-05 6.82249e-05 0.0690002 -0.971597
336944000 0.0482272 -0.969943 2.12483e-05 6.82044e-05 7.88146e-05 4.83582e-05 0.0253464 -0.973908
348942000 0.00740163 -0.970693 2.4107e-05 3.5475e-05 5.43299e-05 9.4987e-06 -0.0173931 -0.974583
360940000 -0.0325587 -0.970139 6.91136e-05 1.57149e-05 5.26293e-05 6.25381e-06 -0.0592359 -0.973405
372938000 -0.0717762 -0.968244 4.22955e-05 -9.03581e-06 5.27467e-05 -1.52014e-05 -0.0988924 -0.970788
384936000 -0.110324 -0.965198 8.26991e-05 -6.69472e-05 5.87758e-05 1.76397e-05 -0.138183 -0.966408
396934000 -0.147247 -0.960398 7.78991e-05 4.55339e-07 5.07392e-05 1.83731e-05 -0.175628 -0.960442
408932000 -0.182496 -0.95515 7.91743e-05 4.26575e-05 2.83727e-05 -1.27651e-05 -0.21161 -0.953035
420930000 -0.217215 -0.948191 3.91953e-05 -5.47307e-05 5.93258e-05 -1.0083e-05 -0.245788 -0.944648
432928000 -0.250678 -0.939596 3.5579e-05 -3.30292e-05 5.59975e-05 -1.00133e-05 -0.278764 -0.935448
444926000 -0.28169 -0.929805 8.92121e-05 -3.77824e-06 7.24678e-05 1.36851e-05 -0.3099 -0.923493
456924000 -0.312598 -0.920147 3.26248e-05 -1.87163e-05 3.81846e-05 -5.69367e-05 -0.340049 -0.912068
468922000 -0.34213 -0.909342 1.87022e-05 -6.71538e-05 6.78335e-05 -7.2261e-05 -0.368376 -0.900733
480920000 -0.371366 -0.896959 0.000107038 -0.000129825 7.85164e-05 -3.14424e-05 -0.395734 -0.88683
492918000 -0.399532 -0.884404 6.78193e-05 -0.00011713 0.000102804 -0.000121344 -0.423803 -0.87377
504916000 -0.425585 -0.87168 0.000143433 -0.000228704 0.000112424 -0.000177878 -0.449867 -0.860531
516914000 -0.451942 -0.858826 -3.41064e-05 -0.000285635 -5.71473e-06 -0.000290803 -0.47582 -0.846741
528912000 -0.477205 -0.845311 -0.000228578 -0.000268337 -0.000187198 -0.000286757 -0.501641 -0.83245
540910000 -0.501473 -0.831387 -0.000378572 -0.000148071 -0.000329624 -0.00011671 -0.525908 -0.818097
552908000 -0.525496 -0.817112 -0.000255447 0.000110966 -0.000256149 7.71742e-05 -0.550909 -0.803042
564906000 -0.548836 -0.802862 -0.000197324 0.000220481 -0.000168086 0.000191034 -0.576165 -0.786881
576904000 -0.571928 -0.787806 -8.72744e-05 0.000181615 -7.77382e-05 0.000116847 -0.600243 -0.770488
588902000 -0.59481 -0.772925 -4.58691e-05 8.49082e-05 -3.53081e-05 0.000121957 -0.6235 -0.753498
600900000 -0.615694 -0.756855 3.32359e-05 0.00013373 -2.42565e-05 6.93706e-05 -0.645715 -0.735849
612898000 -0.635866 -0.740043 1.18285e-05 9.67445e-05 1.36592e-05 3.50235e-05 -0.665677 -0.718861
624896000 -0.655974 -0.723599 -7.78217e-07 8.90709e-05 -3.33596e-05 7.54675e-05 -0.685983 -0.699572
636894000 -0.674931 -0.706976 2.43746e-05 7.02218e-05 2.00169e-05 5.11886e-05 -0.705651 -0.68055
648892000 -0.692632 -0.689579 1.31388e-05 7.44215e-05 4.25818e-05 1.46085e-05 -0.723652 -0.660938
660890000 -0.710034 -0.67301 6.37768e-05 3.92267e-05 3.51374e-05 3.32358e-05 -0.740397 -0.641551
672888000 -0.725746 -0.655602 2.05767e-05 2.02938e-05 3.85498e-05 3.97287e-05 -0.755581 -0.621695
684886000 -0.74028 -0.638357 2.44424e-05 -1.28675e-05 4.99437e-05 1.04399e-05 -0.769872 -0.601956
696884000 -0.754185 -0.621938 7.01158e-06 8.55814e-07 3.20844e-05 2.28177e-05 -0.782945 -0.583627
708882000 -0.766709 -0.605384 6.30297e-06 2.59712e-05 3.53837e-05 -1.23768e-05 -0.794516 -0.564084
720880000 -0.778411 -0.588634 -2.21412e-05 -3.79371e-05 4.76868e-05 3.75999e-05 -0.806751 -0.545907
732878000 -0.79089 -0.570979 3.41169e-05 -3.08778e-05 3.04207e-05 2.92979e-05 -0.818028 -0.527868
744876000 -0.80246 -0.552958 3.21258e-05 -6.81899e-05 1.96225e-05 -4.29747e-05 -0.828548 -0.508679
756874000 -0.812802 -0.53564 4.33718e-05 -8.22478e-05 2.93752e-05 -3.93811e-05 -0.839317 -0.490249
768872000 -0.824481 -0.517814 5.79793e-05 2.38894e-05 -1.3175e-05 -3.28183e-05 -0.849791 -0.472265
780870000 -0.835392 -0.498895 2.36992e-05 4.65711e-05 -1.09863e-05 -1.94959e-05 -0.859689 -0.454501
792868000 -0.845212 -0.480212 5.00817e-05 -6.15784e-05 1.73466e-05 -5.696e-05 -0.870566 -0.437592
804866000 -0.855398 -0.461691 5.92798e-05 2.35976e-05 -2.30172e-05 -3.38361e-05 -0.880923 -0.420058
816864000 -0.866134 -0.443274 1.98176e-05 -3.70535e-06 3.67196e-06 -4.35699e-05 -0.89198 -0.402736
828862000 -0.877001 -0.424792 -3.64898e-05 1.52878e-05 -2.29024e-05 5.16747e-06 -0.901778 -0.384648
840860000 -0.885645 -0.405426 -6.27595e-05 -4.76649e-05 -3.01117e-05 -1.62768e-05 -0.911881 -0.367041
852858000 -0.894818 -0.386649 -4.75137e-06 2.00528e-05 -1.87962e-05 -9.71818e-06 -0.919556 -0.350051
864856000 -0.903207 -0.367424 -5.73543e-05 -2.59505e-05 -2.26387e-05 -2.72727e-05 -0.926422 -0.332063
876854000 -0.910974 -0.349255 4.43956e-05 -1.06088e-06 -5.11873e-06 6.52525e-06 -0.933744 -0.315398
888852000 -0.918743 -0.332 -4.4237e-05 2.48652e-05 -4.03534e-05 2.25461e-05 -0.940903 -0.298377
900850000 -0.924444 -0.31438 -1.60326e-05 -5.14096e-05 8.83024e-07 1.09791e-05 -0.946774 -0.27997
912848000 -0.930753 -0.297783 1.6358e-05 -2.83394e-05 -1.10063e-05 -1.64826e-05 -0.951989 -0.262872
924846000 -0.935849 -0.281639 -1.83847e-06 -8.41286e-06 -3.19418e-05 3.50525e-05 -0.956574 -0.245229
936844000 -0.940255 -0.266636 -1.49778e-05 8.19566e-06 -4.7001e-05 2.16716e-05 -0.960367 -0.227933
948842000 -0.944981 -0.253755 -1.95788e-05 1.12507e-05 -2.83315e-05 5.2591e-05 -0.962978 -0.210952
960840000 -0.948887 -0.242023 -1.53476e-05 1.89649e-05 -3.65666e-05 5.60582e-05 -0.965843 -0.193154
972838000 -0.953156 -0.227885 -2.96174e-06 6.69017e-05 1.2101e-05 7.34901e-05 -0.96823 -0.177119
984836000 -0.955356 -0.215568 3.41562e-05 7.42056e-05 6.22982e-06 0.000104426 -0.969582 -0.160553
996834000 -0.958272 -0.202095 8.76616e-06 0.000102477 -1.35207e-05 8.14334e-05 -0.970957 -0.144011
1008832000 -0.96086 -0.189221 4.30609e-05 2.50469e-05 4.28362e-05 5.21399e-05 -0.972002 -0.127487
1020830000 -0.962227 -0.176113 -3.036e-05 -7.95452e-06 3.7788e-05 3.26062e-05 -0.972982 -0.112185
1032828000 -0.963594 -0.162847 -3.27873e-06 -5.65146e-05 7.11513e-05 3.49277e-05 -0.973304 -0.0975609
1044826000 -0.965155 -0.150565 2.41062e-06 -1.02703e-05 2.02026e-05 -6.72589e-06 -0.974673 -0.0836672
1056824000 -0.967205 -0.136489 3.95151e-05 -8.64056e-05 1.65466e-05 -2.94047e-05 -0.976151 -0.0667767
1068822000 -0.969426 -0.120947 2.15334e-05 -3.7055e-05 -8.9885e-06 -9.13423e-06 -0.976944 -0.0517192
1080820000 -0.97034 -0.104944 2.00969e-05 -4.95325e-05 -1.53524e-05 6.13656e-07 -0.978152 -0.0366997
1092818000 -0.971205 -0.0883089 2.43093e-05 -9.6812e-05 -2.39727e-05 -4.37884e-05 -0.978277 -0.0206889
1104816000 -0.972016 -0.0740298 1.10134e-05 5.71146e-06 2.53043e-05 -2.5712e-05 -0.979062 -0.00672682
1116814000 -0.973332 -0.0572792 3.07758e-05 -5.29425e-05 6.44649e-06 -4.9044e-05 -0.978618 0.00887456
1128812000 -0.974633 -0.0388458 2.75301e-05 -5.61468e-05 -1.82561e-05 -2.79842e-05 -0.978505 0.024554
1140810000 -0.975339 -0.0241777 1.68572e-05 -1.46402e-05 -8.91006e-06 -5.13515e-05 -0.978082 0.041073
1152808000 -0.975632 -0.00593293 1.84323e-05 -1.94089e-05 -1.59248e-05 -2.90547e-05 -0.979016 0.0548514
1164806000 -0.976213 0.0110201 -7.86889e-06 3.31521e-05 -1.91711e-05 3.12906e-05 -0.978139 0.072253
1176804000 -0.97505 0.0280766 -7.95418e-06 6.12558e-06 -6.22886e-05 5.25463e-06 -0.977255 0.0878998
1188802000 -0.975584 0.0411678 -4.56093e-05 6.46013e-05 -1.84777e-05 -2.82823e-05 -0.976238 0.102068
1200800000 -0.975317 0.0534866 9.29957e-06 -1.121e-05 -7.35919e-06 -1.81283e-06 -0.974738 0.116517
1212798000 -0.976264 0.0645287 2.28664e-05 1.06666e-05 -3.3533e-06 3.08116e-06 -0.973407 0.13036
1224796000 -0.979159 0.0755122 2.79397e-05 3.47774e-05 -2.11954e-05 1.22849e-05 -0.971662 0.143669
1236794000 -0.979014 0.0909527 -3.70114e-05 9.07609e-06 3.10337e-07 2.404e-05 -0.970064 0.157424
1248792000 -0.976877 0.100202 -4.88131e-05 3.97619e-05 1.64277e-05 4.57295e-05 -0.966943 0.171786
1260790000 -0.975551 0.11001 -1.54525e-05 9.33773e-06 -2.06989e-05 2.57031e-05 -0.963306 0.186533
1272788000 -0.974579 0.117805 -3.43925e-05 4.2774e-06 -3.03965e-05 2.44951e-05 -0.962345 0.201014
1284786000 -0.970898 0.125905 -4.17016e-05 -2.1389e-07 -1.15153e-05 2.05251e-05 -0.958185 0.214332
1296784000 -0.968291 0.134084 7.52727e-06 -1.30695e-05 3.881e-05 1.38399e-05 -0.956726 0.226404
1308782000 -0.965161 0.143786 2.82368e-05 -4.56071e-05 8.78551e-08 5.77843e-06 -0.9521 0.23905
1320780000 -0.962907 0.153042 -4.83626e-05 -1.23483e-06 2.96482e-06 -1.20595e-06 -0.949217 0.252652
1332778000 -0.961515 0.161346 4.49527e-05 -2.20755e-05 -3.59538e-06 9.43765e-06 -0.945632 0.265537
1344776000 -0.960163 0.170014 5.39451e-05 -4.20158e-05 3.19382e-05 1.20668e-05 -0.941131 0.277866
1356774000 -0.958636 0.177873 1.59796e-05 3.41515e-05 -3.84998e-06 7.01116e-06 -0.937953 0.288947
1368772000 -0.95814 0.187572 -9.21402e-06 3.52893e-05 -6.913e-07 3.04931e-05 -0.934321 0.301594
1380770000 -0.955915 0.197652 -2.82067e-05 1.79527e-05 -7.28293e-07 -4.53505e-05 -0.930695 0.312078
1392768000 -0.953038 0.209442 -5.78956e-05 3.32378e-05 1.38915e-05 -6.35377e-06 -0.926667 0.322611
1404766000 -0.950688 0.222633 1.95656e-05 3.87863e-05 -9.5624e-06 2.07802e-05 -0.923413 0.335734
1416764000 -0.948585 0.235544 -1.5298e-05 5.337e-05 1.47495e-05 2.06429e-05 -0.920751 0.346512
1428762000 -0.946125 0.247106 -6.1703e-05 2.17894e-05 4.89902e-05 3.23877e-05 -0.917431 0.357608
1440760000 -0.941959 0.259841 -1.22532e-05 2.38845e-05 2.88488e-05 3.47173e-06 -0.913144 0.368432
1452758000 -0.938436 0.271721 -1.47173e-05 -3.95427e-05 5.01098e-06 -3.21605e-05 -0.90964 0.37921
1464756000 -0.935728 0.284627 -4.09341e-05 -2.60146e-05 -7.73994e-07 -2.93649e-05 -0.905326 0.390324
1476754000 -0.932492 0.299148 -5.73437e-05 4.07082e-05 -1.41945e-06 -3.00237e-05 -0.899529 0.401436
1488752000 -0.928537 0.313306 -4.15532e-05 -2.46318e-05 -5.49126e-06 -4.75789e-06 -0.893965 0.412253
1500750000 -0.922701 0.327891 -1.91746e-05 -6.31078e-06 3.00274e-05 -1.02143e-05 -0.886482 0.425748
1512748000 -0.917602 0.338782 1.66704e-05 -1.33957e-05 2.71674e-05 -1.41049e-06 -0.881019 0.434768
1524746000 -0.910383 0.349565 1.11129e-05 -4.48429e-05 -9.50299e-07 -2.4006e-05 -0.874963 0.445409
1536744000 -0.904718 0.360934 -2.22874e-05 -2.77176e-05 -2.0473e-05 -3.24413e-06 -0.869456 0.455278
1548742000 -0.897676 0.371851 1.27109e-05 2.40955e-05 -1.61954e-05 -1.66376e-05 -0.863313 0.465609
1560740000 -0.892828 0.383508 2.82477e-06 4.14954e-05 6.29065e-07 5.82895e-06 -0.858212 0.47555
1572738000 -0.887399 0.395015 -1.44838e-05 -1.32263e-05 -1.65449e-05 4.39907e-06 -0.852061 0.485719
1584736000 -0.883403 0.405342 1.01589e-05 3.08942e-06 -2.21654e-05 1.34881e-05 -0.845315 0.495604
1596734000 -0.880112 0.415477 -3.15353e-05 -2.39167e-05 -1.9571e-05 1.40113e-06 -0.83919 0.505273
1608732000 -0.877048 0.424712 -2.69878e-05 -6.26737e-06 5.51635e-06 6.75555e-06 -0.833227 0.513405
1620730000 -0.873708 0.433249 -3.29944e-06 -2.26329e-05 3.16305e-06 3.14073e-05 -0.826899 0.523756
1632728000 -0.870862 0.441934 -5.38702e-05 1.69001e-05 1.59121e-05 -6.54576e-06 -0.821633 0.532154
1644726000 -0.867354 0.4492 -5.23532e-05 -2.57316e-06 -5.07443e-06 1.50614e-05 -0.815284 0.539389
1656724000 -0.864119 0.458364 -7.72479e-06 -1.1087e-05 -1.8885e-05 -3.5606e-05 -0.811154 0.548627
1668722000 -0.860846 0.465138 -1.71382e-05 -1.34629e-06 -1.20986e-05 3.75283e-05 -0.804938 0.558515
1680720000 -0.859748 0.474432 -6.01284e-05 3.79545e-05 -3.20078e-05 1.83884e-05 -0.801181 0.566714
1692718000 -0.856244 0.483302 -5.62305e-05 -1.55335e-05 -3.21239e-05 -3.26284e-06 -0.795423 0.576213
1704716000 -0.85353 0.490542 4.64396e-06 5.91986e-05 2.53156e-05 -2.33645e-05 -0.790172 0.585903
1716714000 -0.84752 0.501452 3.41885e-06 8.79115e-05 -4.15828e-05 7.25518e-06 -0.781688 0.59354
1728712000 -0.843653 0.510573 -4.06525e-05 9.85362e-05 -3.45676e-05 7.59704e-05 -0.777582 0.601777
1740710000 -0.838398 0.51815 3.4264e-05 6.59712e-05 2.29238e-06 -1.39116e-05 -0.769379 0.608011
1752708000 -0.833105 0.526696 4.74251e-05 -7.05872e-06 -3.07945e-05 3.06405e-05 -0.762251 0.618097
1764706000 -0.825855 0.53453 5.42945e-05 9.78679e-05 -6.08763e-06 4.88181e-05 -0.75642 0.625982
1776704000 -0.817101 0.544126 7.84429e-06 6.26165e-05 -8.03629e-06 5.65177e-05 -0.751963 0.634812
1788702000 -0.807116 0.553555 -2.49567e-05 5.17933e-05 2.33567e-07 4.75415e-06 -0.745034 0.644722
1800700000 -0.797216 0.562079 -2.32346e-05 7.69345e-05 -3.99069e-06 5.96307e-05 -0.737098 0.653122
1812698000 -0.786076 0.574085 -2.39125e-05 5.67209e-06 2.80018e-05 1.48642e-07 -0.731385 0.662122
1824696000 -0.775332 0.583776 2.16368e-05 1.29322e-05 9.30923e-06 5.04714e-05 -0.723576 0.670302
1836694000 -0.765211 0.596867 1.54878e-05 -2.59421e-06 9.80784e-06 5.3638e-05 -0.714734 0.679316
1848692000 -0.755272 0.607892 9.58566e-06 6.70311e-05 -2.85265e-05 2.37969e-05 -0.706193 0.68661
1860690000 -0.745475 0.618711 -2.1266e-05 4.65914e-05 4.64374e-05 5.01783e-05 -0.697647 0.695243
1872688000 -0.737168 0.627901 3.49248e-05 6.51292e-05 1.21688e-05 4.4996e-05 -0.688452 0.703387
1884686000 -0.729777 0.638512 7.93171e-05 5.27124e-05 2.09101e-05 7.04476e-05 -0.679886 0.711621
1896684000 -0.723962 0.647015 7.38735e-05 3.9847e-05 4.37629e-05 6.21746e-05 -0.67216 0.718498
1908682000 -0.719062 0.657026 5.90485e-05 3.05659e-05 1.97079e-05 6.88665e-05 -0.663978 0.728076
1920680000 -0.715634 0.666282 6.76203e-05 7.98126e-05 2.75749e-05 4.29587e-05 -0.656008 0.735842
1932678000 -0.712751 0.674847 6.1878e-05 0.000105246 5.366e-05 5.67462e-05 -0.647452 0.744772
1944676000 -0.709675 0.681736 4.88599e-05 0.000104175 6.52958e-05 7.7767e-05 -0.638564 0.752128
1956674000 -0.708629 0.688533 3.30087e-05 0.000125269 2.79652e-05 8.54542e-05 -0.630382 0.758733
1968672000 -0.707745 0.695901 8.83036e-05 6.24494e-05 9.79789e-05 6.78116e-05 -0.622274 0.765623
1980670000 -0.708027 0.700865 8.46479e-05 8.95914e-05 3.74491e-05 2.8173e-05 -0.614632 0.774066
1992668000 -0.705591 0.707259 4.07065e-05 7.07848e-07 8.26659e-05 3.50867e-05 -0.604157 0.779277
2004666000 -0.703906 0.710571 9.9839e-05 1.12821e-05 6.8921e-05 -1.4078e-05 -0.596695 0.784683
2016664000 -0.700282 0.713853 0.000104501 -4.00396e-05 4.32969e-05 2.02901e-05 -0.588586 0.790984
2028662000 -0.695805 0.715651 0.000189873 6.49333e-05 6.57937e-05 2.56069e-05 -0.580084 0.797336
2040660000 -0.68822 0.718809 8.33001e-05 1.91322e-05 0.000110255 8.84715e-06 -0.570866 0.802462
2052658000 -0.678864 0.721497 0.000187451 1.04944e-05 7.71304e-05 4.47687e-06 -0.563443 0.80881
2064656000 -0.668197 0.725128 0.000157743 -2.07102e-05 7.63733e-05 -1.4376e-05 -0.556223 0.813178
2076654000 -0.655722 0.729391 8.20258e-05 7.88381e-06 0.000111746 -1.92502e-05 -0.548746 0.817688
2088652000 -0.641459 0.735054 0.000105119 -2.14103e-05 8.75293e-05 -1.52154e-05 -0.541822 0.820925
2100650000 -0.626597 0.739364 0.000120752 -6.48742e-05 0.000120032 -1.72575e-06 -0.533687 0.82352
2112648000 -0.611999 0.748662 0.000117707 -0.000106621 0.000125839 -2.2477e-05 -0.524545 0.828694
2124646000 -0.596534 0.758169 8.76001e-05 -3.65894e-05 0.000103419 -5.1072e-05 -0.514614 0.834616
2136644000 -0.581043 0.767805 0.000143446 -5.18919e-05 0.000107564 -6.48164e-05 -0.505033 0.839699
2148642000 -0.568175 0.779925 0.000114905 -6.99345e-05 9.76036e-05 -6.91467e-05 -0.495717 0.844852
2160640000 -0.555732 0.790815 0.000141247 -6.90426e-05 0.000102689 -6.6939e-05 -0.486681 0.849982
2172638000 -0.543079 0.80559 7.38382e-05 -8.4187e-05 0.000113732 -8.62631e-05 -0.476827 0.856367
2184636000 -0.534331 0.81644 4.40816e-05 -9.9049e-05 8.04812e-05 -8.88039e-05 -0.465927 0.861567
2196634000 -0.528257 0.826431 9.55279e-05 -0.00010308 5.23379e-05 -9.34402e-05 -0.456031 0.868855
2208632000 -0.522185 0.838586 9.97454e-05 -0.000147613 8.20475e-05 -8.59841e-05 -0.447534 0.873585
2220630000 -0.517011 0.848708 4.18582e-05 -0.000148592 4.85304e-05 -0.000128522 -0.437899 0.882061
2232628000 -0.515201 0.854215 0.000121903 -0.000126922 4.20655e-05 -9.08441e-05 -0.429111 0.88737
2244626000 -0.513809 0.857252 -3.86942e-06 -0.000166947 1.13179e-05 -9.32114e-05 -0.420337 0.894059
2256624000 -0.510045 0.862463 9.76861e-05 -0.000165971 3.37835e-05 -0.000107506 -0.409384 0.901248
2268622000 -0.506998 0.862877 7.8092e-05 -0.000151066 3.69704e-05 -0.000104016 -0.400233 0.906972
2280620000 -0.504568 0.864238 0.000108468 -0.000136484 -7.01294e-06 -0.000125906 -0.390974 0.912796
2292618000 -0.505659 0.86391 -3.38839e-05 -0.000171921 -1.51974e-05 -0.000166966 -0.380371 0.914814
2304616000 -0.504655 0.861396 3.13683e-05 -8.98684e-05 -1.78838e-05 -0.000143909 -0.373032 0.91703
2316614000 -0.499763 0.857802 -3.3394e-05 -0.000103576 8.83924e-06 -9.63772e-05 -0.364055 0.921308
2328612000 -0.493382 0.856841 6.87598e-05 -0.000250987 -6.43113e-07 -0.000104189 -0.355138 0.924385
2340610000 -0.483527 0.855103 2.31914e-06 -9.01852e-05 -2.96133e-05 -0.000145372 -0.346767 0.9257
2352608000 -0.473704 0.855308 6.13635e-05 -0.000101409 -7.49739e-06 -0.000127354 -0.336554 0.927091
2364606000 -0.46328 0.854491 -9.36138e-05 -0.00016509 -3.70831e-05 -0.000103221 -0.324514 0.927122
2376604000 -0.452452 0.857486 1.68097e-05 -0.000100227 8.55623e-07 -0.000159292 -0.316853 0.928855
2388602000 -0.437773 0.862756 1.33679e-05 -0.000100437 -9.61792e-06 -0.000130726 -0.305757 0.930588
2400600000 -0.426772 0.867193 -9.66274e-06 -0.000136909 -4.86578e-05 -0.000157149 -0.298538 0.933834
2412598000 -0.414293 0.874102 -5.93582e-05 -5.8801e-05 -4.8271e-05 -0.000146382 -0.289026 0.936423
2424596000 -0.403159 0.882979 -7.04949e-05 -0.00015207 -1.91848e-05 -0.000154798 -0.280971 0.937678
