# Hz S RI R 50
1000000 1.0002 -0.00293558
12998000 0.98278 -0.0736153
24996000 0.97192 -0.133344
36994000 0.963032 -0.190875
48992000 0.949928 -0.249588
60990000 0.932802 -0.307426
72988000 0.911975 -0.364374
84986000 0.887783 -0.419625
96984000 0.860002 -0.473349
108982000 0.828548 -0.524792
120980000 0.794919 -0.573176
132978000 0.758048 -0.619777
144976000 0.719522 -0.663195
156974000 0.678493 -0.702682
168972000 0.638333 -0.738527
180970000 0.596332 -0.771894
192968000 0.552511 -0.801717
204966000 0.508876 -0.8291
216964000 0.465288 -0.85283
228962000 0.421963 -0.874383
240960000 0.377943 -0.893561
252958000 0.333908 -0.910275
264956000 0.291524 -0.924463
276954000 0.249224 -0.936517
288952000 0.206679 -0.94712
300950000 0.164438 -0.955572
312948000 0.123384 -0.962039
324946000 0.0805863 -0.966102
336944000 0.039642 -0.968963
348942000 -0.00148044 -0.969284
360940000 -0.0417088 -0.968344
372938000 -0.0815803 -0.965923
384936000 -0.120488 -0.962344
396934000 -0.157456 -0.957276
408932000 -0.193197 -0.950715
420930000 -0.228398 -0.943496
432928000 -0.261675 -0.934125
444926000 -0.292643 -0.923769
456924000 -0.323205 -0.913484
468922000 -0.35356 -0.901273
480920000 -0.382437 -0.888831
492918000 -0.410417 -0.875125
504916000 -0.43611 -0.861921
516914000 -0.462025 -0.848501
528912000 -0.487421 -0.835091
540910000 -0.512019 -0.820884
552908000 -0.535835 -0.806412
564906000 -0.559428 -0.792004
576904000 -0.582663 -0.77602
588902000 -0.604707 -0.760492
600900000 -0.625582 -0.743829
612898000 -0.646727 -0.726882
624896000 -0.666493 -0.709756
636894000 -0.685343 -0.692646
648892000 -0.703059 -0.674824
660890000 -0.720014 -0.657551
672888000 -0.735404 -0.639975
684886000 -0.750154 -0.62194
696884000 -0.762936 -0.605572
708882000 -0.775948 -0.588135
720880000 -0.787519 -0.570499
732878000 -0.798713 -0.553325
744876000 -0.80975 -0.534993
756874000 -0.820286 -0.51697
768872000 -0.831676 -0.499006
780870000 -0.842015 -0.479844
792868000 -0.851578 -0.461268
804866000 -0.861774 -0.44224
816864000 -0.872077 -0.42343
828862000 -0.881915 -0.405359
840860000 -0.890911 -0.385421
852858000 -0.899232 -0.365901
864856000 -0.906912 -0.347029
876854000 -0.914577 -0.32868
888852000 -0.922139 -0.311058
900850000 -0.927466 -0.293795
912848000 -0.933191 -0.276768
924846000 -0.938125 -0.260441
936844000 -0.942292 -0.245576
948842000 -0.946455 -0.232611
960840000 -0.951258 -0.219559
972838000 -0.954349 -0.206283
984836000 -0.956256 -0.19281
996834000 -0.958725 -0.178665
1008832000 -0.960761 -0.165463
1020830000 -0.961964 -0.15198
1032828000 -0.963091 -0.138691
1044826000 -0.964193 -0.125516
1056824000 -0.96574 -0.111278
1068822000 -0.967235 -0.095396
1080820000 -0.966684 -0.0788969
1092818000 -0.968946 -0.0628645
1104816000 -0.967783 -0.0474713
1116814000 -0.969598 -0.0306443
1128812000 -0.970159 -0.0128101
1140810000 -0.969204 0.00229185
1152808000 -0.970259 0.0210529
1164806000 -0.969961 0.03839
1176804000 -0.968826 0.0547978
1188802000 -0.969079 0.0681082
1200800000 -0.968345 0.0806131
1212798000 -0.969443 0.0915678
1224796000 -0.972415 0.102034
1236794000 -0.970928 0.118731
1248792000 -0.969238 0.127145
1260790000 -0.968316 0.136501
1272788000 -0.96567 0.146195
1284786000 -0.962209 0.153941
1296784000 -0.959198 0.163206
1308782000 -0.955489 0.172393
1320780000 -0.953257 0.182078
1332778000 -0.951434 0.190793
1344776000 -0.949288 0.200156
1356774000 -0.947681 0.208158
1368772000 -0.945259 0.219186
1380770000 -0.943175 0.230423
1392768000 -0.939773 0.242235
1404766000 -0.935953 0.255749
1416764000 -0.932669 0.269152
1428762000 -0.929229 0.281856
1440760000 -0.925064 0.293902
1452758000 -0.921377 0.306971
1464756000 -0.917811 0.320611
1476754000 -0.914032 0.335054
1488752000 -0.909225 0.349544
1500750000 -0.903428 0.36239
1512748000 -0.897188 0.374857
1524746000 -0.890895 0.385464
1536744000 -0.883533 0.39708
1548742000 -0.876737 0.408101
1560740000 -0.870124 0.418866
1572738000 -0.86523 0.430313
1584736000 -0.860958 0.439955
1596734000 -0.857285 0.449584
1608732000 -0.853594 0.458483
1620730000 -0.849773 0.466696
1632728000 -0.846282 0.475673
1644726000 -0.842701 0.482771
1656724000 -0.83912 0.491297
1668722000 -0.83472 0.499669
1680720000 -0.832623 0.508105
1692718000 -0.828663 0.517705
1704716000 -0.825184 0.524684
1716714000 -0.819123 0.535098
1728712000 -0.81342 0.544948
1740710000 -0.809014 0.552658
1752708000 -0.802784 0.5615
1764706000 -0.794706 0.569058
1776704000 -0.785059 0.578671
1788702000 -0.774962 0.588157
1800700000 -0.763097 0.598121
1812698000 -0.752486 0.607752
1824696000 -0.740868 0.617576
1836694000 -0.729752 0.62901
1848692000 -0.720111 0.640935
1860690000 -0.709065 0.650342
1872688000 -0.700421 0.660429
1884686000 -0.692674 0.669782
1896684000 -0.686544 0.678433
1908682000 -0.681116 0.688058
1920680000 -0.677247 0.696295
1932678000 -0.673921 0.705731
1944676000 -0.671227 0.713288
1956674000 -0.668933 0.719337
1968672000 -0.667995 0.725899
1980670000 -0.666673 0.732011
1992668000 -0.664726 0.736753
2004666000 -0.662697 0.738467
2016664000 -0.658792 0.743907
2028662000 -0.652648 0.747571
2040660000 -0.645846 0.749688
2052658000 -0.635491 0.751672
2064656000 -0.624226 0.755214
2076654000 -0.611336 0.758404
2088652000 -0.597897 0.763782
2100650000 -0.582795 0.767304
2112648000 -0.566624 0.774953
2124646000 -0.551886 0.783772
2136644000 -0.535574 0.792693
2148642000 -0.522136 0.80401
2160640000 -0.508604 0.813835
2172638000 -0.495947 0.827565
2184636000 -0.486722 0.837999
2196634000 -0.478994 0.84809
2208632000 -0.472852 0.85883
2220630000 -0.467669 0.86838
2232628000 -0.463753 0.874516
2244626000 -0.46289 0.880267
2256624000 -0.461114 0.881527
2268622000 -0.45569 0.883262
2280620000 -0.453622 0.883084
2292618000 -0.454872 0.883928
2304616000 -0.453811 0.881547
2316614000 -0.449041 0.877784
2328612000 -0.442297 0.876542
2340610000 -0.432739 0.874864
2352608000 -0.423091 0.873665
2364606000 -0.413376 0.873767
2376604000 -0.401114 0.875975
2388602000 -0.38939 0.877237
2400600000 -0.376081 0.883309
2412598000 -0.363532 0.889753
2424596000 -0.349823 0.897512
2436594000 -0.334091 0.904216
2448592000 -0.322527 0.910582
2460590000 -0.308902 0.918811
2472588000 -0.299209 0.926247
2484586000 -0.289022 0.933256
2496584000 -0.280141 0.938116
2508582000 -0.273266 0.944948
2520580000 -0.266514 0.950121
2532578000 -0.264233 0.952899
2544576000 -0.262274 0.952862
2556574000 -0.258295 0.954041
2568572000 -0.255975 0.953168
2580570000 -0.254201 0.951277
2592568000 -0.25034 0.948762
2604566000 -0.238127 0.94429
2616564000 -0.239248 0.948396
2628562000 -0.232446 0.947581
2640560000 -0.224081 0.946911
2652558000 -0.215696 0.947397
2664556000 -0.207158 0.947561
2676554000 -0.19708 0.949922
2688552000 -0.188408 0.950007
2700550000 -0.176444 0.950316
2712548000 -0.166009 0.953793
2724546000 -0.153111 0.956338
2736544000 -0.140006 0.9609
2748542000 -0.12839 0.964345
2760540000 -0.115786 0.967831
2772538000 -0.104115 0.970793
2784536000 -0.092696 0.974077
2796534000 -0.0812783 0.975397
2808532000 -0.0703805 0.976975
2820530000 -0.0591364 0.977336
2832528000 -0.0489561 0.977247
2844526000 -0.0398698 0.978433
2856524000 -0.0322752 0.977485
2868522000 -0.0214907 0.975671
2880520000 -0.0123212 0.97614
2892518000 -0.00317962 0.974189
2904516000 0.003163 0.973919
2916514000 0.0123008 0.972348
2928512000 0.0214491 0.970858
2940510000 0.0340963 0.969589
2952508000 0.0406143 0.968815
2964506000 0.050232 0.968696
2976504000 0.0561876 0.969608
2988502000 0.0617247 0.970037
3000500000 0.0697008 0.96733
3012498000 0.0745151 0.969321
3024496000 0.0860043 0.96902
3036494000 0.0915755 0.967651
3048492000 0.0992479 0.968418
3060490000 0.106618 0.96728
3072488000 0.115813 0.967371
3084486000 0.126594 0.966295
3096484000 0.136204 0.964734
3108482000 0.146621 0.962738
3120480000 0.158316 0.960186
3132478000 0.170285 0.95859
3144476000 0.182955 0.954671
3156474000 0.196723 0.950849
3168472000 0.210109 0.947691
3180470000 0.222364 0.944817
3192468000 0.234193 0.940647
3204466000 0.244837 0.937165
3216464000 0.255489 0.934232
3228462000 0.26684 0.932239
3240460000 0.272279 0.930937
3252458000 0.277983 0.929929
3264456000 0.28444 0.931203
3276454000 0.287713 0.929462
3288452000 0.293264 0.926414
3300450000 0.296022 0.923869
3312448000 0.300159 0.92108
3324446000 0.304607 0.918095
3336444000 0.309096 0.915685
3348442000 0.315165 0.912492
3360440000 0.32156 0.908613
3372438000 0.329394 0.905049
3384436000 0.337535 0.899408
3396434000 0.347703 0.897838
3408432000 0.359866 0.890629
3420430000 0.37245 0.889406
3432428000 0.383211 0.88294
3444426000 0.397231 0.876286
3456424000 0.409203 0.870652
3468422000 0.39817 0.881031
3480420000 0.435266 0.859058
3492418000 0.447099 0.853981
3504416000 0.458777 0.84924
3516414000 0.466052 0.842025
3528412000 0.478374 0.837665
3540410000 0.484937 0.835625
3552408000 0.49477 0.827748
3564406000 0.500709 0.825013
3576404000 0.505374 0.818613
3588402000 0.510557 0.81529
3600400000 0.514591 0.810784
3612398000 0.519108 0.807214
3624396000 0.523091 0.803084
3636394000 0.526916 0.798921
3648392000 0.530788 0.79449
3660390000 0.537615 0.792113
3672388000 0.541688 0.785914
3684386000 0.5487 0.783876
3696384000 0.55468 0.77747
3708382000 0.560251 0.772095
3720380000 0.56829 0.769744
3732378000 0.579158 0.76201
3744376000 0.588147 0.755493
3756374000 0.599109 0.746448
3768372000 0.610481 0.738676
3780370000 0.622742 0.729637
3792368000 0.634483 0.719767
3804366000 0.645081 0.71197
3816364000 0.656345 0.702935
3828362000 0.663279 0.695303
3840360000 0.675326 0.681026
3852358000 0.682365 0.673274
3864356000 0.689298 0.662224
3876354000 0.697157 0.654559
3888352000 0.70458 0.644564
3900350000 0.710987 0.636185
3912348000 0.716772 0.62815
3924346000 0.722249 0.621387
3936344000 0.723895 0.616171
3948342000 0.730664 0.608286
3960340000 0.735804 0.601961
3972338000 0.738965 0.595715
3984336000 0.745535 0.585463
3996334000 0.751085 0.58157
4008332000 0.757621 0.577033
4020330000 0.763133 0.570468
4032328000 0.769403 0.56459
4044326000 0.774479 0.559339
4056324000 0.776337 0.553669
4068322000 0.780776 0.545561
4080320000 0.786438 0.536968
4092318000 0.790371 0.529578
4104316000 0.795758 0.519345
4116314000 0.799148 0.512281
4128312000 0.805475 0.501825
4140310000 0.809932 0.490371
4152308000 0.812543 0.478326
4164306000 0.814948 0.467426
4176304000 0.819863 0.456447
4188302000 0.824591 0.443417
4200300000 0.830133 0.431432
4212298000 0.838162 0.414379
4224296000 0.84778 0.401377
4236294000 0.854364 0.389185
4248292000 0.862653 0.378252
4260290000 0.869796 0.366875
4272288000 0.873921 0.359781
4284286000 0.876787 0.354882
4296284000 0.877284 0.348014
4308282000 0.876824 0.345385
4320280000 0.876219 0.337904
4332278000 0.882862 0.331531
4344276000 0.880701 0.325678
4356274000 0.877138 0.317639
4368272000 0.877911 0.307968
4380270000 0.874368 0.29426
4392268000 0.872999 0.281051
4404266000 0.8745 0.263329
4416264000 0.878102 0.24819
4428262000 0.879319 0.229506
4440260000 0.884981 0.210284
4452258000 0.88535 0.192552
4464256000 0.888788 0.175515
4476254000 0.890709 0.159252
4488252000 0.893583 0.146052
4500250000 0.895495 0.129039
4512248000 0.898196 0.115872
4524246000 0.898554 0.101546
4536244000 0.901607 0.0912092
4548242000 0.902121 0.0793196
4560240000 0.90606 0.0712791
4572238000 0.905313 0.0620792
4584236000 0.905883 0.0531617
4596234000 0.901936 0.0444933
4608232000 0.900918 0.0346008
4620230000 0.89825 0.0294405
4632228000 0.896643 0.0187522
4644226000 0.895982 0.00882281
4656224000 0.895522 -0.00316551
4668222000 0.889427 -0.0207064
4680220000 0.888285 -0.0327295
4692218000 0.885693 -0.046843
4704216000 0.882062 -0.0634632
4716214000 0.877003 -0.0797973
4728212000 0.871745 -0.0982364
4740210000 0.862952 -0.120574
4752208000 0.857676 -0.144567
4764206000 0.846861 -0.169204
4776204000 0.832897 -0.193994
4788202000 0.820482 -0.218725
4800200000 0.80976 -0.243983
4812198000 0.796557 -0.267219
4824196000 0.783119 -0.289351
4836194000 0.767847 -0.30804
4848192000 0.75023 -0.324689
4860190000 0.737861 -0.342509
4872188000 0.718711 -0.355771
4884186000 0.70019 -0.375735
4896184000 0.685285 -0.393456
4908182000 0.667103 -0.410814
4920180000 0.648542 -0.424946
4932178000 0.627514 -0.435268
4944176000 0.605338 -0.447455
4956174000 0.579101 -0.458554
4968172000 0.54855 -0.465025
4980170000 0.516841 -0.470302
4992168000 0.484159 -0.474984
5004166000 0.445297 -0.476646
5016164000 0.405636 -0.474171
5028162000 0.365569 -0.470853
5040160000 0.324439 -0.46065
5052158000 0.283427 -0.448626
5064156000 0.243552 -0.435755
5076154000 0.205176 -0.417341
5088152000 0.169514 -0.399827
5100150000 0.137039 -0.380934
5112148000 0.101139 -0.360018
5124146000 0.0663983 -0.341455
5136144000 0.0333245 -0.311606
5148142000 0.00182834 -0.280266
5160140000 -0.020715 -0.241121
5172138000 -0.036045 -0.202242
5184136000 -0.0440402 -0.164394
5196134000 -0.0452514 -0.125339
5208132000 -0.0397342 -0.0854379
5220130000 -0.0230148 -0.0509649
5232128000 -0.00450066 -0.0231154
5244126000 0.0150053 0.00243473
5256124000 0.0309604 0.0245103
5268122000 0.0440357 0.0436883
5280120000 0.0490436 0.0847012
5292118000 0.0580772 0.120067
5304116000 0.0673183 0.159951
5316114000 0.0787941 0.202987
5328112000 0.0989531 0.239015
5340110000 0.11707 0.271688
5352108000 0.135834 0.297937
5364106000 0.156197 0.317247
5376104000 0.177278 0.333946
5388102000 0.195546 0.349734
5400100000 0.214977 0.366618
5412098000 0.238369 0.374652
5424096000 0.257397 0.38812
5436094000 0.280064 0.396767
5448092000 0.306174 0.404061
5460090000 0.333318 0.408452
5472088000 0.363204 0.410361
5484086000 0.397134 0.407789
5496084000 0.429507 0.400746
5508082000 0.459314 0.389826
5520080000 0.487347 0.381254
5532078000 0.514976 0.36907
5544076000 0.545436 0.356763
5556074000 0.574192 0.34455
5568072000 0.597435 0.322511
5580070000 0.617564 0.30705
5592068000 0.636327 0.292748
5604066000 0.652968 0.278707
5616064000 0.669917 0.26933
5628062000 0.685549 0.255065
5640060000 0.698802 0.24366
5652058000 0.707546 0.229876
5664056000 0.71796 0.220291
5676054000 0.725663 0.212347
5688052000 0.733091 0.20417
5700050000 0.743819 0.198379
5712048000 0.751347 0.190074
5724046000 0.759605 0.182582
5736044000 0.767784 0.1744
5748042000 0.777557 0.164067
5760040000 0.789524 0.149986
5772038000 0.797525 0.131378
5784036000 0.805859 0.112118
5796034000 0.811703 0.0890828
5808032000 0.815216 0.0648162
5820030000 0.819781 0.0391382
5832028000 0.822832 0.0159705
5844026000 0.828 -0.0117094
5856024000 0.828073 -0.0379407
5868022000 0.834418 -0.057533
5880020000 0.832615 -0.0714172
5892018000 0.832375 -0.0922371
5904016000 0.840859 -0.109684
5916014000 0.837709 -0.125692
5928012000 0.842598 -0.137932
5940010000 0.847399 -0.149582
5952008000 0.845576 -0.161935
5964006000 0.851321 -0.167103
5976004000 0.852727 -0.178143
5988002000 0.853927 -0.18252
6000000000 0.857825 -0.194586
