# Hz S RI R 50
1000000 1.00388 -0.00156988
12998000 0.982328 -0.0734741
24996000 0.971554 -0.132988
36994000 0.962619 -0.190378
48992000 0.949541 -0.248968
60990000 0.932662 -0.30691
72988000 0.912107 -0.363555
84986000 0.88808 -0.418672
96984000 0.860331 -0.472442
108982000 0.829132 -0.523784
120980000 0.795345 -0.572591
132978000 0.758706 -0.618833
144976000 0.72064 -0.662622
156974000 0.679981 -0.702254
168972000 0.638655 -0.737663
180970000 0.597214 -0.771523
192968000 0.553832 -0.800847
204966000 0.50977 -0.828736
216964000 0.466257 -0.852279
228962000 0.423005 -0.873725
240960000 0.379215 -0.892779
252958000 0.33482 -0.909716
264956000 0.292257 -0.924014
276954000 0.250231 -0.936183
288952000 0.207571 -0.946838
300950000 0.16525 -0.955514
312948000 0.124617 -0.961713
324946000 0.0816106 -0.966012
336944000 0.041072 -0.968967
348942000 -0.000283915 -0.969341
360940000 -0.0403931 -0.968508
372938000 -0.0800801 -0.966173
384936000 -0.118981 -0.962682
396934000 -0.156131 -0.957519
408932000 -0.19178 -0.951473
420930000 -0.226579 -0.94369
432928000 -0.25936 -0.935263
444926000 -0.291585 -0.924771
456924000 -0.321888 -0.914238
468922000 -0.351727 -0.90254
480920000 -0.380384 -0.890202
492918000 -0.408317 -0.876725
504916000 -0.434462 -0.863821
516914000 -0.460784 -0.850296
528912000 -0.48607 -0.836553
540910000 -0.510552 -0.822677
552908000 -0.534565 -0.807767
564906000 -0.558285 -0.794237
576904000 -0.581457 -0.778158
588902000 -0.60311 -0.76272
600900000 -0.624107 -0.746177
612898000 -0.645234 -0.729091
624896000 -0.665073 -0.711951
636894000 -0.684101 -0.694819
648892000 -0.701845 -0.676921
660890000 -0.718994 -0.659831
672888000 -0.734374 -0.642234
684886000 -0.749001 -0.624276
696884000 -0.76198 -0.607626
708882000 -0.774463 -0.590088
720880000 -0.786414 -0.573536
732878000 -0.798464 -0.555603
744876000 -0.80894 -0.537668
756874000 -0.819362 -0.519973
768872000 -0.83073 -0.502228
780870000 -0.840713 -0.483142
792868000 -0.850821 -0.464275
804866000 -0.860428 -0.445273
816864000 -0.871171 -0.426654
828862000 -0.881617 -0.408006
840860000 -0.889978 -0.389194
852858000 -0.898321 -0.370128
864856000 -0.907005 -0.350199
876854000 -0.914796 -0.332267
888852000 -0.922255 -0.314861
900850000 -0.927332 -0.29728
912848000 -0.933187 -0.280597
924846000 -0.938294 -0.264366
936844000 -0.942539 -0.248989
948842000 -0.946812 -0.235655
960840000 -0.951568 -0.222802
972838000 -0.954643 -0.209222
984836000 -0.957038 -0.196399
996834000 -0.959106 -0.182556
1008832000 -0.961293 -0.169329
1020830000 -0.962415 -0.155806
1032828000 -0.963742 -0.142318
1044826000 -0.964701 -0.128967
1056824000 -0.966446 -0.114712
1068822000 -0.968305 -0.0991086
1080820000 -0.968994 -0.0818394
1092818000 -0.970143 -0.0667282
1104816000 -0.969998 -0.0508659
1116814000 -0.970835 -0.0342106
1128812000 -0.971194 -0.0168912
1140810000 -0.970528 -0.000559443
1152808000 -0.972384 0.0180332
1164806000 -0.971647 0.0345335
1176804000 -0.970383 0.0512141
1188802000 -0.970503 0.0646211
1200800000 -0.970717 0.0763883
1212798000 -0.971651 0.0880801
1224796000 -0.972644 0.0993336
1236794000 -0.972702 0.114755
1248792000 -0.970308 0.123954
1260790000 -0.969929 0.133588
1272788000 -0.967434 0.142455
1284786000 -0.964179 0.150659
1296784000 -0.961085 0.159727
1308782000 -0.957248 0.168576
1320780000 -0.954967 0.178562
1332778000 -0.95319 0.187384
1344776000 -0.951567 0.196343
1356774000 -0.949868 0.205426
1368772000 -0.948151 0.21552
1380770000 -0.945236 0.226503
1392768000 -0.94154 0.239132
1404766000 -0.940882 0.25254
1416764000 -0.935443 0.264739
1428762000 -0.932212 0.278017
1440760000 -0.92801 0.29053
1452758000 -0.924469 0.303302
1464756000 -0.921311 0.316321
1476754000 -0.917592 0.331357
1488752000 -0.912874 0.345987
1500750000 -0.907446 0.359412
1512748000 -0.901163 0.371071
1524746000 -0.894225 0.381921
1536744000 -0.887717 0.392994
1548742000 -0.880198 0.40496
1560740000 -0.873841 0.416054
1572738000 -0.869107 0.426564
1584736000 -0.864588 0.436709
1596734000 -0.860734 0.446457
1608732000 -0.857141 0.455718
1620730000 -0.852999 0.463929
1632728000 -0.849914 0.472867
1644726000 -0.846071 0.47996
1656724000 -0.84175 0.487867
1668722000 -0.839849 0.496074
1680720000 -0.836176 0.505413
1692718000 -0.833116 0.514389
1704716000 -0.828565 0.522623
1716714000 -0.822248 0.532236
1728712000 -0.816386 0.541622
1740710000 -0.812184 0.551114
1752708000 -0.806476 0.558528
1764706000 -0.798281 0.566721
1776704000 -0.78915 0.575933
1788702000 -0.778597 0.58567
1800700000 -0.768233 0.594882
1812698000 -0.757546 0.605361
1824696000 -0.746809 0.615637
1836694000 -0.734814 0.62818
1848692000 -0.725089 0.638054
1860690000 -0.715014 0.648898
1872688000 -0.705566 0.658042
1884686000 -0.697758 0.667682
1896684000 -0.691457 0.675949
1908682000 -0.686562 0.685839
1920680000 -0.682291 0.694636
1932678000 -0.678976 0.703093
1944676000 -0.675298 0.711662
1956674000 -0.674284 0.716412
1968672000 -0.673765 0.723973
1980670000 -0.671426 0.728602
1992668000 -0.671236 0.735529
2004666000 -0.669455 0.738692
2016664000 -0.663917 0.742192
2028662000 -0.657536 0.745687
2040660000 -0.651499 0.748307
2052658000 -0.640855 0.750203
2064656000 -0.629649 0.753273
2076654000 -0.617186 0.757696
2088652000 -0.603018 0.762561
2100650000 -0.587062 0.766419
2112648000 -0.572018 0.775201
2124646000 -0.557634 0.782629
2136644000 -0.541375 0.791401
2148642000 -0.527142 0.803171
2160640000 -0.51434 0.813493
2172638000 -0.501174 0.827316
2184636000 -0.492026 0.837406
2196634000 -0.485015 0.847148
2208632000 -0.47825 0.858278
2220630000 -0.472723 0.867834
2232628000 -0.470329 0.873868
2244626000 -0.46707 0.879253
2256624000 -0.465903 0.881079
2268622000 -0.461956 0.881414
2280620000 -0.459003 0.883594
2292618000 -0.46051 0.883064
2304616000 -0.458816 0.880658
2316614000 -0.453752 0.877504
2328612000 -0.447262 0.876684
2340610000 -0.437658 0.87443
2352608000 -0.428389 0.873882
2364606000 -0.416951 0.873074
2376604000 -0.405687 0.874417
2388602000 -0.392403 0.87894
2400600000 -0.380786 0.883686
2412598000 -0.366963 0.890275
2424596000 -0.354872 0.898475
2436594000 -0.338942 0.90493
2448592000 -0.327421 0.911443
2460590000 -0.314017 0.91983
2472588000 -0.304736 0.927284
2484586000 -0.295419 0.934518
2496584000 -0.285606 0.940189
2508582000 -0.27935 0.94419
2520580000 -0.276508 0.950794
2532578000 -0.270184 0.952577
2544576000 -0.268715 0.95374
2556574000 -0.265077 0.95416
2568572000 -0.26242 0.954121
2580570000 -0.260577 0.953476
2592568000 -0.256493 0.949778
2604566000 -0.244283 0.945664
2616564000 -0.244991 0.948886
2628562000 -0.237468 0.948263
2640560000 -0.229062 0.948551
2652558000 -0.22331 0.94852
2664556000 -0.214081 0.949799
2676554000 -0.202468 0.95136
2688552000 -0.1941 0.952014
2700550000 -0.182411 0.954094
2712548000 -0.169578 0.955673
2724546000 -0.157781 0.957774
2736544000 -0.146043 0.962325
2748542000 -0.13348 0.965926
2760540000 -0.120816 0.969827
2772538000 -0.108917 0.972962
2784536000 -0.0973775 0.975517
2796534000 -0.0853182 0.978124
2808532000 -0.07592 0.97825
2820530000 -0.063331 0.980533
2832528000 -0.0550959 0.981533
2844526000 -0.0462194 0.98138
2856524000 -0.0359824 0.979804
2868522000 -0.0280571 0.97878
2880520000 -0.0168986 0.978426
2892518000 -0.00819758 0.976938
2904516000 -0.00127378 0.976874
2916514000 0.00838074 0.975356
2928512000 0.0176103 0.975079
2940510000 0.030137 0.974052
2952508000 0.036434 0.973053
2964506000 0.0469297 0.971505
2976504000 0.0527647 0.973077
2988502000 0.0603948 0.973579
3000500000 0.0696993 0.974458
3012498000 0.0724069 0.971634
3024496000 0.0821571 0.973747
3036494000 0.0880655 0.971327
3048492000 0.0963778 0.971772
3060490000 0.103848 0.971047
3072488000 0.112743 0.971099
3084486000 0.122956 0.969107
3096484000 0.133005 0.96782
3108482000 0.144347 0.966149
3120480000 0.155048 0.962551
3132478000 0.167072 0.961662
3144476000 0.180388 0.957883
3156474000 0.19466 0.953447
3168472000 0.20791 0.9496
3180470000 0.219386 0.947429
3192468000 0.232156 0.943428
3204466000 0.242528 0.940584
3216464000 0.253789 0.93732
3228462000 0.263746 0.935671
3240460000 0.268871 0.933651
3252458000 0.276483 0.932978
3264456000 0.283137 0.93189
3276454000 0.287326 0.931093
3288452000 0.291804 0.929964
3300450000 0.294061 0.926176
3312448000 0.299151 0.92394
3324446000 0.30291 0.920896
3336444000 0.307998 0.918141
3348442000 0.313977 0.915409
3360440000 0.321719 0.911833
3372438000 0.328021 0.908642
3384436000 0.336871 0.902753
3396434000 0.346364 0.899121
3408432000 0.35868 0.893623
3420430000 0.372434 0.88948
3432428000 0.382401 0.884761
3444426000 0.394463 0.878366
3456424000 0.408111 0.872574
3468422000 0.396957 0.88378
3480420000 0.434068 0.86105
3492418000 0.446534 0.855863
3504416000 0.456962 0.850076
3516414000 0.465362 0.842856
3528412000 0.47719 0.84135
3540410000 0.484168 0.83804
3552408000 0.492704 0.827963
3564406000 0.500782 0.825239
3576404000 0.503877 0.822502
3588402000 0.510107 0.817912
3600400000 0.514955 0.813427
3612398000 0.518579 0.809271
3624396000 0.522212 0.804513
3636394000 0.525949 0.800061
3648392000 0.531598 0.796106
3660390000 0.536195 0.792215
3672388000 0.540976 0.784376
3684386000 0.546421 0.78582
3696384000 0.553269 0.778253
3708382000 0.560328 0.772246
3720380000 0.566375 0.768715
3732378000 0.578026 0.762826
3744376000 0.586989 0.754833
3756374000 0.597802 0.747918
3768372000 0.609067 0.739002
3780370000 0.620532 0.730694
3792368000 0.631075 0.72116
3804366000 0.641838 0.71238
3816364000 0.652861 0.704721
3828362000 0.66316 0.695347
3840360000 0.671655 0.683585
3852358000 0.679827 0.675061
3864356000 0.689101 0.664677
3876354000 0.696359 0.655445
3888352000 0.702555 0.645204
3900350000 0.709132 0.636237
3912348000 0.714676 0.628659
3924346000 0.718893 0.622561
3936344000 0.722391 0.61574
3948342000 0.728173 0.608634
3960340000 0.734273 0.603907
3972338000 0.737825 0.596083
3984336000 0.742863 0.587656
3996334000 0.748647 0.584177
4008332000 0.756188 0.577077
4020330000 0.761469 0.572832
4032328000 0.766741 0.56589
4044326000 0.771928 0.561826
4056324000 0.774778 0.55535
4068322000 0.778666 0.547576
4080320000 0.784138 0.539519
4092318000 0.788067 0.531198
4104316000 0.794117 0.521973
4116314000 0.795818 0.514319
4128312000 0.804266 0.504765
4140310000 0.808891 0.492702
4152308000 0.811415 0.482551
4164306000 0.814821 0.47022
4176304000 0.817589 0.458837
4188302000 0.823374 0.446097
4200300000 0.829666 0.434697
4212298000 0.837125 0.416693
4224296000 0.846142 0.402314
4236294000 0.854125 0.38958
4248292000 0.862686 0.377035
4260290000 0.867577 0.367298
4272288000 0.874125 0.357497
4284286000 0.874164 0.355155
4296284000 0.875053 0.34795
4308282000 0.87512 0.346369
4320280000 0.876875 0.33932
4332278000 0.879547 0.332563
4344276000 0.876303 0.327212
4356274000 0.874193 0.319955
4368272000 0.876714 0.311354
4380270000 0.874327 0.296816
4392268000 0.87392 0.28431
4404266000 0.876857 0.268666
4416264000 0.882491 0.251112
4428262000 0.884655 0.230095
4440260000 0.888349 0.213748
4452258000 0.8923 0.192837
4464256000 0.8947 0.174917
4476254000 0.898952 0.155819
4488252000 0.900032 0.14212
4500250000 0.901423 0.124869
4512248000 0.904914 0.109727
4524246000 0.904702 0.093096
4536244000 0.908633 0.0793872
4548242000 0.908522 0.0656926
4560240000 0.905962 0.0526714
4572238000 0.906481 0.0450804
4584236000 0.899437 0.0326677
4596234000 0.896719 0.0274465
4608232000 0.893173 0.0224211
4620230000 0.889548 0.014444
4632228000 0.885513 0.00280584
4644226000 0.882287 -0.00678817
4656224000 0.880081 -0.0174431
4668222000 0.872497 -0.0339125
4680220000 0.869418 -0.0461925
4692218000 0.865467 -0.0599023
4704216000 0.86025 -0.0748738
4716214000 0.85197 -0.0883263
4728212000 0.844813 -0.107759
4740210000 0.835775 -0.126916
4752208000 0.82804 -0.148016
4764206000 0.816798 -0.170918
4776204000 0.803456 -0.192511
4788202000 0.791362 -0.21596
4800200000 0.779442 -0.239665
4812198000 0.7653 -0.26109
4824196000 0.749136 -0.280597
4836194000 0.733018 -0.299282
4848192000 0.714399 -0.314277
4860190000 0.700499 -0.330144
4872188000 0.684871 -0.341141
4884186000 0.665063 -0.353928
4896184000 0.652013 -0.369501
4908182000 0.635243 -0.381232
4920180000 0.616965 -0.391557
4932178000 0.599124 -0.399506
4944176000 0.578124 -0.405987
4956174000 0.556171 -0.410351
4968172000 0.534836 -0.416764
4980170000 0.506484 -0.416531
4992168000 0.484115 -0.417161
5004166000 0.453327 -0.424689
5016164000 0.424019 -0.422197
5028162000 0.391842 -0.428093
5040160000 0.350271 -0.424623
5052158000 0.310536 -0.417842
5064156000 0.272436 -0.410959
5076154000 0.230642 -0.395933
5088152000 0.193851 -0.379994
5100150000 0.158874 -0.363795
5112148000 0.130818 -0.343001
5124146000 0.0972979 -0.328236
5136144000 0.064767 -0.307247
5148142000 0.0336658 -0.281963
5160140000 0.00474755 -0.25124
5172138000 -0.0190156 -0.220592
5184136000 -0.037408 -0.179515
5196134000 -0.0453412 -0.13976
5208132000 -0.0437058 -0.104197
5220130000 -0.0417412 -0.0668084
5232128000 -0.0293734 -0.028153
5244126000 -0.0218561 0.00240968
5256124000 -0.00721482 0.0466561
5268122000 0.0141054 0.0813689
5280120000 0.0241108 0.131871
5292118000 0.0478296 0.1746
5304116000 0.0677751 0.217385
5316114000 0.0927675 0.258912
5328112000 0.122228 0.292372
5340110000 0.143806 0.315815
5352108000 0.166877 0.339525
5364106000 0.193208 0.355883
5376104000 0.209198 0.371742
5388102000 0.232945 0.384056
5400100000 0.25803 0.397089
5412098000 0.283555 0.408186
5424096000 0.312137 0.416181
5436094000 0.343413 0.418329
5448092000 0.373721 0.413212
5460090000 0.398278 0.405935
5472088000 0.426265 0.398982
5484086000 0.451374 0.387999
5496084000 0.476771 0.377438
5508082000 0.502253 0.36502
5520080000 0.524454 0.354093
5532078000 0.548652 0.342504
5544076000 0.574468 0.327389
5556074000 0.597123 0.315957
5568072000 0.618105 0.298705
5580070000 0.635976 0.284561
5592068000 0.654 0.270137
5604066000 0.672578 0.25826
5616064000 0.686029 0.245787
5628062000 0.700081 0.235286
5640060000 0.714012 0.225206
5652058000 0.724603 0.21592
5664056000 0.737393 0.205388
5676054000 0.747678 0.191857
5688052000 0.756463 0.182143
5700050000 0.766485 0.171713
5712048000 0.77338 0.16002
5724046000 0.779419 0.149643
5736044000 0.783852 0.13762
5748042000 0.788606 0.124043
5760040000 0.794277 0.109016
5772038000 0.799735 0.0925546
5784036000 0.802961 0.0729681
5796034000 0.806734 0.0513751
5808032000 0.807436 0.0289776
5820030000 0.810332 0.00359959
5832028000 0.809454 -0.0198978
5844026000 0.810374 -0.043646
5856024000 0.810319 -0.0673699
5868022000 0.812416 -0.0846867
5880020000 0.813176 -0.0978497
5892018000 0.811105 -0.116357
5904016000 0.817678 -0.132181
5916014000 0.822458 -0.147131
5928012000 0.824223 -0.155034
5940010000 0.828746 -0.163867
5952008000 0.828236 -0.175111
5964006000 0.833538 -0.181256
5976004000 0.831438 -0.189675
5988002000 0.834441 -0.193223
6000000000 0.837293 -0.203243
