# Hz S RI R 50
1000000 1.00668 -0.00492789 -0.00112262 -0.00156779 -0.000663079 -4.09905e-05 0.993985 -0.0135289
12998000 0.983651 -0.0726159 7.09718e-06 0.000121571 7.7709e-05 0.00016354 0.985207 -0.0682601
24996000 0.973075 -0.132621 3.97861e-05 0.000279143 7.54759e-05 0.000293835 0.974538 -0.1331
36994000 0.964376 -0.189776 9.88682e-05 0.000552631 9.84304e-05 0.000471796 0.965335 -0.191992
48992000 0.951177 -0.248342 0.000212433 0.000645399 0.000232218 0.000593636 0.95165 -0.252259
60990000 0.934495 -0.306107 0.000328852 0.000720737 0.00028928 0.000749523 0.933993 -0.311273
72988000 0.913935 -0.362674 0.000406919 0.00090917 0.000433012 0.000868352 0.912214 -0.368725
84986000 0.889925 -0.41778 0.000545352 0.00102755 0.000564838 0.00102141 0.886797 -0.424081
96984000 0.862382 -0.471278 0.00077719 0.00121261 0.000760871 0.00118475 0.85835 -0.477437
108982000 0.83131 -0.522779 0.00110871 0.0014193 0.00111956 0.00135985 0.826901 -0.527683
120980000 0.797946 -0.571628 0.00153244 0.00169244 0.00150539 0.001694 0.792666 -0.575623
132978000 0.757561 -0.620996 0.00584198 0.00460133 0.00587265 0.00448953 0.752699 -0.62363
144976000 0.725975 -0.658713 -0.000601813 -0.00129037 -0.000643551 -0.00128916 0.721329 -0.660426
156974000 0.685312 -0.69987 0.000277324 0.000165785 0.000174965 0.000130139 0.681065 -0.700324
168972000 0.644354 -0.736907 0.000624524 0.000483355 0.000593397 0.000469859 0.640032 -0.736024
180970000 0.602264 -0.770235 0.00094638 0.000564512 0.000863573 0.000557308 0.598449 -0.76885
192968000 0.559292 -0.800191 0.00106366 0.000624372 0.00102155 0.000590995 0.55548 -0.798712
204966000 0.516023 -0.827913 0.0011905 0.000649957 0.00117698 0.00064691 0.512853 -0.82568
216964000 0.472635 -0.852084 0.00127212 0.000668362 0.00131024 0.000647369 0.469153 -0.850356
228962000 0.429809 -0.873653 0.00144905 0.000570955 0.00141518 0.000583264 0.424989 -0.872781
240960000 0.385885 -0.892893 0.00154756 0.000567091 0.00150829 0.000526563 0.380966 -0.892344
252958000 0.342322 -0.909738 0.00163359 0.00054577 0.00158568 0.00050844 0.336077 -0.910331
264956000 0.299365 -0.92422 0.00165526 0.000442391 0.00168486 0.000390465 0.291084 -0.925659
276954000 0.257656 -0.936575 0.00177444 0.000373081 0.00175495 0.000336593 0.246432 -0.939234
288952000 0.215485 -0.947484 0.0018518 0.000290496 0.0018493 0.000264171 0.201285 -0.950446
300950000 0.173532 -0.956141 0.00187058 0.00018498 0.001863 0.000189172 0.156163 -0.959713
312948000 0.132904 -0.96232 0.00189438 0.000109098 0.0019148 8.53699e-05 0.110985 -0.966836
324946000 0.0901699 -0.967012 0.00194994 7.44013e-05 0.00197699 2.27627e-05 0.0686598 -0.971342
336944000 0.0492571 -0.970103 0.00201983 -8.14127e-05 0.00199337 -8.80961e-05 0.0252064 -0.973949
348942000 0.00833263 -0.970718 0.00205116 -0.000148213 0.00202189 -0.000182648 -0.0175782 -0.974362
360940000 -0.0316172 -0.970237 0.00210267 -0.000253276 0.00201311 -0.000281448 -0.0591425 -0.973111
372938000 -0.0712562 -0.968389 0.002075 -0.000341562 0.00207116 -0.000351899 -0.0989918 -0.970177
384936000 -0.109853 -0.965126 0.00210796 -0.000460271 0.0020503 -0.000487448 -0.138431 -0.966239
396934000 -0.146797 -0.960645 0.0020464 -0.000571029 0.00206098 -0.0005705 -0.176381 -0.960155
408932000 -0.182261 -0.954484 0.00209999 -0.000683618 0.00208075 -0.000656503 -0.21172 -0.952721
420930000 -0.217133 -0.948108 0.002098 -0.0008069 0.00209261 -0.000785585 -0.245969 -0.944374
432928000 -0.249985 -0.939948 0.00210621 -0.000883583 0.00207871 -0.000890975 -0.278513 -0.935013
444926000 -0.281698 -0.93023 0.0021488 -0.000997311 0.00209328 -0.00099075 -0.310407 -0.923066
456924000 -0.312398 -0.920412 0.00214817 -0.00111354 0.00208068 -0.0011043 -0.33999 -0.912075
468922000 -0.342008 -0.909102 0.00210512 -0.00128826 0.00209625 -0.0013307 -0.368638 -0.899795
480920000 -0.371152 -0.897003 0.0020151 -0.00149684 0.00201783 -0.00156217 -0.395843 -0.886304
492918000 -0.398992 -0.884081 0.00192293 -0.00185032 0.00192332 -0.0017943 -0.424023 -0.872864
504916000 -0.425066 -0.871329 0.00153827 -0.0022335 0.00150522 -0.00220344 -0.450414 -0.859251
516914000 -0.450607 -0.858548 0.000739335 -0.00200914 0.000767898 -0.00202235 -0.475425 -0.845568
528912000 -0.475771 -0.845629 0.000580018 -0.0015663 0.000644282 -0.00155471 -0.500811 -0.832518
540910000 -0.500242 -0.832421 0.000765217 -0.00135905 0.000756746 -0.00128245 -0.525554 -0.818126
552908000 -0.524142 -0.817631 0.000872479 -0.0011559 0.000855282 -0.0011534 -0.550566 -0.803404
564906000 -0.548654 -0.804189 0.00104374 -0.00104616 0.0009925 -0.00110986 -0.575667 -0.787162
576904000 -0.571143 -0.788662 0.00110988 -0.00111124 0.00110862 -0.00109742 -0.600018 -0.770617
588902000 -0.59358 -0.773824 0.00114569 -0.00113753 0.00109509 -0.00115485 -0.623547 -0.753299
600900000 -0.614845 -0.757579 0.00114892 -0.00115055 0.00116631 -0.00117082 -0.645294 -0.735741
612898000 -0.635312 -0.741263 0.00114488 -0.00120826 0.00115148 -0.00121882 -0.665786 -0.718359
624896000 -0.655124 -0.724993 0.00111653 -0.00129064 0.00114217 -0.00126085 -0.685871 -0.699316
636894000 -0.674035 -0.708377 0.00109569 -0.00132438 0.00113228 -0.00128542 -0.705451 -0.680331
648892000 -0.691851 -0.691296 0.00110245 -0.00137264 0.00112075 -0.00133113 -0.723817 -0.660832
660890000 -0.709 -0.674503 0.00107413 -0.00140132 0.00108584 -0.00139872 -0.740416 -0.641216
672888000 -0.724783 -0.657527 0.00106303 -0.00148533 0.0010499 -0.00138087 -0.755331 -0.621831
684886000 -0.739555 -0.639926 0.00106847 -0.00145959 0.00100744 -0.00143124 -0.770169 -0.601915
696884000 -0.752642 -0.623789 0.00103699 -0.0015108 0.000961185 -0.0014811 -0.782676 -0.584192
708882000 -0.765288 -0.606706 0.000942859 -0.00156548 0.00100286 -0.00155669 -0.794502 -0.56387
720880000 -0.777902 -0.590399 0.000914865 -0.00158411 0.00094901 -0.00152757 -0.806349 -0.545583
732878000 -0.789598 -0.57269 0.000961131 -0.00160259 0.000905559 -0.0015546 -0.81759 -0.528291
744876000 -0.80112 -0.55502 0.000837903 -0.00162697 0.000868888 -0.00160029 -0.828429 -0.508697
756874000 -0.81174 -0.537584 0.000855898 -0.00161923 0.000824259 -0.00165883 -0.838906 -0.490304
768872000 -0.823303 -0.520247 0.000830041 -0.0016674 0.000757443 -0.0016635 -0.849589 -0.472417
780870000 -0.833961 -0.501053 0.000787865 -0.00166663 0.000757663 -0.00171447 -0.859228 -0.454813
792868000 -0.844145 -0.482486 0.000763748 -0.00167713 0.000687082 -0.00171568 -0.870491 -0.437364
804866000 -0.854524 -0.463563 0.000651457 -0.00173386 0.000651822 -0.0017176 -0.880937 -0.419676
816864000 -0.865454 -0.445077 0.000599293 -0.00182909 0.000590369 -0.00180113 -0.892267 -0.402549
828862000 -0.875825 -0.427009 0.000613375 -0.00175312 0.000559279 -0.00176386 -0.902059 -0.384858
840860000 -0.885352 -0.407801 0.000471075 -0.00175982 0.000476489 -0.00179089 -0.912068 -0.367134
852858000 -0.893723 -0.389345 0.000466299 -0.00179706 0.000421188 -0.00179699 -0.919333 -0.349164
864856000 -0.902369 -0.369922 0.000387344 -0.00184108 0.00039547 -0.00180027 -0.925991 -0.331573
876854000 -0.910137 -0.352272 0.000337614 -0.00176809 0.000317055 -0.00178243 -0.933745 -0.315031
888852000 -0.917652 -0.33483 0.000290867 -0.00179014 0.000281053 -0.00173503 -0.940526 -0.298124
900850000 -0.92349 -0.317615 0.000193571 -0.00175493 0.000212627 -0.00172781 -0.946925 -0.279673
912848000 -0.929788 -0.301312 0.000150122 -0.00170692 0.000171201 -0.00168268 -0.951795 -0.263282
924846000 -0.934851 -0.285382 0.000124723 -0.00172888 0.000154828 -0.00169816 -0.955804 -0.245223
936844000 -0.939504 -0.270561 8.60067e-05 -0.00169444 5.42444e-05 -0.00163531 -0.960236 -0.227848
948842000 -0.943972 -0.257242 5.1436e-05 -0.00164039 6.40487e-05 -0.00161514 -0.963014 -0.210551
960840000 -0.948644 -0.245223 8.8866e-05 -0.00159952 4.37307e-05 -0.00158549 -0.965744 -0.193392
972838000 -0.952673 -0.23193 7.2509e-05 -0.00159105 8.69019e-05 -0.00154311 -0.968024 -0.177106
984836000 -0.954913 -0.219547 4.30589e-05 -0.00161065 2.4962e-05 -0.00155548 -0.969564 -0.160468
996834000 -0.957907 -0.206461 2.62579e-05 -0.00155418 6.12333e-05 -0.00154961 -0.970909 -0.143479
1008832000 -0.960328 -0.193662 5.03995e-05 -0.00159725 -4.84284e-06 -0.00153499 -0.972025 -0.12717
1020830000 -0.962119 -0.17983 1.81746e-05 -0.00157065 2.77662e-05 -0.00153083 -0.972617 -0.110615
1032828000 -0.963367 -0.167002 6.76135e-06 -0.00157269 2.12871e-05 -0.00163848 -0.973268 -0.0968965
1044826000 -0.964765 -0.153989 3.73258e-05 -0.00156747 1.34974e-07 -0.00151018 -0.974607 -0.0827569
1056824000 -0.967067 -0.14024 -1.88429e-05 -0.00157402 -2.65437e-05 -0.00156569 -0.975757 -0.0665263
1068822000 -0.969198 -0.124317 -7.72586e-05 -0.00156794 -9.35309e-05 -0.0015945 -0.977376 -0.0513611
1080820000 -0.970542 -0.108944 -6.49217e-05 -0.00156189 -0.000109334 -0.00158465 -0.977601 -0.036652
1092818000 -0.971486 -0.0934011 -0.000147211 -0.00154037 -0.000127264 -0.00159893 -0.978379 -0.0202936
1104816000 -0.972152 -0.0775327 -0.000168308 -0.00157097 -0.000136195 -0.00158249 -0.978727 -0.00632888
1116814000 -0.972987 -0.0608294 -0.000176677 -0.00158056 -0.000173197 -0.00157232 -0.978169 0.00938232
1128812000 -0.974964 -0.0433633 -0.000172169 -0.00155305 -0.000156854 -0.00154462 -0.978968 0.0253997
1140810000 -0.974383 -0.0289463 -0.000196891 -0.00159991 -0.0001916 -0.00154809 -0.978405 0.0404732
1152808000 -0.975735 -0.0102821 -0.000274146 -0.00159714 -0.000236081 -0.00157673 -0.979165 0.0557915
1164806000 -0.976161 0.00684342 -0.000265257 -0.00156148 -0.000226484 -0.00154105 -0.977679 0.072185
1176804000 -0.975071 0.0238304 -0.000250083 -0.00155985 -0.000295681 -0.00152711 -0.977076 0.0883808
1188802000 -0.975983 0.0369756 -0.000275767 -0.00154898 -0.000283664 -0.00151902 -0.976094 0.102705
1200800000 -0.975751 0.0498021 -0.000328821 -0.00149675 -0.000306234 -0.00150982 -0.974566 0.117832
1212798000 -0.977141 0.0605385 -0.000326188 -0.00148216 -0.000282903 -0.00150362 -0.97338 0.13064
1224796000 -0.979585 0.0710859 -0.000322149 -0.001498 -0.00035681 -0.00148301 -0.971312 0.144085
1236794000 -0.979075 0.0866644 -0.000349961 -0.00151855 -0.000364721 -0.0014831 -0.969393 0.157897
1248792000 -0.977479 0.0955705 -0.00036904 -0.00152984 -0.000342684 -0.00149392 -0.966868 0.172221
1260790000 -0.976542 0.104742 -0.000414351 -0.00150203 -0.000434796 -0.00148367 -0.963454 0.186098
1272788000 -0.97503 0.114246 -0.000488002 -0.00145174 -0.000441252 -0.00144757 -0.961494 0.201518
1284786000 -0.972063 0.121098 -0.000465597 -0.00143245 -0.000443712 -0.00141333 -0.958232 0.213652
1296784000 -0.969281 0.130219 -0.000521005 -0.00144273 -0.000473888 -0.00143213 -0.955089 0.225833
1308782000 -0.965715 0.139267 -0.000554019 -0.00144774 -0.00052885 -0.00142547 -0.951601 0.239033
1320780000 -0.964011 0.14857 -0.000568468 -0.00145143 -0.000542352 -0.00141414 -0.948757 0.252693
1332778000 -0.962547 0.157109 -0.000576108 -0.00149853 -0.000533338 -0.00139415 -0.945199 0.266207
1344776000 -0.960877 0.165621 -0.00054589 -0.00148256 -0.000579662 -0.00138805 -0.941102 0.27853
1356774000 -0.959905 0.174213 -0.000646656 -0.00137979 -0.000587938 -0.00135367 -0.93794 0.289971
1368772000 -0.958972 0.184101 -0.000664943 -0.0013372 -0.000636004 -0.00139712 -0.933439 0.301806
1380770000 -0.958026 0.194357 -0.000675407 -0.00135525 -0.000595162 -0.00140932 -0.931104 0.313662
1392768000 -0.954515 0.205113 -0.00068886 -0.00139184 -0.000622373 -0.00137117 -0.926485 0.323834
1404766000 -0.951514 0.218488 -0.000715622 -0.00137344 -0.000635089 -0.0013561 -0.920894 0.33473
1416764000 -0.948879 0.231536 -0.000721175 -0.0013857 -0.000679456 -0.00136551 -0.919508 0.347572
1428762000 -0.94711 0.243028 -0.000752724 -0.0013554 -0.000703042 -0.00133721 -0.916673 0.358934
1440760000 -0.943143 0.25526 -0.000666398 -0.00128502 -0.000715565 -0.00131013 -0.912803 0.369538
1452758000 -0.940374 0.268076 -0.000734527 -0.00131722 -0.000658713 -0.00129319 -0.909074 0.380348
1464756000 -0.937142 0.280688 -0.000728878 -0.00135891 -0.000716371 -0.00129981 -0.904457 0.391683
1476754000 -0.93425 0.295422 -0.000723403 -0.00128621 -0.000769834 -0.00124476 -0.898739 0.402872
1488752000 -0.930163 0.309794 -0.000718584 -0.00125904 -0.000697506 -0.00124022 -0.893266 0.413971
1500750000 -0.926451 0.32158 -0.000792976 -0.00124158 -0.000720625 -0.00124477 -0.887731 0.42151
1512748000 -0.919143 0.334733 -0.000683879 -0.00120835 -0.000703361 -0.0012182 -0.880298 0.435461
1524746000 -0.912472 0.345851 -0.000663642 -0.0012418 -0.000713995 -0.0011833 -0.874109 0.446711
1536744000 -0.907178 0.358101 -0.000769869 -0.00121096 -0.000722761 -0.00119282 -0.868634 0.456114
1548742000 -0.89906 0.369548 -0.00072148 -0.00119181 -0.000733433 -0.0011516 -0.862817 0.466575
1560740000 -0.893283 0.381653 -0.000770575 -0.00116962 -0.000722531 -0.00116063 -0.857205 0.477091
1572738000 -0.889171 0.391838 -0.000765067 -0.00115932 -0.000714493 -0.0011317 -0.851374 0.486855
1584736000 -0.885236 0.402289 -0.000700684 -0.00117508 -0.000746872 -0.00110591 -0.844504 0.496559
1596734000 -0.882022 0.412289 -0.000740974 -0.00115891 -0.000762376 -0.00113845 -0.83889 0.506093
1608732000 -0.878794 0.421863 -0.0007604 -0.00119473 -0.000767656 -0.00113709 -0.832413 0.514301
1620730000 -0.875421 0.4305 -0.00081242 -0.00118651 -0.000756259 -0.00119028 -0.826144 0.524373
1632728000 -0.87241 0.439405 -0.000777336 -0.00111642 -0.000873109 -0.00116441 -0.820662 0.532654
1644726000 -0.869119 0.446696 -0.000783268 -0.00113467 -0.000845708 -0.00111989 -0.814458 0.540814
1656724000 -0.865586 0.45481 -0.000859573 -0.00115832 -0.00083184 -0.0010821 -0.809579 0.550004
1668722000 -0.86307 0.464019 -0.000940406 -0.00106834 -0.000778957 -0.00115584 -0.805667 0.558467
1680720000 -0.861245 0.47246 -0.000942524 -0.00121334 -0.000902181 -0.00122821 -0.800577 0.567674
1692718000 -0.858083 0.480786 -0.00103235 -0.00113351 -0.000980922 -0.00115433 -0.795036 0.57682
1704716000 -0.855858 0.48739 -0.000920022 -0.00110929 -0.000959013 -0.00113495 -0.789313 0.586509
1716714000 -0.850207 0.497762 -0.000933954 -0.00109471 -0.000950849 -0.00110857 -0.781476 0.594414
1728712000 -0.843927 0.50645 -0.00101401 -0.00107734 -0.00102026 -0.00119274 -0.775815 0.601728
1740710000 -0.840773 0.515685 -0.00105007 -0.00110837 -0.00100984 -0.00114259 -0.766404 0.610143
1752708000 -0.835413 0.523576 -0.00102623 -0.0010337 -0.000968238 -0.000989702 -0.761603 0.619167
1764706000 -0.828451 0.531612 -0.0010231 -0.00110321 -0.000897843 -0.00104796 -0.756404 0.625692
1776704000 -0.819799 0.540581 -0.00103157 -0.000992322 -0.000962273 -0.0010982 -0.750391 0.636002
1788702000 -0.809598 0.550731 -0.00100814 -0.0009838 -0.000962536 -0.00102667 -0.744373 0.643567
1800700000 -0.797897 0.559892 -0.000930531 -0.00100795 -0.000996374 -0.000998783 -0.736941 0.655678
1812698000 -0.789414 0.570829 -0.000988102 -0.000980075 -0.000973807 -0.000945261 -0.730218 0.66231
1824696000 -0.777412 0.581458 -0.000941771 -0.000926833 -0.000954179 -0.0009779 -0.723018 0.670693
1836694000 -0.767834 0.592636 -0.00095519 -0.000915603 -0.000944594 -0.000902088 -0.714177 0.67939
1848692000 -0.758258 0.604435 -0.000978177 -0.000921617 -0.000904422 -0.000863518 -0.70509 0.687573
1860690000 -0.748897 0.615409 -0.000944903 -0.000906365 -0.000879872 -0.000897846 -0.696185 0.695923
1872688000 -0.74014 0.625305 -0.000890168 -0.000855416 -0.000873135 -0.000890919 -0.687386 0.703584
1884686000 -0.733121 0.63558 -0.000915116 -0.000894037 -0.000914906 -0.000906081 -0.679913 0.712739
1896684000 -0.727157 0.644033 -0.000950275 -0.000888742 -0.000926635 -0.000864106 -0.671963 0.718925
1908682000 -0.722293 0.654198 -0.00095908 -0.000849885 -0.00094508 -0.00088011 -0.663083 0.728693
1920680000 -0.718332 0.663559 -0.000913122 -0.000877028 -0.000925177 -0.000882573 -0.655194 0.736144
1932678000 -0.716916 0.672215 -0.00092522 -0.000847207 -0.000940403 -0.000906614 -0.646698 0.744904
1944676000 -0.712812 0.67937 -0.000990075 -0.000885618 -0.000893137 -0.000887509 -0.637774 0.752055
1956674000 -0.71274 0.685739 -0.00100058 -0.000890805 -0.000872068 -0.00084211 -0.629842 0.759069
1968672000 -0.712103 0.692192 -0.00097456 -0.000882432 -0.000894796 -0.000946778 -0.621876 0.766939
1980670000 -0.710959 0.695792 -0.00102689 -0.000930036 -0.00093027 -0.000971702 -0.614103 0.771542
1992668000 -0.710736 0.702368 -0.000928999 -0.000977146 -0.000959874 -0.000980393 -0.605687 0.780284
2004666000 -0.706299 0.705137 -0.000973379 -0.000962647 -0.000903122 -0.000948104 -0.597215 0.788061
2016664000 -0.704645 0.710242 -0.000944955 -0.000984602 -0.000886051 -0.000920288 -0.587944 0.792104
2028662000 -0.700349 0.712696 -0.000941518 -0.00097148 -0.00089235 -0.000970889 -0.578439 0.797833
2040660000 -0.692986 0.716304 -0.000898362 -0.000978158 -0.000969341 -0.000969474 -0.571459 0.804347
2052658000 -0.682978 0.71824 -0.00091837 -0.000958797 -0.000918412 -0.00105776 -0.562692 0.809152
2064656000 -0.672048 0.721926 -0.000881677 -0.00103208 -0.000820981 -0.00101669 -0.555221 0.813512
2076654000 -0.659933 0.72645 -0.000897672 -0.00103792 -0.000849031 -0.0010031 -0.548208 0.817732
2088652000 -0.645828 0.731683 -0.000869683 -0.00100201 -0.000834769 -0.00101006 -0.540987 0.820747
2100650000 -0.630675 0.736155 -0.00082069 -0.000998108 -0.000807269 -0.00105799 -0.531111 0.823199
2112648000 -0.615271 0.746113 -0.000806814 -0.000993254 -0.000794128 -0.00101261 -0.524269 0.829231
2124646000 -0.601502 0.753568 -0.00081 -0.00102394 -0.000804705 -0.00102368 -0.513121 0.833781
2136644000 -0.586904 0.764438 -0.000767093 -0.00104703 -0.000770797 -0.0010853 -0.503043 0.839297
2148642000 -0.57268 0.776887 -0.000788158 -0.00107621 -0.000799364 -0.00107282 -0.494776 0.844205
2160640000 -0.560012 0.787523 -0.000810563 -0.00110831 -0.000797777 -0.00109292 -0.485399 0.850067
2172638000 -0.548033 0.80216 -0.000842735 -0.00111684 -0.000750591 -0.00112178 -0.475584 0.856454
2184636000 -0.539349 0.813132 -0.000789108 -0.00117214 -0.000754997 -0.00113433 -0.464894 0.862085
2196634000 -0.53287 0.823265 -0.00082866 -0.00121375 -0.000770312 -0.00120923 -0.454535 0.868323
2208632000 -0.525737 0.835868 -0.000881423 -0.0012656 -0.000831808 -0.00122636 -0.446763 0.873815
2220630000 -0.521831 0.845054 -0.000803409 -0.00129007 -0.000850585 -0.00130346 -0.435312 0.882505
2232628000 -0.519533 0.851449 -0.000910666 -0.00136594 -0.000841692 -0.00141679 -0.426215 0.888744
2244626000 -0.517962 0.855628 -0.000958531 -0.00148827 -0.000889403 -0.00145686 -0.418299 0.895613
2256624000 -0.516357 0.857873 -0.00100932 -0.00152409 -0.000880517 -0.0014706 -0.40771 0.901348
2268622000 -0.513099 0.8599 -0.000926805 -0.00166136 -0.000878934 -0.0015711 -0.398519 0.90675
2280620000 -0.511261 0.859475 -0.00102676 -0.00169503 -0.00100646 -0.0016335 -0.38888 0.911675
2292618000 -0.51173 0.85945 -0.00102664 -0.00178624 -0.00105135 -0.00166291 -0.378744 0.914185
2304616000 -0.510243 0.857053 -0.00111319 -0.00176667 -0.00106827 -0.0017253 -0.371434 0.916956
2316614000 -0.505445 0.854224 -0.00112131 -0.00182015 -0.00111612 -0.00184813 -0.362697 0.919896
2328612000 -0.499472 0.852946 -0.00128332 -0.0018587 -0.00120139 -0.00192617 -0.353061 0.923631
2340610000 -0.489235 0.851652 -0.00128872 -0.00183694 -0.00126254 -0.00181853 -0.344539 0.92586
2352608000 -0.480131 0.851678 -0.00126181 -0.00188459 -0.00129204 -0.00192007 -0.335364 0.92501
2364606000 -0.469285 0.851588 -0.00142455 -0.00201952 -0.00139816 -0.00194094 -0.325772 0.926208
2376604000 -0.458795 0.852801 -0.00157547 -0.00203752 -0.00144639 -0.00193982 -0.314906 0.92878
2388602000 -0.447016 0.857994 -0.00161693 -0.00189217 -0.00158462 -0.00196789 -0.306311 0.92996
2400600000 -0.433599 0.86287 -0.00163491 -0.00190012 -0.00169135 -0.00198083 -0.297096 0.932805
2412598000 -0.422716 0.870985 -0.00173795 -0.00191399 -0.00176827 -0.00196481 -0.28892 0.935324
2424596000 -0.410466 0.878912 -0.00188561 -0.00187118 -0.00186095 -0.00189694 -0.280844 0.936272
2436594000 -0.395028 0.887052 -0.00195504 -0.0018298 -0.00186251 -0.00183336 -0.27024 0.937516
2448592000 -0.382988 0.893773 -0.00211 -0.00182804 -0.00195019 -0.00185824 -0.260716 0.94205
