# Hz S RI R 50
1000000 1.00419 -0.00889511
12998000 0.98191 -0.0743786
24996000 0.971082 -0.133611
36994000 0.962334 -0.190726
48992000 0.949288 -0.249111
60990000 0.932522 -0.306761
72988000 0.911994 -0.36348
84986000 0.887893 -0.418718
96984000 0.860054 -0.472381
108982000 0.829263 -0.523613
120980000 0.795466 -0.572303
132978000 0.759141 -0.618634
144976000 0.720867 -0.662468
156974000 0.68001 -0.701993
168972000 0.63874 -0.737504
180970000 0.597145 -0.771114
192968000 0.553511 -0.80128
204966000 0.510158 -0.828519
216964000 0.466105 -0.852429
228962000 0.422471 -0.873691
240960000 0.378913 -0.892804
252958000 0.334861 -0.909485
264956000 0.292444 -0.923943
276954000 0.250084 -0.936152
288952000 0.207512 -0.946692
300950000 0.165091 -0.954988
312948000 0.124649 -0.961457
324946000 0.0818615 -0.965698
336944000 0.0409331 -0.968898
348942000 -0.000244062 -0.969275
360940000 -0.0404356 -0.968494
372938000 -0.0801698 -0.966133
384936000 -0.118923 -0.962812
396934000 -0.156124 -0.95766
408932000 -0.191979 -0.951104
420930000 -0.226982 -0.94381
432928000 -0.25975 -0.935134
444926000 -0.291394 -0.924753
456924000 -0.321876 -0.914161
468922000 -0.351879 -0.902495
480920000 -0.38046 -0.890116
492918000 -0.408501 -0.87661
504916000 -0.434726 -0.863631
516914000 -0.460875 -0.850296
528912000 -0.485935 -0.836856
540910000 -0.510378 -0.822705
552908000 -0.534345 -0.807697
564906000 -0.558463 -0.793431
576904000 -0.580828 -0.777856
588902000 -0.60315 -0.762583
600900000 -0.624858 -0.74607
612898000 -0.645443 -0.728928
624896000 -0.665576 -0.711775
636894000 -0.684338 -0.694713
648892000 -0.702169 -0.677025
660890000 -0.719084 -0.659826
672888000 -0.734885 -0.642025
684886000 -0.749101 -0.624314
696884000 -0.762233 -0.60774
708882000 -0.77493 -0.590235
720880000 -0.786548 -0.573495
732878000 -0.798312 -0.555832
744876000 -0.809068 -0.537271
756874000 -0.819495 -0.51979
768872000 -0.830929 -0.501772
780870000 -0.841532 -0.482853
792868000 -0.851035 -0.46408
804866000 -0.861177 -0.445285
816864000 -0.871203 -0.427027
828862000 -0.881131 -0.40749
840860000 -0.890649 -0.388853
852858000 -0.899315 -0.369724
864856000 -0.907003 -0.350151
876854000 -0.914715 -0.33205
888852000 -0.922478 -0.314433
900850000 -0.927034 -0.296895
912848000 -0.933639 -0.280048
924846000 -0.938212 -0.263641
936844000 -0.942699 -0.248743
948842000 -0.946903 -0.234791
960840000 -0.951252 -0.222378
972838000 -0.954662 -0.209021
984836000 -0.956613 -0.196299
996834000 -0.959116 -0.182366
1008832000 -0.961305 -0.168953
1020830000 -0.962464 -0.155245
1032828000 -0.963684 -0.142168
1044826000 -0.964753 -0.129068
1056824000 -0.966373 -0.114804
1068822000 -0.968335 -0.0991794
1080820000 -0.968525 -0.0820385
1092818000 -0.969267 -0.0666341
1104816000 -0.969255 -0.0512702
1116814000 -0.970795 -0.0346291
1128812000 -0.971018 -0.0158518
1140810000 -0.971551 -0.00130235
1152808000 -0.972145 0.0171488
1164806000 -0.971556 0.0343433
1176804000 -0.970738 0.0511847
1188802000 -0.970612 0.064744
1200800000 -0.970139 0.0773315
1212798000 -0.971394 0.0886481
1224796000 -0.973722 0.0996828
1236794000 -0.972626 0.114911
1248792000 -0.970603 0.124085
1260790000 -0.969736 0.133164
1272788000 -0.967698 0.142773
1284786000 -0.963971 0.151003
1296784000 -0.960845 0.159459
1308782000 -0.957462 0.168891
1320780000 -0.954889 0.178861
1332778000 -0.953183 0.18796
1344776000 -0.951221 0.196737
1356774000 -0.949319 0.205198
1368772000 -0.948177 0.21601
1380770000 -0.945127 0.226771
1392768000 -0.941568 0.239242
1404766000 -0.939556 0.251062
1416764000 -0.935115 0.265037
1428762000 -0.932236 0.278865
1440760000 -0.928055 0.290889
1452758000 -0.924461 0.302893
1464756000 -0.921368 0.316653
1476754000 -0.91752 0.331442
1488752000 -0.912879 0.345871
1500750000 -0.90612 0.3608
1512748000 -0.901132 0.370766
1524746000 -0.894373 0.381559
1536744000 -0.887752 0.394222
1548742000 -0.880076 0.403896
1560740000 -0.875064 0.415369
1572738000 -0.868763 0.426085
1584736000 -0.864684 0.436679
1596734000 -0.860948 0.446297
1608732000 -0.857311 0.455223
1620730000 -0.853127 0.463619
1632728000 -0.85001 0.472792
1644726000 -0.846269 0.479895
1656724000 -0.841751 0.488569
1668722000 -0.840371 0.49549
1680720000 -0.836936 0.5054
1692718000 -0.832899 0.514156
1704716000 -0.828679 0.521904
1716714000 -0.821886 0.532373
1728712000 -0.816881 0.540693
1740710000 -0.812585 0.550478
1752708000 -0.806704 0.558804
1764706000 -0.799088 0.566277
1776704000 -0.789677 0.575831
1788702000 -0.779136 0.585672
1800700000 -0.768232 0.594762
1812698000 -0.757213 0.604004
1824696000 -0.746098 0.615557
1836694000 -0.735462 0.627647
1848692000 -0.72438 0.638781
1860690000 -0.7149 0.649242
1872688000 -0.706103 0.658034
1884686000 -0.6983 0.66741
1896684000 -0.691574 0.67594
1908682000 -0.686804 0.685583
1920680000 -0.682018 0.694639
1932678000 -0.678937 0.703555
1944676000 -0.676562 0.71046
1956674000 -0.673972 0.717419
1968672000 -0.673286 0.722834
1980670000 -0.671415 0.727823
1992668000 -0.671034 0.734457
2004666000 -0.666373 0.739198
2016664000 -0.663911 0.741993
2028662000 -0.657866 0.745048
2040660000 -0.651397 0.747899
2052658000 -0.641221 0.749926
2064656000 -0.629853 0.753165
2076654000 -0.617689 0.757232
2088652000 -0.603424 0.762033
2100650000 -0.587968 0.767027
2112648000 -0.572137 0.774661
2124646000 -0.556979 0.78271
2136644000 -0.542675 0.791748
2148642000 -0.527992 0.803401
2160640000 -0.5151 0.813641
2172638000 -0.501429 0.826869
2184636000 -0.492404 0.837342
2196634000 -0.485559 0.847506
2208632000 -0.478774 0.858241
2220630000 -0.473876 0.868528
2232628000 -0.470759 0.874428
2244626000 -0.468621 0.880022
2256624000 -0.466047 0.880904
2268622000 -0.462266 0.882304
2280620000 -0.45962 0.884016
2292618000 -0.459291 0.88379
2304616000 -0.45833 0.88158
2316614000 -0.453233 0.877864
2328612000 -0.446936 0.876367
2340610000 -0.437376 0.874618
2352608000 -0.42882 0.873956
2364606000 -0.416532 0.874285
2376604000 -0.40599 0.874665
2388602000 -0.395626 0.877649
2400600000 -0.381231 0.884147
2412598000 -0.368091 0.88982
2424596000 -0.354647 0.897704
2436594000 -0.339947 0.904846
2448592000 -0.327598 0.911843
2460590000 -0.314205 0.919868
2472588000 -0.304876 0.927299
2484586000 -0.294859 0.933903
2496584000 -0.284885 0.940502
2508582000 -0.279955 0.946726
2520580000 -0.273747 0.949422
2532578000 -0.271011 0.952695
2544576000 -0.268165 0.954088
2556574000 -0.265552 0.954628
2568572000 -0.261626 0.95554
2580570000 -0.260245 0.953397
2592568000 -0.255915 0.949573
2604566000 -0.243948 0.945365
2616564000 -0.245273 0.9492
2628562000 -0.238144 0.948165
2640560000 -0.230404 0.949237
2652558000 -0.2214 0.9482
2664556000 -0.212864 0.949641
2676554000 -0.204553 0.949726
2688552000 -0.193326 0.950438
2700550000 -0.183128 0.953353
2712548000 -0.17152 0.955351
2724546000 -0.158532 0.957151
2736544000 -0.14607 0.961918
2748542000 -0.133421 0.965686
2760540000 -0.120857 0.969429
2772538000 -0.108897 0.972464
2784536000 -0.0971035 0.97451
2796534000 -0.0853861 0.977611
2808532000 -0.0752622 0.9791
2820530000 -0.0635401 0.978769
2832528000 -0.0542575 0.979413
2844526000 -0.0449133 0.981343
2856524000 -0.0354588 0.978743
2868522000 -0.0265863 0.978701
2880520000 -0.01744 0.978369
2892518000 -0.00812665 0.976866
2904516000 -0.00116745 0.976411
2916514000 0.00824089 0.974902
2928512000 0.0174346 0.974859
2940510000 0.0293111 0.972968
2952508000 0.0355368 0.971441
2964506000 0.0470466 0.970898
2976504000 0.0521449 0.972865
2988502000 0.059639 0.973133
3000500000 0.0643556 0.974955
3012498000 0.072726 0.973254
3024496000 0.0825142 0.973779
3036494000 0.0885159 0.970816
3048492000 0.0959781 0.971821
3060490000 0.103378 0.970831
3072488000 0.112863 0.97062
3084486000 0.122727 0.969284
3096484000 0.133226 0.968217
3108482000 0.145057 0.965968
3120480000 0.154376 0.961836
3132478000 0.167578 0.959815
3144476000 0.179136 0.959293
3156474000 0.193538 0.953937
3168472000 0.208609 0.949234
3180470000 0.219554 0.947943
3192468000 0.231738 0.943777
3204466000 0.242601 0.941044
3216464000 0.253031 0.937886
3228462000 0.264731 0.935663
3240460000 0.270347 0.934013
3252458000 0.27529 0.934391
3264456000 0.281397 0.9326
3276454000 0.286299 0.93164
3288452000 0.290988 0.930891
3300450000 0.293551 0.927185
3312448000 0.298236 0.92501
3324446000 0.303275 0.921545
3336444000 0.307967 0.919318
3348442000 0.314 0.915667
3360440000 0.320965 0.912422
3372438000 0.328697 0.908353
3384436000 0.337737 0.903278
3396434000 0.347079 0.898721
3408432000 0.360195 0.892964
3420430000 0.37268 0.891262
3432428000 0.382466 0.884099
3444426000 0.396061 0.877781
3456424000 0.408435 0.874211
3468422000 0.397847 0.883795
3480420000 0.435002 0.861527
3492418000 0.447636 0.856324
3504416000 0.458511 0.850708
3516414000 0.46682 0.845649
3528412000 0.478443 0.842353
3540410000 0.486692 0.838463
3552408000 0.493742 0.828123
3564406000 0.500003 0.825735
3576404000 0.507456 0.824637
3588402000 0.509465 0.81867
3600400000 0.514809 0.813645
3612398000 0.519471 0.809399
3624396000 0.523062 0.805223
3636394000 0.527232 0.800739
3648392000 0.531836 0.796626
3660390000 0.535963 0.793005
3672388000 0.543697 0.785465
3684386000 0.547671 0.783958
3696384000 0.55389 0.782065
3708382000 0.559507 0.776086
3720380000 0.568808 0.770377
3732378000 0.579565 0.764439
3744376000 0.587919 0.755368
3756374000 0.59908 0.7473
3768372000 0.610314 0.739589
3780370000 0.622145 0.730747
3792368000 0.63319 0.721197
3804366000 0.642938 0.712044
3816364000 0.655471 0.704088
3828362000 0.664793 0.69491
3840360000 0.675629 0.681721
3852358000 0.681778 0.675718
3864356000 0.689909 0.665316
3876354000 0.696995 0.654129
3888352000 0.704499 0.645393
3900350000 0.710863 0.635554
3912348000 0.716456 0.627975
3924346000 0.721044 0.621505
3936344000 0.724216 0.615329
3948342000 0.728676 0.609116
3960340000 0.735475 0.603159
3972338000 0.7401 0.596198
3984336000 0.742978 0.58707
3996334000 0.750933 0.581854
4008332000 0.756916 0.576117
4020330000 0.763223 0.570647
4032328000 0.76984 0.564877
4044326000 0.774148 0.558364
4056324000 0.776246 0.553813
4068322000 0.780479 0.545106
4080320000 0.785868 0.537244
4092318000 0.78983 0.529028
4104316000 0.795497 0.518465
4116314000 0.799399 0.511656
4128312000 0.805442 0.501212
4140310000 0.809295 0.48964
4152308000 0.811398 0.47922
4164306000 0.814858 0.468484
4176304000 0.818037 0.456072
4188302000 0.823311 0.443954
4200300000 0.829633 0.431591
4212298000 0.836967 0.413293
4224296000 0.846652 0.400097
4236294000 0.853129 0.38735
4248292000 0.861255 0.377181
4260290000 0.868589 0.365182
4272288000 0.872322 0.354946
4284286000 0.874086 0.348664
4296284000 0.875033 0.343066
4308282000 0.873668 0.339199
4320280000 0.875277 0.335808
4332278000 0.877765 0.330359
4344276000 0.875956 0.323052
4356274000 0.873242 0.315661
4368272000 0.875346 0.307449
4380270000 0.872123 0.29406
4392268000 0.87109 0.28138
4404266000 0.874212 0.264242
4416264000 0.878057 0.248338
4428262000 0.880147 0.228878
4440260000 0.884651 0.210878
4452258000 0.886512 0.193168
4464256000 0.889624 0.173864
4476254000 0.892727 0.155426
4488252000 0.895437 0.142047
4500250000 0.896714 0.123591
4512248000 0.899725 0.108966
4524246000 0.899399 0.0922748
4536244000 0.901231 0.0801255
4548242000 0.902964 0.0656549
4560240000 0.899077 0.0551214
4572238000 0.898616 0.0457387
4584236000 0.897784 0.0337231
4596234000 0.888813 0.0279807
4608232000 0.884597 0.0196441
4620230000 0.883562 0.0186611
4632228000 0.879378 0.00617789
4644226000 0.877523 -0.00444611
4656224000 0.872754 -0.0144597
4668222000 0.865666 -0.0296458
4680220000 0.862613 -0.04023
4692218000 0.85855 -0.053684
4704216000 0.852223 -0.0655507
4716214000 0.845549 -0.0803671
4728212000 0.841344 -0.0969248
4740210000 0.83328 -0.117552
4752208000 0.823889 -0.136881
4764206000 0.813526 -0.158513
4776204000 0.800766 -0.18105
4788202000 0.78819 -0.203198
4800200000 0.777651 -0.225798
4812198000 0.765165 -0.245794
4824196000 0.750408 -0.263406
4836194000 0.735778 -0.281832
4848192000 0.723843 -0.300585
4860190000 0.707338 -0.315511
4872188000 0.693038 -0.326038
4884186000 0.676006 -0.33979
4896184000 0.659245 -0.3543
4908182000 0.645269 -0.366349
4920180000 0.6289 -0.37616
4932178000 0.611761 -0.383157
4944176000 0.59606 -0.389693
4956174000 0.577169 -0.397089
4968172000 0.556579 -0.403803
4980170000 0.532828 -0.406372
4992168000 0.507591 -0.412293
5004166000 0.478431 -0.420316
5016164000 0.450115 -0.422305
5028162000 0.414753 -0.425732
5040160000 0.37889 -0.423266
5052158000 0.343136 -0.418928
5064156000 0.306005 -0.415106
5076154000 0.268604 -0.408083
5088152000 0.230098 -0.398853
5100150000 0.19156 -0.385769
5112148000 0.157573 -0.376525
5124146000 0.117168 -0.358159
5136144000 0.0806019 -0.336815
5148142000 0.0478946 -0.310019
5160140000 0.0234027 -0.280998
5172138000 -0.00396664 -0.255402
5184136000 -0.0237708 -0.220701
5196134000 -0.0356833 -0.187533
5208132000 -0.04676 -0.153573
5220130000 -0.0551922 -0.114973
5232128000 -0.0534243 -0.0743372
5244126000 -0.0473573 -0.0301799
5256124000 -0.0328545 0.014586
5268122000 -0.0178556 0.0546547
5280120000 0.000520757 0.108933
5292118000 0.0196829 0.150589
5304116000 0.0380797 0.194244
5316114000 0.0582046 0.238565
5328112000 0.0834854 0.27243
5340110000 0.103254 0.305773
5352108000 0.125711 0.333051
5364106000 0.150445 0.358553
5376104000 0.174215 0.381441
5388102000 0.198921 0.397903
5400100000 0.229428 0.412602
5412098000 0.258061 0.42009
5424096000 0.287711 0.428058
5436094000 0.320281 0.430744
5448092000 0.3488 0.427238
5460090000 0.374898 0.424288
5472088000 0.404248 0.420618
5484086000 0.432702 0.412211
5496084000 0.462817 0.402259
5508082000 0.490808 0.389407
5520080000 0.518786 0.379201
5532078000 0.545963 0.363683
5544076000 0.570409 0.348779
5556074000 0.593929 0.33747
5568072000 0.618107 0.317453
5580070000 0.635407 0.303621
5592068000 0.655768 0.292067
5604066000 0.675851 0.277288
5616064000 0.690282 0.263037
5628062000 0.707844 0.252492
5640060000 0.720802 0.238423
5652058000 0.733839 0.227437
5664056000 0.74468 0.216162
5676054000 0.753588 0.203173
5688052000 0.764976 0.193432
5700050000 0.774657 0.184249
5712048000 0.782342 0.172188
5724046000 0.790493 0.16052
5736044000 0.796159 0.14714
5748042000 0.801585 0.132246
5760040000 0.808277 0.11375
5772038000 0.812254 0.0947193
5784036000 0.814439 0.0768752
5796034000 0.817632 0.0539502
5808032000 0.817641 0.0315346
5820030000 0.819845 0.00610331
5832028000 0.819964 -0.0167278
5844026000 0.821423 -0.0419733
5856024000 0.820564 -0.0667136
5868022000 0.825384 -0.0840466
5880020000 0.825934 -0.100553
5892018000 0.822789 -0.119973
5904016000 0.827991 -0.134274
5916014000 0.828971 -0.151672
5928012000 0.832876 -0.159449
5940010000 0.832463 -0.168121
5952008000 0.836885 -0.181224
5964006000 0.840181 -0.183846
5976004000 0.840333 -0.19493
5988002000 0.842088 -0.198055
6000000000 0.845337 -0.20909
