# Hz S RI R 50
1000000 1.00118 -0.00379295
12998000 0.982847 -0.0735669
24996000 0.972372 -0.13303
36994000 0.963615 -0.190498
48992000 0.950355 -0.249186
60990000 0.933442 -0.307185
72988000 0.912869 -0.364026
84986000 0.888845 -0.419109
96984000 0.860992 -0.472752
108982000 0.829874 -0.524199
120980000 0.796408 -0.572802
132978000 0.759786 -0.619434
144976000 0.722028 -0.662602
156974000 0.681505 -0.702522
168972000 0.639593 -0.737727
180970000 0.598365 -0.771739
192968000 0.555021 -0.801726
204966000 0.511599 -0.829187
216964000 0.467749 -0.852912
228962000 0.423864 -0.87453
240960000 0.380229 -0.893714
252958000 0.335925 -0.910523
264956000 0.293078 -0.925049
276954000 0.250666 -0.937181
288952000 0.207884 -0.947893
300950000 0.165499 -0.956073
312948000 0.124705 -0.962304
324946000 0.0816228 -0.966587
336944000 0.0402851 -0.969593
348942000 -0.000779298 -0.969914
360940000 -0.0408751 -0.968918
372938000 -0.0805752 -0.966523
384936000 -0.119411 -0.96304
396934000 -0.156595 -0.957704
408932000 -0.192459 -0.951931
420930000 -0.227357 -0.944373
432928000 -0.260401 -0.935691
444926000 -0.291669 -0.925281
456924000 -0.322447 -0.914954
468922000 -0.351957 -0.903122
480920000 -0.380967 -0.89066
492918000 -0.409 -0.87722
504916000 -0.4354 -0.864091
516914000 -0.461641 -0.850687
528912000 -0.486801 -0.836909
540910000 -0.511349 -0.822498
552908000 -0.535993 -0.807979
564906000 -0.559814 -0.793285
576904000 -0.582491 -0.777551
588902000 -0.604389 -0.761723
600900000 -0.625853 -0.744694
612898000 -0.646702 -0.727862
624896000 -0.666663 -0.710888
636894000 -0.685577 -0.693543
648892000 -0.703193 -0.675879
660890000 -0.720164 -0.65816
672888000 -0.735743 -0.641161
684886000 -0.749933 -0.623272
696884000 -0.763411 -0.606578
708882000 -0.775973 -0.589846
720880000 -0.7879 -0.572547
732878000 -0.799463 -0.5549
744876000 -0.810148 -0.537005
756874000 -0.820509 -0.519296
768872000 -0.83162 -0.501579
780870000 -0.842162 -0.482516
792868000 -0.851692 -0.463659
804866000 -0.8616 -0.444575
816864000 -0.872102 -0.426209
828862000 -0.882286 -0.40773
840860000 -0.890602 -0.388779
852858000 -0.898982 -0.368434
864856000 -0.907551 -0.349296
876854000 -0.914758 -0.330742
888852000 -0.922442 -0.313148
900850000 -0.927644 -0.295417
912848000 -0.93377 -0.278309
924846000 -0.938674 -0.26189
936844000 -0.94272 -0.24643
948842000 -0.946853 -0.233069
960840000 -0.950909 -0.219925
972838000 -0.954375 -0.206294
984836000 -0.956863 -0.193494
996834000 -0.958973 -0.179466
1008832000 -0.961625 -0.166025
1020830000 -0.962917 -0.152794
1032828000 -0.963977 -0.138949
1044826000 -0.964875 -0.126147
1056824000 -0.96659 -0.111851
1068822000 -0.968404 -0.0965128
1080820000 -0.96906 -0.0784924
1092818000 -0.969477 -0.0644222
1104816000 -0.96964 -0.0484203
1116814000 -0.970867 -0.0312877
1128812000 -0.971253 -0.0138353
1140810000 -0.971661 0.00233229
1152808000 -0.971668 0.0197269
1164806000 -0.971527 0.0367728
1176804000 -0.970084 0.0543298
1188802000 -0.970419 0.0672082
1200800000 -0.970006 0.080415
1212798000 -0.970618 0.0915047
1224796000 -0.9725 0.102411
1236794000 -0.971936 0.118437
1248792000 -0.970065 0.127721
1260790000 -0.969328 0.136875
1272788000 -0.966834 0.146247
1284786000 -0.963006 0.154195
1296784000 -0.960025 0.162906
1308782000 -0.95634 0.17267
1320780000 -0.954026 0.182112
1332778000 -0.952104 0.191188
1344776000 -0.950218 0.200045
1356774000 -0.948429 0.208542
1368772000 -0.946651 0.218929
1380770000 -0.944219 0.229761
1392768000 -0.941286 0.242603
1404766000 -0.938455 0.255463
1416764000 -0.934482 0.268362
1428762000 -0.931304 0.28095
1440760000 -0.926956 0.293549
1452758000 -0.922895 0.305724
1464756000 -0.920006 0.319246
1476754000 -0.916187 0.334037
1488752000 -0.911339 0.34839
1500750000 -0.906473 0.361612
1512748000 -0.899341 0.37323
1524746000 -0.893251 0.384269
1536744000 -0.886043 0.395682
1548742000 -0.878136 0.407023
1560740000 -0.871994 0.418804
1572738000 -0.867363 0.429088
1584736000 -0.862604 0.439329
1596734000 -0.858929 0.449225
1608732000 -0.855373 0.458255
1620730000 -0.850914 0.467068
1632728000 -0.847737 0.475993
1644726000 -0.843766 0.482957
1656724000 -0.839901 0.491607
1668722000 -0.836351 0.499587
1680720000 -0.834338 0.508329
1692718000 -0.830269 0.518396
1704716000 -0.82561 0.525661
1716714000 -0.819781 0.536193
1728712000 -0.814385 0.545144
1740710000 -0.810129 0.554572
1752708000 -0.80426 0.562008
1764706000 -0.796541 0.569423
1776704000 -0.78693 0.578728
1788702000 -0.776558 0.588811
1800700000 -0.764729 0.597667
1812698000 -0.755508 0.60943
1824696000 -0.74367 0.617867
1836694000 -0.731451 0.629756
1848692000 -0.721636 0.641027
1860690000 -0.711845 0.651546
1872688000 -0.702704 0.66024
1884686000 -0.694909 0.670549
1896684000 -0.688777 0.678612
1908682000 -0.683014 0.688957
1920680000 -0.678859 0.697352
1932678000 -0.675881 0.705656
1944676000 -0.672182 0.712698
1956674000 -0.670216 0.719551
1968672000 -0.668538 0.72717
1980670000 -0.667436 0.730975
1992668000 -0.667485 0.735999
2004666000 -0.665159 0.739258
2016664000 -0.659849 0.744613
2028662000 -0.654894 0.747241
2040660000 -0.647559 0.750004
2052658000 -0.637346 0.752342
2064656000 -0.626045 0.755553
2076654000 -0.613542 0.759762
2088652000 -0.600638 0.764207
2100650000 -0.585798 0.768463
2112648000 -0.569704 0.77647
2124646000 -0.554051 0.784271
2136644000 -0.539263 0.794464
2148642000 -0.525262 0.803949
2160640000 -0.511802 0.816346
2172638000 -0.498206 0.828386
2184636000 -0.489479 0.838906
2196634000 -0.482095 0.848821
2208632000 -0.475339 0.859884
2220630000 -0.470479 0.870007
2232628000 -0.468243 0.874576
2244626000 -0.466202 0.88
2256624000 -0.462896 0.883101
2268622000 -0.458948 0.883859
2280620000 -0.457107 0.886107
2292618000 -0.456481 0.885098
2304616000 -0.455384 0.883371
2316614000 -0.45014 0.87924
2328612000 -0.443583 0.878227
2340610000 -0.43358 0.876868
2352608000 -0.424343 0.875171
2364606000 -0.413997 0.876223
2376604000 -0.402346 0.877127
2388602000 -0.390488 0.881308
2400600000 -0.37613 0.886691
2412598000 -0.362369 0.893116
2424596000 -0.350013 0.899686
2436594000 -0.334716 0.907118
2448592000 -0.322997 0.912573
2460590000 -0.30952 0.921133
2472588000 -0.30022 0.928718
2484586000 -0.289915 0.935503
2496584000 -0.280978 0.941998
2508582000 -0.275675 0.947227
2520580000 -0.269343 0.9528
2532578000 -0.265668 0.954644
2544576000 -0.26189 0.956787
2556574000 -0.260869 0.955946
2568572000 -0.257687 0.95695
2580570000 -0.255451 0.954572
2592568000 -0.251686 0.951199
2604566000 -0.238835 0.947352
2616564000 -0.240339 0.951288
2628562000 -0.23225 0.950075
2640560000 -0.225204 0.949573
2652558000 -0.218718 0.949368
2664556000 -0.208654 0.950532
2676554000 -0.198673 0.9515
2688552000 -0.188302 0.952608
2700550000 -0.177161 0.954484
2712548000 -0.165864 0.955976
2724546000 -0.154015 0.958154
2736544000 -0.140694 0.963109
2748542000 -0.128943 0.966396
2760540000 -0.115738 0.970224
2772538000 -0.104251 0.973256
2784536000 -0.0924884 0.976546
2796534000 -0.0803003 0.978821
2808532000 -0.0699553 0.978458
2820530000 -0.0591963 0.979965
2832528000 -0.0492545 0.980952
2844526000 -0.0384759 0.981604
2856524000 -0.0302798 0.980053
2868522000 -0.021116 0.978295
2880520000 -0.0114649 0.978972
2892518000 -0.00333922 0.977567
2904516000 0.00425147 0.977118
2916514000 0.0135788 0.975607
2928512000 0.0232234 0.975006
2940510000 0.0345536 0.972103
2952508000 0.0420329 0.971825
2964506000 0.0519836 0.971244
2976504000 0.0589017 0.973479
2988502000 0.0673682 0.972372
3000500000 0.0705159 0.975189
3012498000 0.0784798 0.972514
3024496000 0.0877792 0.973038
3036494000 0.0940785 0.972139
3048492000 0.101826 0.971768
3060490000 0.109348 0.970432
3072488000 0.118608 0.970035
3084486000 0.128351 0.969148
3096484000 0.137561 0.966923
3108482000 0.149837 0.966041
3120480000 0.161817 0.962208
3132478000 0.173929 0.960485
3144476000 0.184925 0.955895
3156474000 0.199537 0.953651
3168472000 0.213021 0.947952
3180470000 0.224967 0.946785
3192468000 0.236625 0.942515
3204466000 0.247306 0.939265
3216464000 0.258613 0.935653
3228462000 0.268279 0.935053
3240460000 0.27484 0.933431
3252458000 0.28117 0.931661
3264456000 0.28596 0.930774
3276454000 0.291031 0.929566
3288452000 0.296539 0.928258
3300450000 0.299988 0.925723
3312448000 0.303016 0.922661
3324446000 0.307762 0.91931
3336444000 0.312633 0.916976
3348442000 0.318645 0.913962
3360440000 0.327149 0.910346
3372438000 0.332696 0.907021
3384436000 0.342502 0.900332
3396434000 0.353794 0.897344
3408432000 0.364167 0.892051
3420430000 0.376372 0.888984
3432428000 0.386518 0.881815
3444426000 0.400669 0.876192
3456424000 0.413518 0.870242
3468422000 0.401265 0.881918
3480420000 0.438901 0.859064
3492418000 0.451858 0.853601
3504416000 0.461076 0.847151
3516414000 0.470114 0.842306
3528412000 0.482276 0.839987
3540410000 0.488983 0.835245
3552408000 0.497222 0.825976
3564406000 0.503398 0.824103
3576404000 0.508992 0.818705
3588402000 0.514678 0.815833
3600400000 0.518609 0.810604
3612398000 0.523078 0.806603
3624396000 0.526381 0.802746
3636394000 0.530714 0.798392
3648392000 0.535199 0.792993
3660390000 0.540253 0.791611
3672388000 0.541745 0.783471
3684386000 0.54953 0.78296
3696384000 0.556505 0.775192
3708382000 0.565541 0.771254
3720380000 0.572895 0.767357
3732378000 0.582265 0.760872
3744376000 0.591957 0.75331
3756374000 0.602128 0.744666
3768372000 0.613403 0.736655
3780370000 0.62502 0.727984
3792368000 0.63663 0.71874
3804366000 0.646177 0.709806
3816364000 0.658218 0.702057
3828362000 0.666513 0.694083
3840360000 0.678197 0.681149
3852358000 0.686064 0.672136
3864356000 0.691579 0.661774
3876354000 0.699847 0.652134
3888352000 0.706248 0.643006
3900350000 0.712859 0.633942
3912348000 0.71862 0.62649
3924346000 0.723657 0.619978
3936344000 0.726683 0.613907
3948342000 0.73225 0.608221
3960340000 0.736808 0.601568
3972338000 0.74236 0.596458
3984336000 0.746029 0.588672
3996334000 0.753782 0.582414
4008332000 0.759556 0.576365
4020330000 0.76527 0.571364
4032328000 0.772593 0.565349
4044326000 0.776714 0.559363
4056324000 0.780019 0.553345
4068322000 0.783785 0.544559
4080320000 0.788923 0.535916
4092318000 0.793291 0.527362
4104316000 0.799315 0.517796
4116314000 0.80308 0.51071
4128312000 0.807458 0.50111
4140310000 0.812073 0.487243
4152308000 0.815547 0.476219
4164306000 0.818185 0.464955
4176304000 0.823107 0.453117
4188302000 0.827721 0.439277
4200300000 0.832526 0.426813
4212298000 0.840058 0.41084
4224296000 0.849358 0.397502
4236294000 0.855771 0.384039
4248292000 0.865255 0.374838
4260290000 0.872892 0.362179
4272288000 0.876583 0.353087
4284286000 0.878207 0.350207
4296284000 0.876486 0.342678
4308282000 0.877498 0.343039
4320280000 0.882705 0.335719
4332278000 0.879716 0.328181
4344276000 0.882569 0.319254
4356274000 0.878613 0.314832
4368272000 0.879641 0.306059
4380270000 0.876872 0.292519
4392268000 0.875667 0.280016
4404266000 0.879211 0.261665
4416264000 0.882057 0.245849
4428262000 0.885713 0.226647
4440260000 0.88982 0.207691
4452258000 0.890668 0.190655
4464256000 0.895552 0.171272
4476254000 0.898767 0.154
4488252000 0.900398 0.139436
4500250000 0.901966 0.121803
4512248000 0.906096 0.107499
4524246000 0.906506 0.0906644
4536244000 0.909704 0.0776075
4548242000 0.908163 0.0623721
4560240000 0.907587 0.0526999
4572238000 0.90478 0.0420064
4584236000 0.90293 0.0360569
4596234000 0.901215 0.0251579
4608232000 0.895987 0.0170227
4620230000 0.897158 0.0128157
4632228000 0.891718 0.000940589
4644226000 0.888026 -0.00988502
4656224000 0.883592 -0.0233513
4668222000 0.875891 -0.0394927
4680220000 0.872794 -0.0503546
4692218000 0.867838 -0.0631828
4704216000 0.861473 -0.077471
4716214000 0.856477 -0.0915006
4728212000 0.847018 -0.109998
4740210000 0.840373 -0.131129
4752208000 0.830401 -0.151697
4764206000 0.822491 -0.172057
4776204000 0.807813 -0.197677
4788202000 0.794831 -0.220931
4800200000 0.782198 -0.244759
4812198000 0.768817 -0.264341
4824196000 0.755426 -0.283111
4836194000 0.741374 -0.305006
4848192000 0.726459 -0.323385
4860190000 0.707937 -0.337669
4872188000 0.688646 -0.353025
4884186000 0.669964 -0.364004
4896184000 0.649284 -0.378234
4908182000 0.631799 -0.388547
4920180000 0.616331 -0.398603
4932178000 0.597186 -0.405432
4944176000 0.576666 -0.413745
4956174000 0.552239 -0.415888
4968172000 0.529319 -0.421299
4980170000 0.506753 -0.421498
4992168000 0.478985 -0.425036
5004166000 0.44754 -0.428156
5016164000 0.414869 -0.427317
5028162000 0.383877 -0.42165
5040160000 0.350417 -0.419995
5052158000 0.313404 -0.416583
5064156000 0.277149 -0.412589
5076154000 0.231284 -0.402792
5088152000 0.187842 -0.38499
5100150000 0.154493 -0.359135
5112148000 0.124629 -0.33743
5124146000 0.0988662 -0.318654
5136144000 0.071281 -0.295883
5148142000 0.041915 -0.271939
5160140000 0.0181758 -0.242716
5172138000 -7.66577e-05 -0.210095
5184136000 -0.00978997 -0.181943
5196134000 -0.0203173 -0.154038
5208132000 -0.0296008 -0.122471
5220130000 -0.0360606 -0.0858652
5232128000 -0.0300316 -0.0408059
5244126000 -0.0160063 -0.00340559
5256124000 -0.000529167 0.0327625
5268122000 0.0164524 0.0623908
5280120000 0.0238496 0.11298
5292118000 0.0397818 0.159913
5304116000 0.0627173 0.206241
5316114000 0.0890596 0.243321
5328112000 0.111247 0.270978
5340110000 0.12817 0.299118
5352108000 0.142957 0.325792
5364106000 0.167935 0.358411
5376104000 0.195084 0.37918
5388102000 0.223283 0.392732
5400100000 0.253234 0.402063
5412098000 0.278428 0.412193
5424096000 0.308168 0.421489
5436094000 0.339856 0.422976
5448092000 0.371483 0.421575
5460090000 0.400998 0.410979
5472088000 0.425462 0.402229
5484086000 0.450637 0.396509
5496084000 0.481611 0.386545
5508082000 0.510754 0.372402
5520080000 0.536093 0.358762
5532078000 0.559367 0.341775
5544076000 0.583177 0.327029
5556074000 0.604577 0.31391
5568072000 0.624207 0.297368
5580070000 0.644614 0.284074
5592068000 0.66353 0.267042
5604066000 0.679957 0.252667
5616064000 0.68922 0.243516
5628062000 0.705348 0.229183
5640060000 0.719183 0.218716
5652058000 0.730815 0.205774
5664056000 0.73974 0.196822
5676054000 0.749525 0.183385
5688052000 0.756056 0.174018
5700050000 0.764579 0.167384
5712048000 0.773122 0.155608
5724046000 0.77971 0.146309
5736044000 0.784729 0.132948
5748042000 0.790307 0.119826
5760040000 0.797019 0.104517
5772038000 0.799705 0.0860263
5784036000 0.804352 0.0701903
5796034000 0.809196 0.0505974
5808032000 0.810528 0.0264775
5820030000 0.811672 0.00324337
5832028000 0.813061 -0.0188449
5844026000 0.816264 -0.0438446
5856024000 0.814419 -0.0657296
5868022000 0.81865 -0.0848408
5880020000 0.819877 -0.0976269
5892018000 0.816925 -0.115871
5904016000 0.823511 -0.130645
5916014000 0.824533 -0.145581
5928012000 0.830315 -0.158131
5940010000 0.832405 -0.168585
5952008000 0.832166 -0.178045
5964006000 0.835966 -0.182705
5976004000 0.837603 -0.192852
5988002000 0.839014 -0.197727
6000000000 0.843002 -0.20871
