# Hz S RI R 50
1000000 1.00482 -0.0056863
12998000 0.982105 -0.0737905
24996000 0.971082 -0.133389
36994000 0.962505 -0.190508
48992000 0.949355 -0.248915
60990000 0.932772 -0.306791
72988000 0.912038 -0.36318
84986000 0.887949 -0.418603
96984000 0.860104 -0.472514
108982000 0.829273 -0.523704
120980000 0.795545 -0.572181
132978000 0.758817 -0.618727
144976000 0.720835 -0.662484
156974000 0.680136 -0.702283
168972000 0.639074 -0.737608
180970000 0.597338 -0.771519
192968000 0.553656 -0.801314
204966000 0.509814 -0.828832
216964000 0.46607 -0.852286
228962000 0.422893 -0.873722
240960000 0.379356 -0.892784
252958000 0.335011 -0.909559
264956000 0.292417 -0.923988
276954000 0.250393 -0.93621
288952000 0.207568 -0.947041
300950000 0.165614 -0.95518
312948000 0.125054 -0.961736
324946000 0.0817486 -0.965873
336944000 0.040799 -0.968887
348942000 -9.80054e-05 -0.969475
360940000 -0.0401914 -0.968571
372938000 -0.0800567 -0.966134
384936000 -0.118826 -0.962703
396934000 -0.156158 -0.957522
408932000 -0.191996 -0.951173
420930000 -0.226689 -0.944085
432928000 -0.25995 -0.935059
444926000 -0.290839 -0.924625
456924000 -0.321791 -0.914074
468922000 -0.351595 -0.902734
480920000 -0.380564 -0.890086
492918000 -0.408504 -0.876583
504916000 -0.434648 -0.863519
516914000 -0.460892 -0.850216
528912000 -0.486331 -0.836698
540910000 -0.510509 -0.822774
552908000 -0.534199 -0.808144
564906000 -0.558235 -0.793648
576904000 -0.58137 -0.77816
588902000 -0.603343 -0.762579
600900000 -0.624584 -0.745601
612898000 -0.645493 -0.728879
624896000 -0.665309 -0.711702
636894000 -0.684406 -0.694373
648892000 -0.702201 -0.676736
660890000 -0.718755 -0.659737
672888000 -0.734381 -0.642264
684886000 -0.749012 -0.6243
696884000 -0.762075 -0.607737
708882000 -0.774702 -0.590441
720880000 -0.786503 -0.573568
732878000 -0.798546 -0.555846
744876000 -0.809069 -0.537389
756874000 -0.819371 -0.51983
768872000 -0.830801 -0.501934
780870000 -0.841285 -0.482467
792868000 -0.850944 -0.463605
804866000 -0.860854 -0.444959
816864000 -0.871404 -0.426136
828862000 -0.881975 -0.408403
840860000 -0.890643 -0.388629
852858000 -0.899265 -0.369468
864856000 -0.906921 -0.349607
876854000 -0.914728 -0.332192
888852000 -0.922256 -0.314375
900850000 -0.927456 -0.296799
912848000 -0.933548 -0.28017
924846000 -0.93823 -0.263674
936844000 -0.942712 -0.248121
948842000 -0.946511 -0.235423
960840000 -0.950723 -0.222584
972838000 -0.954476 -0.208855
984836000 -0.956784 -0.196298
996834000 -0.958836 -0.18231
1008832000 -0.960991 -0.169044
1020830000 -0.962342 -0.155233
1032828000 -0.963571 -0.141521
1044826000 -0.964621 -0.12862
1056824000 -0.966479 -0.114183
1068822000 -0.968007 -0.0982662
1080820000 -0.96839 -0.0819628
1092818000 -0.969976 -0.0661967
1104816000 -0.969465 -0.0509638
1116814000 -0.970979 -0.0338929
1128812000 -0.971562 -0.0157277
1140810000 -0.970449 -6.4869e-05
1152808000 -0.971777 0.0177536
1164806000 -0.97153 0.0347669
1176804000 -0.970648 0.0514502
1188802000 -0.970704 0.0647314
1200800000 -0.97044 0.0764941
1212798000 -0.9711 0.0883406
1224796000 -0.974095 0.0995031
1236794000 -0.973025 0.115591
1248792000 -0.970645 0.124496
1260790000 -0.968837 0.133163
1272788000 -0.967878 0.142919
1284786000 -0.963866 0.150804
1296784000 -0.960964 0.159481
1308782000 -0.957045 0.16916
1320780000 -0.954815 0.178832
1332778000 -0.952777 0.187867
1344776000 -0.951026 0.196856
1356774000 -0.949182 0.205707
1368772000 -0.947769 0.216122
1380770000 -0.944794 0.2279
1392768000 -0.941634 0.239665
1404766000 -0.939923 0.252577
1416764000 -0.935369 0.265873
1428762000 -0.931881 0.277569
1440760000 -0.92798 0.291169
1452758000 -0.924694 0.303572
1464756000 -0.920989 0.316861
1476754000 -0.917726 0.331712
1488752000 -0.913152 0.346027
1500750000 -0.907588 0.359016
1512748000 -0.900591 0.370951
1524746000 -0.894179 0.381817
1536744000 -0.887269 0.393904
1548742000 -0.880111 0.404223
1560740000 -0.873723 0.415951
1572738000 -0.868948 0.426334
1584736000 -0.864767 0.436908
1596734000 -0.860889 0.446465
1608732000 -0.857193 0.45558
1620730000 -0.853237 0.463812
1632728000 -0.849635 0.473028
1644726000 -0.846206 0.480122
1656724000 -0.842383 0.488935
1668722000 -0.837779 0.496986
1680720000 -0.836026 0.505804
1692718000 -0.831915 0.514889
1704716000 -0.828248 0.521585
1716714000 -0.824145 0.532432
1728712000 -0.817344 0.542339
1740710000 -0.813191 0.550806
1752708000 -0.806556 0.558524
1764706000 -0.798894 0.566251
1776704000 -0.789686 0.575927
1788702000 -0.779033 0.585399
1800700000 -0.768846 0.595519
1812698000 -0.757125 0.604826
1824696000 -0.745936 0.616413
1836694000 -0.735466 0.626905
1848692000 -0.72478 0.637694
1860690000 -0.714765 0.648355
1872688000 -0.705678 0.657898
1884686000 -0.697918 0.667542
1896684000 -0.691579 0.675904
1908682000 -0.686278 0.685632
1920680000 -0.681306 0.694064
1932678000 -0.67862 0.703808
1944676000 -0.675804 0.711039
1956674000 -0.674531 0.716294
1968672000 -0.673341 0.72409
1980670000 -0.674433 0.727955
1992668000 -0.671262 0.733871
2004666000 -0.669298 0.737433
2016664000 -0.663523 0.742642
2028662000 -0.657838 0.745788
2040660000 -0.651077 0.747984
2052658000 -0.640914 0.750216
2064656000 -0.629682 0.752937
2076654000 -0.617059 0.757531
2088652000 -0.602264 0.762531
2100650000 -0.589392 0.767172
2112648000 -0.572873 0.775042
2124646000 -0.55722 0.78255
2136644000 -0.540444 0.791615
2148642000 -0.527496 0.802909
2160640000 -0.514363 0.814047
2172638000 -0.50163 0.827142
2184636000 -0.492227 0.837354
2196634000 -0.485518 0.847601
2208632000 -0.478829 0.858635
2220630000 -0.473054 0.867421
2232628000 -0.470042 0.873927
2244626000 -0.467004 0.87864
2256624000 -0.465929 0.88162
2268622000 -0.462145 0.882794
2280620000 -0.458756 0.884902
2292618000 -0.459794 0.883596
2304616000 -0.458604 0.881638
2316614000 -0.453479 0.877812
2328612000 -0.447055 0.876492
2340610000 -0.437701 0.875036
2352608000 -0.428032 0.872947
2364606000 -0.416649 0.873722
2376604000 -0.405723 0.87556
2388602000 -0.393615 0.87898
2400600000 -0.380743 0.882604
2412598000 -0.368313 0.890534
2424596000 -0.354256 0.897623
2436594000 -0.3397 0.905455
2448592000 -0.327266 0.911041
2460590000 -0.314262 0.919588
2472588000 -0.304655 0.927239
2484586000 -0.295199 0.933746
2496584000 -0.285304 0.939891
2508582000 -0.279169 0.946421
2520580000 -0.273188 0.948496
2532578000 -0.269386 0.952046
2544576000 -0.268045 0.953081
2556574000 -0.264933 0.953653
2568572000 -0.26235 0.954804
2580570000 -0.260258 0.953027
2592568000 -0.255657 0.94984
2604566000 -0.24433 0.945804
2616564000 -0.245223 0.949281
2628562000 -0.237803 0.948906
2640560000 -0.229193 0.94832
2652558000 -0.220618 0.947672
2664556000 -0.213393 0.94944
2676554000 -0.202912 0.951431
2688552000 -0.19329 0.951826
2700550000 -0.182574 0.953424
2712548000 -0.171416 0.955346
2724546000 -0.158034 0.957067
2736544000 -0.14502 0.962055
2748542000 -0.133204 0.96638
2760540000 -0.120704 0.970043
2772538000 -0.108762 0.973218
2784536000 -0.0965976 0.975902
2796534000 -0.0855296 0.978361
2808532000 -0.0750035 0.977776
2820530000 -0.0633104 0.979313
2832528000 -0.0538964 0.981113
2844526000 -0.0454223 0.981433
2856524000 -0.0348254 0.979911
2868522000 -0.0277849 0.979172
2880520000 -0.0161706 0.979211
2892518000 -0.00814441 0.97719
2904516000 -0.00110041 0.976648
2916514000 0.00885678 0.97556
2928512000 0.0183802 0.974548
2940510000 0.0293704 0.973331
2952508000 0.0377139 0.97252
2964506000 0.0455432 0.970674
2976504000 0.0510969 0.973756
2988502000 0.0590025 0.971132
3000500000 0.0663533 0.973328
3012498000 0.0723897 0.972671
3024496000 0.082724 0.973516
3036494000 0.0889965 0.971557
3048492000 0.0965691 0.971864
3060490000 0.103723 0.970669
3072488000 0.112302 0.970695
3084486000 0.122226 0.969987
3096484000 0.134502 0.967336
3108482000 0.144856 0.967113
3120480000 0.154935 0.959693
3132478000 0.166251 0.959793
3144476000 0.178616 0.957681
3156474000 0.193016 0.954743
3168472000 0.20758 0.949663
3180470000 0.219857 0.947669
3192468000 0.231623 0.943811
3204466000 0.242197 0.940576
3216464000 0.253318 0.93793
3228462000 0.264746 0.934344
3240460000 0.269957 0.933413
3252458000 0.276425 0.933241
3264456000 0.282491 0.933663
3276454000 0.285345 0.932081
3288452000 0.292429 0.928469
3300450000 0.294958 0.927693
3312448000 0.298847 0.923877
3324446000 0.303416 0.921499
3336444000 0.308217 0.91861
3348442000 0.314007 0.915749
3360440000 0.321304 0.912206
3372438000 0.3281 0.907899
3384436000 0.33717 0.903704
3396434000 0.349232 0.898268
3408432000 0.358379 0.89423
3420430000 0.372232 0.891466
3432428000 0.381121 0.884233
3444426000 0.393879 0.878296
3456424000 0.408724 0.873447
3468422000 0.397512 0.883078
3480420000 0.434294 0.861359
3492418000 0.446885 0.856817
3504416000 0.458153 0.851125
3516414000 0.465089 0.846074
3528412000 0.477795 0.841406
3540410000 0.484134 0.83866
3552408000 0.491748 0.8294
3564406000 0.500391 0.828017
3576404000 0.503003 0.821432
3588402000 0.509412 0.818641
3600400000 0.513828 0.812668
3612398000 0.518386 0.808842
3624396000 0.522356 0.804808
3636394000 0.526192 0.800709
3648392000 0.530736 0.796236
3660390000 0.536574 0.793452
3672388000 0.539667 0.786625
3684386000 0.543881 0.784425
3696384000 0.553679 0.778655
3708382000 0.559583 0.774446
3720380000 0.567301 0.770045
3732378000 0.576543 0.762462
3744376000 0.586086 0.755107
3756374000 0.597753 0.748049
3768372000 0.608976 0.739752
3780370000 0.620633 0.731325
3792368000 0.6316 0.721611
3804366000 0.643141 0.712803
3816364000 0.653905 0.704666
3828362000 0.663236 0.69644
3840360000 0.672322 0.685796
3852358000 0.680491 0.674277
3864356000 0.688022 0.663659
3876354000 0.695331 0.65464
3888352000 0.703056 0.645491
3900350000 0.709519 0.637071
3912348000 0.715012 0.628947
3924346000 0.720286 0.622731
3936344000 0.722281 0.616999
3948342000 0.72841 0.6106
3960340000 0.733753 0.603542
3972338000 0.73814 0.599156
3984336000 0.744073 0.588512
3996334000 0.749529 0.583651
4008332000 0.756185 0.579186
4020330000 0.761378 0.573156
4032328000 0.767661 0.567198
4044326000 0.772414 0.561525
4056324000 0.774702 0.555412
4068322000 0.779109 0.547076
4080320000 0.784092 0.53926
4092318000 0.788763 0.531065
4104316000 0.795606 0.521327
4116314000 0.796362 0.514737
4128312000 0.804456 0.504881
4140310000 0.80911 0.493464
4152308000 0.810044 0.482167
4164306000 0.813495 0.470737
4176304000 0.818438 0.459342
4188302000 0.823291 0.445868
4200300000 0.828478 0.434511
4212298000 0.837219 0.416535
4224296000 0.846812 0.402231
4236294000 0.85445 0.388999
4248292000 0.861379 0.380377
4260290000 0.869377 0.365621
4272288000 0.87641 0.358879
4284286000 0.875941 0.352983
4296284000 0.874769 0.349697
4308282000 0.87489 0.344741
4320280000 0.87645 0.33822
4332278000 0.876607 0.333229
4344276000 0.8789 0.32619
4356274000 0.87432 0.319498
4368272000 0.876401 0.310919
4380270000 0.87415 0.297058
4392268000 0.873212 0.284833
4404266000 0.877825 0.268294
4416264000 0.882257 0.251777
4428262000 0.885726 0.230914
4440260000 0.887555 0.212159
4452258000 0.89224 0.194929
4464256000 0.894752 0.174574
4476254000 0.897749 0.156396
4488252000 0.899919 0.142493
4500250000 0.901675 0.124209
4512248000 0.904979 0.109362
4524246000 0.905366 0.0918778
4536244000 0.909188 0.0798861
4548242000 0.90762 0.0646493
4560240000 0.908778 0.0500525
4572238000 0.902624 0.042567
4584236000 0.901016 0.0326743
4596234000 0.893948 0.0251
4608232000 0.891956 0.0207903
4620230000 0.888286 0.0142497
4632228000 0.884688 0.00354807
4644226000 0.881658 -0.00701011
4656224000 0.880207 -0.018819
4668222000 0.871832 -0.0346963
4680220000 0.868755 -0.0463807
4692218000 0.864694 -0.0606692
4704216000 0.858198 -0.0744553
4716214000 0.851714 -0.088514
4728212000 0.84392 -0.103864
4740210000 0.8343 -0.124718
4752208000 0.828058 -0.147656
4764206000 0.81642 -0.169554
4776204000 0.80344 -0.190758
4788202000 0.791383 -0.215014
4800200000 0.778354 -0.240283
4812198000 0.764934 -0.26085
4824196000 0.748252 -0.279412
4836194000 0.732494 -0.297904
4848192000 0.716001 -0.313234
4860190000 0.702369 -0.327735
4872188000 0.684084 -0.339994
4884186000 0.665777 -0.352241
4896184000 0.651379 -0.367633
4908182000 0.634595 -0.379762
4920180000 0.617438 -0.387998
4932178000 0.599677 -0.397914
4944176000 0.578883 -0.404408
4956174000 0.55831 -0.407472
4968172000 0.53805 -0.414038
4980170000 0.509198 -0.415358
4992168000 0.485325 -0.415908
5004166000 0.457233 -0.423176
5016164000 0.426467 -0.422955
5028162000 0.394246 -0.428138
5040160000 0.352577 -0.423675
5052158000 0.313547 -0.416015
5064156000 0.276431 -0.40906
5076154000 0.235841 -0.395816
5088152000 0.200633 -0.380704
5100150000 0.164768 -0.365808
5112148000 0.135605 -0.347022
5124146000 0.100725 -0.33267
5136144000 0.0660661 -0.312131
5148142000 0.0356458 -0.285336
5160140000 0.0067644 -0.254548
5172138000 -0.0176127 -0.222765
5184136000 -0.0356134 -0.183083
5196134000 -0.042983 -0.144684
5208132000 -0.0423456 -0.110756
5220130000 -0.0434745 -0.0731432
5232128000 -0.0311316 -0.0342949
5244126000 -0.0247232 -0.00419221
5256124000 -0.0114509 0.0413904
5268122000 0.00932419 0.0777705
5280120000 0.0198934 0.129056
5292118000 0.0439898 0.17175
5304116000 0.0644255 0.214843
5316114000 0.0871347 0.255362
5328112000 0.116057 0.290532
5340110000 0.137707 0.315016
5352108000 0.16163 0.338526
5364106000 0.188474 0.356581
5376104000 0.202955 0.373919
5388102000 0.228819 0.387748
5400100000 0.25456 0.400373
5412098000 0.281326 0.409554
5424096000 0.309694 0.418022
5436094000 0.339985 0.419632
5448092000 0.369911 0.415804
5460090000 0.39536 0.410051
5472088000 0.423889 0.402979
5484086000 0.450196 0.393187
5496084000 0.476378 0.382512
5508082000 0.50246 0.369473
5520080000 0.525131 0.357982
5532078000 0.550536 0.345197
5544076000 0.574812 0.328781
5556074000 0.597143 0.317824
5568072000 0.619619 0.300857
5580070000 0.637335 0.285802
5592068000 0.654385 0.272886
5604066000 0.672994 0.260118
5616064000 0.684875 0.250221
5628062000 0.701842 0.23682
5640060000 0.714813 0.224808
5652058000 0.725982 0.215893
5664056000 0.738633 0.203034
5676054000 0.747584 0.1922
5688052000 0.75888 0.182975
5700050000 0.766992 0.17246
5712048000 0.774843 0.161141
5724046000 0.781753 0.149889
5736044000 0.786582 0.137642
5748042000 0.790791 0.121922
5760040000 0.797143 0.107309
5772038000 0.800965 0.0905536
5784036000 0.80453 0.0715398
5796034000 0.807755 0.051221
5808032000 0.807929 0.0273626
5820030000 0.811422 0.00286108
5832028000 0.81089 -0.0200629
5844026000 0.811518 -0.0449216
5856024000 0.808884 -0.0681681
5868022000 0.813671 -0.0860479
5880020000 0.815962 -0.0974927
5892018000 0.814786 -0.119675
5904016000 0.819723 -0.128205
5916014000 0.819641 -0.145184
5928012000 0.821638 -0.157294
5940010000 0.82814 -0.165845
5952008000 0.827921 -0.176705
5964006000 0.831872 -0.182539
5976004000 0.832238 -0.191045
5988002000 0.833786 -0.193911
6000000000 0.837669 -0.204282
